Freq.	V(vin)/I(R1)
1.00000000000000e+000	(6.79596845222395e+001dB,5.77805915503054e-004°)
1.25892541179417e+000	(6.79596845230381e+001dB,7.27414550005762e-004°)
1.58489319246111e+000	(6.79596845243037e+001dB,9.15760661699523e-004°)
1.99526231496888e+000	(6.79596845263096e+001dB,1.15287436771287e-003°)
2.51188643150958e+000	(6.79596845294886e+001dB,1.45138283727766e-003°)
3.16227766016838e+000	(6.79596845345271e+001dB,1.82718273441036e-003°)
3.98107170553497e+000	(6.79596845425126e+001dB,2.30028677298789e-003°)
5.01187233627272e+000	(6.79596845551687e+001dB,2.89588946623862e-003°)
6.30957344480194e+000	(6.79596845752273e+001dB,3.64570882544686e-003°)
7.94328234724282e+000	(6.79596846070181e+001dB,4.58967545772460e-003°)
1.00000000000000e+001	(6.79596846574030e+001dB,5.77805901247827e-003°)
1.25892541179417e+001	(6.79596847372577e+001dB,7.27414521562843e-003°)
1.58489319246111e+001	(6.79596848638190e+001dB,9.15760604948437e-003°)
1.99526231496888e+001	(6.79596850644050e+001dB,1.15287425447957e-002°)
2.51188643150958e+001	(6.79596853823123e+001dB,1.45138261134755e-002°)
3.16227766016838e+001	(6.79596858861615e+001dB,1.82718228362056e-002°)
3.98107170553498e+001	(6.79596866847084e+001dB,2.30028587354415e-002°)
5.01187233627273e+001	(6.79596879503194e+001dB,2.89588767161289e-002°)
6.30957344480194e+001	(6.79596899561764e+001dB,3.64570524469927e-002°)
7.94328234724283e+001	(6.79596931352423e+001dB,4.58966831319856e-002°)
1.00000000000000e+002	(6.79596981737142e+001dB,5.77804475728959e-002°)
1.25892541179417e+002	(6.79597061591339e+001dB,7.27411677283475e-002°)
1.58489319246112e+002	(6.79597188151208e+001dB,9.15754929879891e-002°)
1.99526231496888e+002	(6.79597388733814e+001dB,1.15286293127625e-001°)
2.51188643150958e+002	(6.79597706632635e+001dB,1.45136001873557e-001°)
3.16227766016838e+002	(6.79598210460307e+001dB,1.82713720590412e-001°)
3.98107170553498e+002	(6.79599008953252e+001dB,2.30019593316415e-001°)
5.01187233627273e+002	(6.79600274428790e+001dB,2.89570822167004e-001°)
6.30957344480194e+002	(6.79602279945529e+001dB,3.64534720987768e-001°)
7.94328234724283e+002	(6.79605458156825e+001dB,4.58895398688230e-001°)
1.00000000000000e+003	(6.79610494482340e+001dB,5.77661963773319e-001°)
1.25892541179417e+003	(6.79618474511725e+001dB,7.27127375597093e-001°)
1.58489319246112e+003	(6.79631116963298e+001dB,9.15187822148961e-001°)
1.99526231496888e+003	(6.79651141243237e+001dB,1.15173187250755e+000°)
2.51188643150959e+003	(6.79682845843252e+001dB,1.44910474406510e+000°)
3.16227766016839e+003	(6.79733014683883e+001dB,1.82264202632815e+000°)
3.98107170553498e+003	(6.79812327777965e+001dB,2.29124164264534e+000°)
5.01187233627273e+003	(6.79937533046380e+001dB,2.87788856021253e+000°)
6.30957344480195e+003	(6.80134731166683e+001dB,3.60993827595431e+000°)
7.94328234724283e+003	(6.80444199705141e+001dB,4.51876016998357e+000°)
1.00000000000000e+004	(6.80927128855126e+001dB,5.63798162120981e+000°)
1.25892541179417e+004	(6.81674195595835e+001dB,6.99901082817056e+000°)
1.58489319246112e+004	(6.82814536389553e+001dB,8.62182779814026e+000°)
1.99526231496889e+004	(6.84520609763620e+001dB,1.04987210901778e+001°)
2.51188643150959e+004	(6.86999313794926e+001dB,1.25701449376445e+001°)
3.16227766016839e+004	(6.90454885975721e+001dB,1.46976321036326e+001°)
3.98107170553498e+004	(6.95012978035419e+001dB,1.66497873254566e+001°)
5.01187233627274e+004	(7.00619800322632e+001dB,1.81268580549432e+001°)
6.30957344480195e+004	(7.06971176615200e+001dB,1.88392334876283e+001°)
7.94328234724284e+004	(7.13542433376949e+001dB,1.86156998070294e+001°)
1.00000000000000e+005	(7.19736650193785e+001dB,1.74777699890963e+001°)
1.25892541179417e+005	(7.25075684536404e+001dB,1.56269801919026e+001°)
1.58489319246112e+005	(7.29320845409495e+001dB,1.33544107896515e+001°)
1.99526231496889e+005	(7.32470664483610e+001dB,1.09346709327243e+001°)
2.51188643150959e+005	(7.34674087502124e+001dB,8.56079742469387e+000°)
3.16227766016839e+005	(7.36131366208015e+001dB,6.33194206066752e+000°)
3.98107170553499e+005	(7.37026787879551e+001dB,4.27303083027814e+000°)
5.01187233627274e+005	(7.37498441498327e+001dB,2.36256211412282e+000°)
6.30957344480196e+005	(7.37632200041054e+001dB,5.56019046788944e-001°)
7.94328234724285e+005	(7.37467124657006e+001dB,-1.19793857094413e+000°)
1.00000000000000e+006	(7.37005002409676e+001dB,-2.94756384944799e+000°)
1.25892541179417e+006	(7.36220006673823e+001dB,-4.73341794240969e+000°)
1.58489319246112e+006	(7.35063703860608e+001dB,-6.58797268908808e+000°)
1.99526231496889e+006	(7.33460006975929e+001dB,-8.53497663765216e+000°)
2.51188643150959e+006	(7.31292478508708e+001dB,-1.05795370207621e+001°)
3.16227766016839e+006	(7.28402608823284e+001dB,-1.26826273287238e+001°)
3.98107170553499e+006	(7.24625826882296e+001dB,-1.47282314476888e+001°)
5.01187233627275e+006	(7.19876009724330e+001dB,-1.65084215080904e+001°)
6.30957344480196e+006	(7.14250500557675e+001dB,-1.77559780552301e+001°)
7.94328234724285e+006	(7.08087234353731e+001dB,-1.82322779391086e+001°)
1.00000000000000e+007	(7.01907692371726e+001dB,-1.78325763355163e+001°)
1.25892541179417e+007	(6.96252419014234e+001dB,-1.66403587369565e+001°)
1.58489319246112e+007	(6.91505108741566e+001dB,-1.48910513248857e+001°)
1.99526231496889e+007	(6.87809941711179e+001dB,-1.28738990153189e+001°)
2.51188643150959e+007	(6.85105122536592e+001dB,-1.08388028816178e+001°)
3.16227766016839e+007	(6.83215791579883e+001dB,-8.95141296155844e+000°)
3.98107170553499e+007	(6.81939948124977e+001dB,-7.29442169967711e+000°)
5.01187233627275e+007	(6.81098313766039e+001dB,-5.89085511296172e+000°)
6.30957344480196e+007	(6.80551769151160e+001dB,-4.72922969343494e+000°)
7.94328234724286e+007	(6.80200497757988e+001dB,-3.78209228464299e+000°)
1.00000000000001e+008	(6.79976236439273e+001dB,-3.01717935135391e+000°)
1.25892541179417e+008	(6.79833675175979e+001dB,-2.40317632793540e+000°)
1.58489319246112e+008	(6.79743297745067e+001dB,-1.91220817652758e+000°)
1.99526231496889e+008	(6.79686101966140e+001dB,-1.52057909318823e+000°)
2.51188643150959e+008	(6.79649945104069e+001dB,-1.20867186413695e+000°)
3.16227766016840e+008	(6.79627104043814e+001dB,-9.60500360367846e-001°)
3.98107170553499e+008	(6.79612681177755e+001dB,-7.63162412969717e-001°)
5.01187233627275e+008	(6.79603576464806e+001dB,-6.06306739405764e-001°)
6.30957344480197e+008	(6.79597829957900e+001dB,-4.81659373219474e-001°)
7.94328234724286e+008	(6.79594203420586e+001dB,-3.82622123939718e-001°)
1.00000000000001e+009	(6.79591914933125e+001dB,-3.03940835574510e-001°)
1.25892541179417e+009	(6.79590470875681e+001dB,-2.41435444770738e-001°)
1.58489319246112e+009	(6.79589559689126e+001dB,-1.91782327904102e-001°)
1.99526231496889e+009	(6.79588984750112e+001dB,-1.52339790784615e-001°)
2.51188643150960e+009	(6.79588621980464e+001dB,-1.21008635553321e-001°)
3.16227766016840e+009	(6.79588393085236e+001dB,-9.61209961141102e-002°)
3.98107170553500e+009	(6.79588248660893e+001dB,-7.63518317937519e-002°)
5.01187233627275e+009	(6.79588157534808e+001dB,-6.06485213343135e-002°)
6.30957344480197e+009	(6.79588100037943e+001dB,-4.81748857999953e-002°)
7.94328234724287e+009	(6.79588063759796e+001dB,-3.82666985135384e-002°)
1.00000000000001e+010	(6.79588040869802e+001dB,-3.03963323695339e-002°)
1.25892541179418e+010	(6.79588026427180e+001dB,-2.41446716942610e-002°)
1.58489319246112e+010	(6.79588017314497e+001dB,-1.91787977833535e-002°)
1.99526231496889e+010	(6.79588011564781e+001dB,-1.52342622605780e-002°)
2.51188643150960e+010	(6.79588007936954e+001dB,-1.21010054873554e-002°)
3.16227766016840e+010	(6.79588005647950e+001dB,-9.61217074744741e-003°)
3.98107170553500e+010	(6.79588004203686e+001dB,-7.63521883233111e-003°)
5.01187233627276e+010	(6.79588003292417e+001dB,-6.06487000239071e-003°)
6.30957344480198e+010	(6.79588002717445e+001dB,-4.81749753574238e-003°)
7.94328234724287e+010	(6.79588002354662e+001dB,-3.82667433987324e-003°)
1.00000000000000e+011	(6.79588002125762e+001dB,-3.03963548654686e-003°)
