Freq.	V(vin)/I(R1)
1.00000000000000e+000	(8.79588092579357e+001dB,5.85730230296350e-006°)
1.25892541179417e+000	(8.79588092579360e+001dB,7.37390671376174e-006°)
1.58489319246111e+000	(8.79588092579365e+001dB,9.28319854615565e-006°)
1.99526231496888e+000	(8.79588092579373e+001dB,1.16868545524884e-005°)
2.51188643150958e+000	(8.79588092579386e+001dB,1.47128781800750e-005°)
3.16227766016838e+000	(8.79588092579405e+001dB,1.85224162215383e-005°)
3.98107170553497e+000	(8.79588092579436e+001dB,2.33183404691422e-005°)
5.01187233627272e+000	(8.79588092579485e+001dB,2.93560513775107e-005°)
6.30957344480194e+000	(8.79588092579564e+001dB,3.69570790691608e-005°)
7.94328234724282e+000	(8.79588092579687e+001dB,4.65262059860072e-005°)
1.00000000000000e+001	(8.79588092579883e+001dB,5.85730230304640e-005°)
1.25892541179417e+001	(8.79588092580194e+001dB,7.37390671392740e-005°)
1.58489319246111e+001	(8.79588092580687e+001dB,9.28319854648579e-005°)
1.99526231496888e+001	(8.79588092581468e+001dB,1.16868545531473e-004°)
2.51188643150958e+001	(8.79588092582705e+001dB,1.47128781813898e-004°)
3.16227766016838e+001	(8.79588092584666e+001dB,1.85224162241612e-004°)
3.98107170553498e+001	(8.79588092587775e+001dB,2.33183404743767e-004°)
5.01187233627273e+001	(8.79588092592701e+001dB,2.93560513879545e-004°)
6.30957344480194e+001	(8.79588092600509e+001dB,3.69570790899992e-004°)
7.94328234724283e+001	(8.79588092612883e+001dB,4.65262060275866e-004°)
1.00000000000000e+002	(8.79588092632495e+001dB,5.85730231134261e-004°)
1.25892541179417e+002	(8.79588092663578e+001dB,7.37390673048016e-004°)
1.58489319246112e+002	(8.79588092712841e+001dB,9.28319857951308e-004°)
1.99526231496888e+002	(8.79588092790918e+001dB,1.16868546190452e-003°)
2.51188643150958e+002	(8.79588092914661e+001dB,1.47128783128732e-003°)
3.16227766016838e+002	(8.79588093110780e+001dB,1.85224164865052e-003°)
3.98107170553498e+002	(8.79588093421609e+001dB,2.33183409978217e-003°)
5.01187233627273e+002	(8.79588093914240e+001dB,2.93560524323650e-003°)
6.30957344480194e+002	(8.79588094695008e+001dB,3.69570811738701e-003°)
7.94328234724283e+002	(8.79588095932441e+001dB,4.65262101854533e-003°)
1.00000000000000e+003	(8.79588097893642e+001dB,5.85730314094496e-003°)
1.25892541179417e+003	(8.79588101001938e+001dB,7.37390838575152e-003°)
1.58489319246112e+003	(8.79588105928263e+001dB,9.28320188220389e-003°)
1.99526231496888e+003	(8.79588113735979e+001dB,1.16868612087482e-002°)
2.51188643150959e+003	(8.79588126110418e+001dB,1.47128914609602e-002°)
3.16227766016839e+003	(8.79588145722693e+001dB,1.85224427200741e-002°)
3.98107170553498e+003	(8.79588176806329e+001dB,2.33183933396807e-002°)
5.01187233627273e+003	(8.79588226071265e+001dB,2.93561568649661e-002°)
6.30957344480195e+003	(8.79588304152667e+001dB,3.69572895343855e-002°)
7.94328234724283e+003	(8.79588427907720e+001dB,4.65266258879681e-002°)
1.00000000000000e+004	(8.79588624057238e+001dB,5.85738607458180e-002°)
1.25892541179417e+004	(8.79588934960848e+001dB,7.37407382874234e-002°)
1.58489319246112e+004	(8.79589427779123e+001dB,9.28353188516189e-002°)
1.99526231496889e+004	(8.79590209017417e+001dB,1.16875193374576e-001°)
2.51188643150959e+004	(8.79591447633624e+001dB,1.47142036079999e-001°)
3.16227766016839e+004	(8.79593411805472e+001dB,1.85250576585160e-001°)
3.98107170553498e+004	(8.79596527564257e+001dB,2.33236008964041e-001°)
5.01187233627274e+004	(8.79601472630447e+001dB,2.93665158772218e-001°)
6.30957344480195e+004	(8.79609327409897e+001dB,3.69778589746746e-001°)
7.94328234724284e+004	(8.79621820015514e+001dB,4.65673520605426e-001°)
1.00000000000000e+005	(8.79641728897736e+001dB,5.86541202737299e-001°)
1.25892541179417e+005	(8.79673556703317e+001dB,7.38977005971870e-001°)
1.58489319246112e+005	(8.79724687234744e+001dB,9.31383823308989e-001°)
1.99526231496889e+005	(8.79807438976371e+001dB,1.17447533575764e+000°)
2.51188643150959e+005	(8.79942854769045e+001dB,1.48179972814606e+000°)
3.16227766016839e+005	(8.80167964975509e+001dB,1.86984382566166e+000°)
3.98107170553499e+005	(8.80549992590830e+001dB,2.35592687582562e+000°)
5.01187233627274e+005	(8.81213074999120e+001dB,2.94737237627863e+000°)
6.30957344480196e+005	(8.82377221111925e+001dB,3.60092528677397e+000°)
7.94328234724285e+005	(8.84345640117904e+001dB,4.10411986668966e+000°)
1.00000000000000e+006	(8.87135603145282e+001dB,3.90118161229793e+000°)
1.25892541179417e+006	(8.89585973476453e+001dB,2.45201705066036e+000°)
1.58489319246112e+006	(8.90116452157027e+001dB,4.03091152078990e-001°)
1.99526231496889e+006	(8.89101733152297e+001dB,-1.11849987369525e+000°)
2.51188643150959e+006	(8.87710026047262e+001dB,-1.94595258565473e+000°)
3.16227766016839e+006	(8.86425635831044e+001dB,-2.36357918740660e+000°)
3.98107170553499e+006	(8.85286199828717e+001dB,-2.57370869895405e+000°)
5.01187233627275e+006	(8.84238122382008e+001dB,-2.65387102724226e+000°)
6.30957344480196e+006	(8.83258824820193e+001dB,-2.62074079704729e+000°)
7.94328234724285e+006	(8.82369530524812e+001dB,-2.48061250264142e+000°)
1.00000000000000e+007	(8.81608514279721e+001dB,-2.25367095600669e+000°)
1.25892541179417e+007	(8.81000873127294e+001dB,-1.97438880967599e+000°)
1.58489319246112e+007	(8.80545880698932e+001dB,-1.67952324744412e+000°)
1.99526231496889e+007	(8.80222505356538e+001dB,-1.39743398837425e+000°)
2.51188643150959e+007	(8.80001439353245e+001dB,-1.14460256737390e+000°)
3.16227766016839e+007	(8.79854394635479e+001dB,-9.27522846148141e-001°)
3.98107170553499e+007	(8.79758382982138e+001dB,-7.46286673560070e-001°)
5.01187233627275e+007	(8.79696455906742e+001dB,-5.97686595954110e-001°)
6.30957344480196e+007	(8.79656829437593e+001dB,-4.77248863700307e-001°)
7.94328234724286e+007	(8.79631601659023e+001dB,-3.80354241890594e-001°)
1.00000000000001e+008	(8.79615592149380e+001dB,-3.02765223755070e-001°)
1.25892541179417e+008	(8.79605452440055e+001dB,-2.40819581036881e-001°)
1.58489319246112e+008	(8.79599037432805e+001dB,-1.91456023317014e-001°)
1.99526231496889e+008	(8.79594980785449e+001dB,-1.52165284490461e-001°)
2.51188643150959e+008	(8.79592415521608e+001dB,-1.20914909899600e-001°)
3.16227766016840e+008	(8.79590792982550e+001dB,-9.60707787411528e-002°)
3.98107170553499e+008	(8.79589766506115e+001dB,-7.63251486590243e-002°)
5.01187233627275e+008	(8.79589117126916e+001dB,-6.06345057026503e-002°)
6.30957344480197e+008	(8.79588706423173e+001dB,-4.81676104999423e-002°)
7.94328234724286e+008	(8.79588446786148e+001dB,-3.82629604299628e-002°)
1.00000000000001e+009	(8.79588282728316e+001dB,-3.03944268660510e-002°)
1.25892541179417e+009	(8.79588179108092e+001dB,-2.41437058770522e-002°)
1.58489319246112e+009	(8.79588113682193e+001dB,-1.91783101654602e-002°)
1.99526231496889e+009	(8.79588072381989e+001dB,-1.52340167153318e-002°)
2.51188643150960e+009	(8.79588046315404e+001dB,-1.21008820508641e-002°)
3.16227766016840e+009	(8.79588029865282e+001dB,-9.61210876361160e-003°)
3.98107170553500e+009	(8.79588019484658e+001dB,-7.63518772891765e-003°)
5.01187233627275e+009	(8.79588012934406e+001dB,-6.06485440171762e-003°)
6.30957344480197e+009	(8.79588008801267e+001dB,-4.81748971306680e-003°)
7.94328234724287e+009	(8.79588006193350e+001dB,-3.82667041803855e-003°)
1.00000000000001e+010	(8.79588004547832e+001dB,-3.03963352059043e-003°)
1.25892541179418e+010	(8.79588003509567e+001dB,-2.41446731146186e-003°)
1.58489319246112e+010	(8.79588002854461e+001dB,-1.91787984948386e-003°)
1.99526231496889e+010	(8.79588002441115e+001dB,-1.52342626170458e-003°)
2.51188643150960e+010	(8.79588002180310e+001dB,-1.21010056659750e-003°)
3.16227766016840e+010	(8.79588002015753e+001dB,-9.61217083695780e-004°)
3.98107170553500e+010	(8.79588001911925e+001dB,-7.63521887718821e-004°)
5.01187233627276e+010	(8.79588001846413e+001dB,-6.06487002487165e-004°)
6.30957344480198e+010	(8.79588001805078e+001dB,-4.81749754700912e-004°)
7.94328234724287e+010	(8.79588001778998e+001dB,-3.82667434551963e-004°)
1.00000000000000e+011	(8.79588001762542e+001dB,-3.03963548937683e-004°)
