Freq.	V(vout)/V(vin)
1.00000000000000e+000	(-1.97839479427722e+002dB,1.11194644429371e+001°)
1.00230523807790e+000	(-1.97838736115041e+002dB,1.11444593820696e+001°)
1.00461579027840e+000	(-1.97837985364340e+002dB,1.11695022641961e+001°)
1.00693166885180e+000	(-1.97837233926136e+002dB,1.11946019778051e+001°)
1.00925288607668e+000	(-1.97836475779915e+002dB,1.12197507820528e+001°)
1.01157945425990e+000	(-1.97835721066442e+002dB,1.12449620593850e+001°)
1.01391138573668e+000	(-1.97834957973726e+002dB,1.12702204575555e+001°)
1.01624869287070e+000	(-1.97834189747543e+002dB,1.12955303211812e+001°)
1.01859138805412e+000	(-1.97833424164955e+002dB,1.13209020183666e+001°)
1.02093948370768e+000	(-1.97832651077968e+002dB,1.13463222858429e+001°)
1.02329299228075e+000	(-1.97831873516022e+002dB,1.13717952193285e+001°)
1.02565192625141e+000	(-1.97831094434740e+002dB,1.13973248536572e+001°)
1.02801629812647e+000	(-1.97830312280008e+002dB,1.14229092494392e+001°)
1.03038612044162e+000	(-1.97829524469728e+002dB,1.14485450752802e+001°)
1.03276140576140e+000	(-1.97828734472664e+002dB,1.14742370702088e+001°)
1.03514216667934e+000	(-1.97827946331895e+002dB,1.14999907869779e+001°)
1.03752841581801e+000	(-1.97827146274670e+002dB,1.15257878639009e+001°)
1.03992016582906e+000	(-1.97826345518551e+002dB,1.15516434620295e+001°)
1.04231742939330e+000	(-1.97825542156339e+002dB,1.15775551455969e+001°)
1.04472021922080e+000	(-1.97824737508561e+002dB,1.16035248273425e+001°)
1.04712854805090e+000	(-1.97823923573228e+002dB,1.16295417806929e+001°)
1.04954242865232e+000	(-1.97823107910657e+002dB,1.16556163551639e+001°)
1.05196187382322e+000	(-1.97822292713860e+002dB,1.16817516750514e+001°)
1.05438689639126e+000	(-1.97821471357523e+002dB,1.17079388378224e+001°)
1.05681750921366e+000	(-1.97820645322459e+002dB,1.17341799645520e+001°)
1.05925372517729e+000	(-1.97819813680098e+002dB,1.17604738864511e+001°)
1.06169555719872e+000	(-1.97818981725141e+002dB,1.17868279893266e+001°)
1.06414301822431e+000	(-1.97818147369114e+002dB,1.18132395402134e+001°)
1.06659612123026e+000	(-1.97817308428205e+002dB,1.18397056481860e+001°)
1.06905487922266e+000	(-1.97816461140680e+002dB,1.18662212078108e+001°)
1.07151930523761e+000	(-1.97815615772945e+002dB,1.18928005538431e+001°)
1.07398941234124e+000	(-1.97814764403541e+002dB,1.19194328276730e+001°)
1.07646521362983e+000	(-1.97813911025839e+002dB,1.19461236980748e+001°)
1.07894672222983e+000	(-1.97813050876265e+002dB,1.19728666358370e+001°)
1.08143395129794e+000	(-1.97812189968289e+002dB,1.19996701608898e+001°)
1.08392691402120e+000	(-1.97811321307336e+002dB,1.20265245907871e+001°)
1.08642562361706e+000	(-1.97810450971816e+002dB,1.20534385666960e+001°)
1.08893009333343e+000	(-1.97809576597515e+002dB,1.20804088897094e+001°)
1.09144033644876e+000	(-1.97808698206503e+002dB,1.21074357072179e+001°)
1.09395636627209e+000	(-1.97807815745744e+002dB,1.21345190605901e+001°)
1.09647819614318e+000	(-1.97806931186946e+002dB,1.21616618692598e+001°)
1.09900583943252e+000	(-1.97806042508611e+002dB,1.21888613889194e+001°)
1.10153930954141e+000	(-1.97805149960222e+002dB,1.22161180924451e+001°)
1.10407861990207e+000	(-1.97804251142961e+002dB,1.22434286653952e+001°)
1.10662378397766e+000	(-1.97803350857801e+002dB,1.22708000917203e+001°)
1.10917481526240e+000	(-1.97802442520785e+002dB,1.22982230471438e+001°)
1.11173172728159e+000	(-1.97801534116114e+002dB,1.23257091183237e+001°)
1.11429453359173e+000	(-1.97800622245689e+002dB,1.23532535544462e+001°)
1.11686324778056e+000	(-1.97799702419198e+002dB,1.23808499783565e+001°)
1.11943788346715e+000	(-1.97798782629193e+002dB,1.24085100701912e+001°)
1.12201845430196e+000	(-1.97797855274794e+002dB,1.24362229336290e+001°)
1.12460497396692e+000	(-1.97796925580390e+002dB,1.24639962705822e+001°)
1.12719745617551e+000	(-1.97795993751987e+002dB,1.24918305195261e+001°)
1.12979591467280e+000	(-1.97795055558783e+002dB,1.25197196231680e+001°)
1.13240036323556e+000	(-1.97794113396919e+002dB,1.25476671968252e+001°)
1.13501081567231e+000	(-1.97793166713146e+002dB,1.25756725481881e+001°)
1.13762728582343e+000	(-1.97792217839336e+002dB,1.26037392333337e+001°)
1.14024978756117e+000	(-1.97791263884953e+002dB,1.26318631197144e+001°)
1.14287833478977e+000	(-1.97790304513333e+002dB,1.26600438200406e+001°)
1.14551294144553e+000	(-1.97789342714468e+002dB,1.26882858832080e+001°)
1.14815362149688e+000	(-1.97788376476383e+002dB,1.27165864535392e+001°)
1.15080038894443e+000	(-1.97787402897099e+002dB,1.27449413202754e+001°)
1.15345325782109e+000	(-1.97786427636992e+002dB,1.27733590374897e+001°)
1.15611224219210e+000	(-1.97785449681036e+002dB,1.28018382318066e+001°)
1.15877735615512e+000	(-1.97784463217320e+002dB,1.28303703096394e+001°)
1.16144861384034e+000	(-1.97783474546520e+002dB,1.28589648365755e+001°)
1.16412602941049e+000	(-1.97782483987597e+002dB,1.28876224376345e+001°)
1.16680961706096e+000	(-1.97781485369737e+002dB,1.29163339252618e+001°)
1.16949939101987e+000	(-1.97780486685761e+002dB,1.29451115018250e+001°)
1.17219536554813e+000	(-1.97779476806280e+002dB,1.29739384207400e+001°)
1.17489755493953e+000	(-1.97778466289377e+002dB,1.30028308152981e+001°)
1.17760597352080e+000	(-1.97777453265543e+002dB,1.30317859931401e+001°)
1.18032063565173e+000	(-1.97776435106192e+002dB,1.30608000745596e+001°)
1.18304155572516e+000	(-1.97775409303734e+002dB,1.30898693286911e+001°)
1.18576874816716e+000	(-1.97774381831633e+002dB,1.31190030277677e+001°)
1.18850222743702e+000	(-1.97773348289787e+002dB,1.31481945443715e+001°)
1.19124200802737e+000	(-1.97772313915231e+002dB,1.31774520729314e+001°)
1.19398810446427e+000	(-1.97771270780893e+002dB,1.32067635048326e+001°)
1.19674053130724e+000	(-1.97770225064014e+002dB,1.32361385024402e+001°)
1.19949930314938e+000	(-1.97769174196337e+002dB,1.32655732161294e+001°)
1.20226443461741e+000	(-1.97768119282792e+002dB,1.32950694853718e+001°)
1.20503594037179e+000	(-1.97767060812270e+002dB,1.33246282033845e+001°)
1.20781383510678e+000	(-1.97765994695289e+002dB,1.33542431013438e+001°)
1.21059813355048e+000	(-1.97764924854935e+002dB,1.33839204277581e+001°)
1.21338885046497e+000	(-1.97763852246685e+002dB,1.34136618195776e+001°)
1.21618600064636e+000	(-1.97762773723012e+002dB,1.34434624584508e+001°)
1.21898959892486e+000	(-1.97761689942142e+002dB,1.34733234953340e+001°)
1.22179966016487e+000	(-1.97760601120248e+002dB,1.35032453907931e+001°)
1.22461619926504e+000	(-1.97759507317532e+002dB,1.35332283612096e+001°)
1.22743923115840e+000	(-1.97758412003928e+002dB,1.35632780502759e+001°)
1.23026877081238e+000	(-1.97757309257041e+002dB,1.35933851718257e+001°)
1.23310483322890e+000	(-1.97756202329887e+002dB,1.36235550219078e+001°)
1.23594743344451e+000	(-1.97755089417742e+002dB,1.36537848401912e+001°)
1.23879658653036e+000	(-1.97753972687855e+002dB,1.36840782193833e+001°)
1.24165230759241e+000	(-1.97752851261528e+002dB,1.37144338812086e+001°)
1.24451461177138e+000	(-1.97751722842196e+002dB,1.37448482469737e+001°)
1.24738351424294e+000	(-1.97750590088799e+002dB,1.37753257183442e+001°)
1.25025903021771e+000	(-1.97749453449201e+002dB,1.38058671527817e+001°)
1.25314117494141e+000	(-1.97748315178871e+002dB,1.38364763515559e+001°)
1.25602996369487e+000	(-1.97747167900169e+002dB,1.38671414632486e+001°)
1.25892541179416e+000	(-1.97746016477821e+002dB,1.38978705080109e+001°)
1.26182753459066e+000	(-1.97744861036162e+002dB,1.39286638242785e+001°)
1.26473634747115e+000	(-1.97743699126256e+002dB,1.39595175332459e+001°)
1.26765186585784e+000	(-1.97742531946932e+002dB,1.39904337145566e+001°)
1.27057410520854e+000	(-1.97741360933628e+002dB,1.40214148561170e+001°)
1.27350308101666e+000	(-1.97740186241727e+002dB,1.40524613543536e+001°)
1.27643880881134e+000	(-1.97739001734050e+002dB,1.40835631950462e+001°)
1.27938130415752e+000	(-1.97737817190102e+002dB,1.41147366717090e+001°)
1.28233058265602e+000	(-1.97736623231194e+002dB,1.41459663765886e+001°)
1.28528665994361e+000	(-1.97735426638352e+002dB,1.41772636865796e+001°)
1.28824955169313e+000	(-1.97734224232367e+002dB,1.42086234472719e+001°)
1.29121927361353e+000	(-1.97733017879007e+002dB,1.42400489013206e+001°)
1.29419584144998e+000	(-1.97731804541423e+002dB,1.42715350943584e+001°)
1.29717927098395e+000	(-1.97730588743133e+002dB,1.43030897402213e+001°)
1.30016957803328e+000	(-1.97729361932978e+002dB,1.43346985837334e+001°)
1.30316677845229e+000	(-1.97728134366202e+002dB,1.43663790116057e+001°)
1.30617088813183e+000	(-1.97726900571333e+002dB,1.43981219379623e+001°)
1.30918192299940e+000	(-1.97725660219686e+002dB,1.44299269212169e+001°)
1.31219989901920e+000	(-1.97724416261341e+002dB,1.44617990929424e+001°)
1.31522483219223e+000	(-1.97723164952258e+002dB,1.44937322165978e+001°)
1.31825673855640e+000	(-1.97721911259045e+002dB,1.45257348845830e+001°)
1.32129563418657e+000	(-1.97720649126780e+002dB,1.45577968874471e+001°)
1.32434153519466e+000	(-1.97719384226981e+002dB,1.45899280548117e+001°)
1.32739445772973e+000	(-1.97718110886525e+002dB,1.46221187826442e+001°)
1.33045441797808e+000	(-1.97716834631734e+002dB,1.46543786955498e+001°)
1.33352143216332e+000	(-1.97715552640594e+002dB,1.46867030727992e+001°)
1.33659551654643e+000	(-1.97714263611823e+002dB,1.47190897843105e+001°)
1.33967668742593e+000	(-1.97712967629438e+002dB,1.47515390857291e+001°)
1.34276496113786e+000	(-1.97711668501407e+002dB,1.47840577172367e+001°)
1.34586035405594e+000	(-1.97710365682903e+002dB,1.48166448851676e+001°)
1.34896288259164e+000	(-1.97709053332931e+002dB,1.48492905249942e+001°)
1.35207256319427e+000	(-1.97707737133854e+002dB,1.48820046784233e+001°)
1.35518941235103e+000	(-1.97706417202810e+002dB,1.49147877009617e+001°)
1.35831344658715e+000	(-1.97705088395450e+002dB,1.49476306847813e+001°)
1.36144468246594e+000	(-1.97703754373094e+002dB,1.49805401817985e+001°)
1.36458313658892e+000	(-1.97702413641904e+002dB,1.50135136834991e+001°)
1.36772882559584e+000	(-1.97701069587060e+002dB,1.50465573089067e+001°)
1.37088176616484e+000	(-1.97699718471745e+002dB,1.50796645745442e+001°)
1.37404197501251e+000	(-1.97698362238203e+002dB,1.51128390530235e+001°)
1.37720946889394e+000	(-1.97696998988365e+002dB,1.51460774921629e+001°)
1.38038426460288e+000	(-1.97695632999138e+002dB,1.51793876598740e+001°)
1.38356637897177e+000	(-1.97694257994723e+002dB,1.52127584657755e+001°)
1.38675582887188e+000	(-1.97692878061873e+002dB,1.52461973471396e+001°)
1.38995263121334e+000	(-1.97691492341086e+002dB,1.52797028957568e+001°)
1.39315680294529e+000	(-1.97690099154065e+002dB,1.53132722104681e+001°)
1.39636836105593e+000	(-1.97688702338487e+002dB,1.53469123486893e+001°)
1.39958732257261e+000	(-1.97687297922066e+002dB,1.53806162604646e+001°)
1.40281370456195e+000	(-1.97685890785179e+002dB,1.54143929305246e+001°)
1.40604752412990e+000	(-1.97684472951385e+002dB,1.54482279885816e+001°)
1.40928879842186e+000	(-1.97683048677574e+002dB,1.54821292828174e+001°)
1.41253754462274e+000	(-1.97681620880950e+002dB,1.55161022796716e+001°)
1.41579377995707e+000	(-1.97680190623272e+002dB,1.55501490893737e+001°)
1.41905752168908e+000	(-1.97678747288253e+002dB,1.55842503554924e+001°)
1.42232878712281e+000	(-1.97677299538725e+002dB,1.56184220933623e+001°)
1.42560759360218e+000	(-1.97675846633492e+002dB,1.56526630842371e+001°)
1.42889395851109e+000	(-1.97674389236442e+002dB,1.56869747001853e+001°)
1.43218789927353e+000	(-1.97672923157910e+002dB,1.57213493127999e+001°)
1.43548943335364e+000	(-1.97671452065397e+002dB,1.57557938453975e+001°)
1.43879857825583e+000	(-1.97669973328909e+002dB,1.57903035371325e+001°)
1.44211535152486e+000	(-1.97668489745886e+002dB,1.58248837299312e+001°)
1.44543977074592e+000	(-1.97666999043926e+002dB,1.58595303133620e+001°)
1.44877185354475e+000	(-1.97665502984624e+002dB,1.58942467153124e+001°)
1.45211161758773e+000	(-1.97664002205195e+002dB,1.59290342775956e+001°)
1.45545908058195e+000	(-1.97662490754034e+002dB,1.59638819205064e+001°)
1.45881426027534e+000	(-1.97660971487612e+002dB,1.59987951202933e+001°)
1.46217717445671e+000	(-1.97659454416187e+002dB,1.60337929644616e+001°)
1.46554784095590e+000	(-1.97657923392461e+002dB,1.60688450146649e+001°)
1.46892627764385e+000	(-1.97656386008297e+002dB,1.61039657605650e+001°)
1.47231250243271e+000	(-1.97654844919083e+002dB,1.61391604020009e+001°)
1.47570653327588e+000	(-1.97653295305094e+002dB,1.61744198843168e+001°)
1.47910838816819e+000	(-1.97651740828428e+002dB,1.62097513334539e+001°)
1.48251808514594e+000	(-1.97650179769581e+002dB,1.62451515965572e+001°)
1.48593564228699e+000	(-1.97648610326477e+002dB,1.62806173316475e+001°)
1.48936107771090e+000	(-1.97647033148732e+002dB,1.63161498991526e+001°)
1.49279440957898e+000	(-1.97645455152876e+002dB,1.63517628002343e+001°)
1.49623565609442e+000	(-1.97643864635151e+002dB,1.63874335391503e+001°)
1.49968483550236e+000	(-1.97642269222614e+002dB,1.64231769969265e+001°)
1.50314196609001e+000	(-1.97640668214236e+002dB,1.64589919614624e+001°)
1.50660706618673e+000	(-1.97639060810807e+002dB,1.64948770167478e+001°)
1.51008015416413e+000	(-1.97637442450940e+002dB,1.65308233671741e+001°)
1.51356124843619e+000	(-1.97635818595070e+002dB,1.65668418011902e+001°)
1.51705036745932e+000	(-1.97634189897788e+002dB,1.66029337537740e+001°)
1.52054752973248e+000	(-1.97632555002903e+002dB,1.66390967082586e+001°)
1.52405275379728e+000	(-1.97630908697017e+002dB,1.66753205021027e+001°)
1.52756605823806e+000	(-1.97629260276982e+002dB,1.67116236156235e+001°)
1.53108746168202e+000	(-1.97627603162227e+002dB,1.67479931813749e+001°)
1.53461698279928e+000	(-1.97625939906475e+002dB,1.67844343860661e+001°)
1.53815464030302e+000	(-1.97624267666521e+002dB,1.68209417008540e+001°)
1.54170045294954e+000	(-1.97622588889299e+002dB,1.68575201189344e+001°)
1.54525443953840e+000	(-1.97620905756517e+002dB,1.68941741473976e+001°)
1.54881661891247e+000	(-1.97619211917621e+002dB,1.69308912011758e+001°)
1.55238700995807e+000	(-1.97617511336142e+002dB,1.69676793367269e+001°)
1.55596563160506e+000	(-1.97615802645067e+002dB,1.70045359309499e+001°)
1.55955250282694e+000	(-1.97614089689024e+002dB,1.70414688732684e+001°)
1.56314764264094e+000	(-1.97612369323614e+002dB,1.70784719612367e+001°)
1.56675107010813e+000	(-1.97610640679111e+002dB,1.71155435544326e+001°)
1.57036280433354e+000	(-1.97608906120461e+002dB,1.71526885823809e+001°)
1.57398286446620e+000	(-1.97607162220326e+002dB,1.71899001990890e+001°)
1.57761126969933e+000	(-1.97605410099181e+002dB,1.72271807965111e+001°)
1.58124803927037e+000	(-1.97603654392961e+002dB,1.72645399948390e+001°)
1.58489319246110e+000	(-1.97601887869724e+002dB,1.73019631161168e+001°)
1.58854674859776e+000	(-1.97600115452380e+002dB,1.73394603792797e+001°)
1.59220872705115e+000	(-1.97598335066426e+002dB,1.73770276523557e+001°)
1.59587914723672e+000	(-1.97596548151365e+002dB,1.74146680347531e+001°)
1.59955802861465e+000	(-1.97594752771849e+002dB,1.74523776550489e+001°)
1.60324539069002e+000	(-1.97592950906315e+002dB,1.74901607402315e+001°)
1.60694125301286e+000	(-1.97591138088911e+002dB,1.75280081297633e+001°)
1.61064563517825e+000	(-1.97589321698049e+002dB,1.75659353105714e+001°)
1.61435855682647e+000	(-1.97587495351183e+002dB,1.76039291101581e+001°)
1.61808003764305e+000	(-1.97585661189853e+002dB,1.76419941155639e+001°)
1.62181009735891e+000	(-1.97583820985299e+002dB,1.76801341767827e+001°)
1.62554875575047e+000	(-1.97581973729720e+002dB,1.77183473216325e+001°)
1.62929603263970e+000	(-1.97580115933229e+002dB,1.77566263157192e+001°)
1.63305194789432e+000	(-1.97578253704638e+002dB,1.77949841798491e+001°)
1.63681652142779e+000	(-1.97576379653727e+002dB,1.78334054076224e+001°)
1.64058977319952e+000	(-1.97574501809629e+002dB,1.78719071458265e+001°)
1.64437172321491e+000	(-1.97572613072387e+002dB,1.79104744448344e+001°)
1.64816239152549e+000	(-1.97570716188943e+002dB,1.79491132571332e+001°)
1.65196179822900e+000	(-1.97568817188237e+002dB,1.79878366188614e+001°)
1.65576996346951e+000	(-1.97566902025142e+002dB,1.80266145926548e+001°)
1.65958690743754e+000	(-1.97564982574727e+002dB,1.80654727347414e+001°)
1.66341265037015e+000	(-1.97563057686188e+002dB,1.81044087452735e+001°)
1.66724721255104e+000	(-1.97561121063908e+002dB,1.81434091811108e+001°)
1.67109061431069e+000	(-1.97559179871454e+002dB,1.81824896343640e+001°)
1.67494287602642e+000	(-1.97557228395611e+002dB,1.82216378776191e+001°)
1.67880401812254e+000	(-1.97555265811509e+002dB,1.82608522095055e+001°)
1.68267406107045e+000	(-1.97553300937392e+002dB,1.83001519494785e+001°)
1.68655302538872e+000	(-1.97551321717784e+002dB,1.83395109519423e+001°)
1.69044093164324e+000	(-1.97549338219298e+002dB,1.83789513126869e+001°)
1.69433780044731e+000	(-1.97547347862447e+002dB,1.84184675513236e+001°)
1.69824365246172e+000	(-1.97545346574908e+002dB,1.84580508489034e+001°)
1.70215850839493e+000	(-1.97543337104228e+002dB,1.84977073546197e+001°)
1.70608238900310e+000	(-1.97541318813539e+002dB,1.85374357875944e+001°)
1.71001531509027e+000	(-1.97539294655202e+002dB,1.85772428117920e+001°)
1.71395730750840e+000	(-1.97537260117795e+002dB,1.86171185664034e+001°)
1.71790838715757e+000	(-1.97535216987140e+002dB,1.86570671240780e+001°)
1.72186857498599e+000	(-1.97533166053582e+002dB,1.86970903722335e+001°)
1.72583789199018e+000	(-1.97531106145227e+002dB,1.87371858242098e+001°)
1.72981635921508e+000	(-1.97529038751235e+002dB,1.87773569375178e+001°)
1.73380399775412e+000	(-1.97526961902038e+002dB,1.88175994260923e+001°)
1.73780082874935e+000	(-1.97524876590295e+002dB,1.88579156374529e+001°)
1.74180687339159e+000	(-1.97522783599164e+002dB,1.88983074668862e+001°)
1.74582215292048e+000	(-1.97520681280126e+002dB,1.89387713224449e+001°)
1.74984668862464e+000	(-1.97518568963294e+002dB,1.89793057983544e+001°)
1.75388050184174e+000	(-1.97516448920011e+002dB,1.90199161630964e+001°)
1.75792361395867e+000	(-1.97514321600706e+002dB,1.90606035830383e+001°)
1.76197604641161e+000	(-1.97512183855420e+002dB,1.91013610096736e+001°)
1.76603782068614e+000	(-1.97510036835798e+002dB,1.91421911778120e+001°)
1.77010895831740e+000	(-1.97507883117057e+002dB,1.91831001137843e+001°)
1.77418948089014e+000	(-1.97505717026189e+002dB,1.92240749260397e+001°)
1.77827941003890e+000	(-1.97503546368538e+002dB,1.92651336778047e+001°)
1.78237876744807e+000	(-1.97501364797257e+002dB,1.93062618949527e+001°)
1.78648757485203e+000	(-1.97499174433106e+002dB,1.93474645810794e+001°)
1.79060585403527e+000	(-1.97496973545370e+002dB,1.93887378441582e+001°)
1.79473362683250e+000	(-1.97494764045815e+002dB,1.94300862309990e+001°)
1.79887091512876e+000	(-1.97492549023027e+002dB,1.94715170741015e+001°)
1.80301774085955e+000	(-1.97490321311089e+002dB,1.95130138021329e+001°)
1.80717412601090e+000	(-1.97488085978567e+002dB,1.95545883549160e+001°)
1.81134009261958e+000	(-1.97485838130517e+002dB,1.95962293838422e+001°)
1.81551566277311e+000	(-1.97483585454466e+002dB,1.96379550511885e+001°)
1.81970085860996e+000	(-1.97481323146159e+002dB,1.96797542154376e+001°)
1.82389570231961e+000	(-1.97479050341139e+002dB,1.97216249474091e+001°)
1.82810021614272e+000	(-1.97476766070039e+002dB,1.97635650507644e+001°)
1.83231442237119e+000	(-1.97474475733605e+002dB,1.98055874410232e+001°)
1.83653834334832e+000	(-1.97472174925085e+002dB,1.98476817998337e+001°)
1.84077200146893e+000	(-1.97469866197064e+002dB,1.98898543216320e+001°)
1.84501541917945e+000	(-1.97467546726402e+002dB,1.99320983980985e+001°)
1.84926861897805e+000	(-1.97465216150427e+002dB,1.99744132584479e+001°)
1.85353162341479e+000	(-1.97462875451786e+002dB,2.00168013568669e+001°)
1.85780445509167e+000	(-1.97460527830119e+002dB,2.00592705095066e+001°)
1.86208713666284e+000	(-1.97458169492507e+002dB,2.01018117225265e+001°)
1.86637969083464e+000	(-1.97455803700376e+002dB,2.01444329880404e+001°)
1.87068214036577e+000	(-1.97453426832547e+002dB,2.01871256784807e+001°)
1.87499450806739e+000	(-1.97451039975094e+002dB,2.02298925289110e+001°)
1.87931681680324e+000	(-1.97448645058893e+002dB,2.02727383571054e+001°)
1.88364908948977e+000	(-1.97446236654057e+002dB,2.03156500488336e+001°)
1.88799134909627e+000	(-1.97443822936061e+002dB,2.03586476705642e+001°)
