Freq.	V(vout)/V(vin)
1.00000000000000e+000	(-2.01934972425018e+002dB,1.11188627019983e+001°)
1.00230523807790e+000	(-2.01934226107997e+002dB,1.11438523499670e+001°)
1.00461579027840e+000	(-2.01933478264157e+002dB,1.11688976187616e+001°)
1.00693166885180e+000	(-2.01932726116329e+002dB,1.11939950121351e+001°)
1.00925288607668e+000	(-2.01931971329298e+002dB,1.12191468125828e+001°)
1.01157945425990e+000	(-2.01931211690542e+002dB,1.12443502381561e+001°)
1.01391138573668e+000	(-2.01930451209178e+002dB,1.12696106584919e+001°)
1.01624869287070e+000	(-2.01929683809800e+002dB,1.12949202059100e+001°)
1.01859138805412e+000	(-2.01928914053344e+002dB,1.13202849846875e+001°)
1.02093948370768e+000	(-2.01928142062506e+002dB,1.13457052806169e+001°)
1.02329299228075e+000	(-2.01927365936142e+002dB,1.13711786963897e+001°)
1.02565192625141e+000	(-2.01926587936763e+002dB,1.13967083480404e+001°)
1.02801629812647e+000	(-2.01925804922606e+002dB,1.14222901772150e+001°)
1.03038612044162e+000	(-2.01925017503787e+002dB,1.14479250989869e+001°)
1.03276140576140e+000	(-2.01924228955943e+002dB,1.14736176050644e+001°)
1.03514216667934e+000	(-2.01923438073063e+002dB,1.14993662136302e+001°)
1.03752841581801e+000	(-2.01922639444424e+002dB,1.15251637725486e+001°)
1.03992016582906e+000	(-2.01921839936182e+002dB,1.15510196143989e+001°)
1.04231742939330e+000	(-2.01921035834536e+002dB,1.15769288606446e+001°)
1.04472021922080e+000	(-2.01920229209612e+002dB,1.16028944206124e+001°)
1.04712854805090e+000	(-2.01919417855976e+002dB,1.16289134256344e+001°)
1.04954242865232e+000	(-2.01918602255954e+002dB,1.16549866367978e+001°)
1.05196187382322e+000	(-2.01917786205522e+002dB,1.16811193406465e+001°)
1.05438689639126e+000	(-2.01916963432430e+002dB,1.17073031090925e+001°)
1.05681750921366e+000	(-2.01916138346110e+002dB,1.17335440702520e+001°)
1.05925372517729e+000	(-2.01915310064364e+002dB,1.17598411413676e+001°)
1.06169555719872e+000	(-2.01914476040298e+002dB,1.17861909376334e+001°)
1.06414301822431e+000	(-2.01913640799895e+002dB,1.18125997997619e+001°)
1.06659612123026e+000	(-2.01912799555103e+002dB,1.18390612472011e+001°)
1.06905487922266e+000	(-2.01911955929695e+002dB,1.18655803970643e+001°)
1.07151930523761e+000	(-2.01911111197826e+002dB,1.18921591490380e+001°)
1.07398941234124e+000	(-2.01910258499684e+002dB,1.19187880942324e+001°)
1.07646521362983e+000	(-2.01909404337543e+002dB,1.19454763835083e+001°)
1.07894672222983e+000	(-2.01908546386835e+002dB,1.19722209048923e+001°)
1.08143395129794e+000	(-2.01907682360573e+002dB,1.19990185694401e+001°)
1.08392691402120e+000	(-2.01906815814534e+002dB,1.20258744693478e+001°)
1.08642562361706e+000	(-2.01905947482504e+002dB,1.20527897684269e+001°)
1.08893009333343e+000	(-2.01905072985496e+002dB,1.20797584226059e+001°)
1.09144033644876e+000	(-2.01904194337281e+002dB,1.21067833767227e+001°)
1.09395636627209e+000	(-2.01903311815251e+002dB,1.21338651395117e+001°)
1.09647819614318e+000	(-2.01902426576583e+002dB,1.21610054742029e+001°)
1.09900583943252e+000	(-2.01901536006499e+002dB,1.21882007853376e+001°)
1.10153930954141e+000	(-2.01900644098510e+002dB,1.22154568804894e+001°)
1.10407861990207e+000	(-2.01899745784652e+002dB,1.22427666498320e+001°)
1.10662378397766e+000	(-2.01898844547619e+002dB,1.22701351843764e+001°)
1.10917481526240e+000	(-2.01897939454580e+002dB,1.22975612719551e+001°)
1.11173172728159e+000	(-2.01897029961590e+002dB,1.23250442489613e+001°)
1.11429453359173e+000	(-2.01896117613705e+002dB,1.23525864625307e+001°)
1.11686324778056e+000	(-2.01895199386447e+002dB,1.23801836644047e+001°)
1.11943788346715e+000	(-2.01894278228764e+002dB,1.24078402352624e+001°)
1.12201845430196e+000	(-2.01893352350951e+002dB,1.24355537025711e+001°)
1.12460497396692e+000	(-2.01892422925092e+002dB,1.24633258883360e+001°)
1.12719745617551e+000	(-2.01891488685045e+002dB,1.24911550675451e+001°)
1.12979591467280e+000	(-2.01890551968937e+002dB,1.25190447776482e+001°)
1.13240036323556e+000	(-2.01889610843017e+002dB,1.25469923164428e+001°)
1.13501081567231e+000	(-2.01888663986725e+002dB,1.25749958582945e+001°)
1.13762728582343e+000	(-2.01887714382754e+002dB,1.26030599065200e+001°)
1.14024978756117e+000	(-2.01886758867717e+002dB,1.26311799198634e+001°)
1.14287833478977e+000	(-2.01885799787286e+002dB,1.26593594767243e+001°)
1.14551294144553e+000	(-2.01884839852572e+002dB,1.26876027306216e+001°)
1.14815362149688e+000	(-2.01883873142086e+002dB,1.27159010229174e+001°)
1.15080038894443e+000	(-2.01882900935850e+002dB,1.27442563582324e+001°)
1.15345325782109e+000	(-2.01881925296139e+002dB,1.27726719287774e+001°)
1.15611224219210e+000	(-2.01880946551229e+002dB,1.28011483565016e+001°)
1.15877735615512e+000	(-2.01879960020513e+002dB,1.28296787435650e+001°)
1.16144861384034e+000	(-2.01878973980904e+002dB,1.28582756381559e+001°)
1.16412602941049e+000	(-2.01877980696655e+002dB,1.28869275372029e+001°)
1.16680961706096e+000	(-2.01876983501257e+002dB,1.29156395747910e+001°)
1.16949939101987e+000	(-2.01875981200095e+002dB,1.29444100662596e+001°)
1.17219536554813e+000	(-2.01874977414789e+002dB,1.29732446295688e+001°)
1.17489755493953e+000	(-2.01873965748404e+002dB,1.30021336739458e+001°)
1.17760597352080e+000	(-2.01872951408342e+002dB,1.30310852351619e+001°)
1.18032063565173e+000	(-2.01871932550844e+002dB,1.30600966327862e+001°)
1.18304155572516e+000	(-2.01870909867629e+002dB,1.30891690495377e+001°)
1.18576874816716e+000	(-2.01869879508723e+002dB,1.31182966964810e+001°)
1.18850222743702e+000	(-2.01868849604271e+002dB,1.31474921894089e+001°)
1.19124200802737e+000	(-2.01867811254858e+002dB,1.31767419601008e+001°)
1.19398810446427e+000	(-2.01866769686677e+002dB,1.32060541794271e+001°)
1.19674053130724e+000	(-2.01865724545080e+002dB,1.32354284343345e+001°)
1.19949930314938e+000	(-2.01864673699129e+002dB,1.32648615449532e+001°)
1.20226443461741e+000	(-2.01863616942122e+002dB,1.32943533002946e+001°)
1.20503594037179e+000	(-2.01862560047616e+002dB,1.33239128292968e+001°)
1.20781383510678e+000	(-2.01861492738709e+002dB,1.33535242119226e+001°)
1.21059813355048e+000	(-2.01860424511781e+002dB,1.33832024133755e+001°)
1.21338885046497e+000	(-2.01859349921042e+002dB,1.34129390313168e+001°)
1.21618600064636e+000	(-2.01858273275545e+002dB,1.34427409652633e+001°)
1.21898959892486e+000	(-2.01857188859426e+002dB,1.34725993350917e+001°)
1.22179966016487e+000	(-2.01856101709557e+002dB,1.35025222096827e+001°)
1.22461619926504e+000	(-2.01855007714294e+002dB,1.35325032074129e+001°)
1.22743923115840e+000	(-2.01853911363752e+002dB,1.35625495745739e+001°)
1.23026877081238e+000	(-2.01852809547714e+002dB,1.35926565015189e+001°)
1.23310483322890e+000	(-2.01851701954626e+002dB,1.36228236072269e+001°)
1.23594743344451e+000	(-2.01850590067683e+002dB,1.36530533822163e+001°)
1.23879658653036e+000	(-2.01849473481063e+002dB,1.36833453052721e+001°)
1.24165230759241e+000	(-2.01848351392428e+002dB,1.37136982114148e+001°)
1.24451461177138e+000	(-2.01847225598135e+002dB,1.37441151167345e+001°)
1.24738351424294e+000	(-2.01846092448688e+002dB,1.37745902577350e+001°)
1.25025903021771e+000	(-2.01844958258127e+002dB,1.38051339663084e+001°)
1.25314117494141e+000	(-2.01843815082409e+002dB,1.38357335053457e+001°)
1.25602996369487e+000	(-2.01842669293526e+002dB,1.38663993306643e+001°)
1.25892541179416e+000	(-2.01841519652826e+002dB,1.38971295724627e+001°)
1.26182753459066e+000	(-2.01840362122933e+002dB,1.39279177645852e+001°)
1.26473634747115e+000	(-2.01839200867110e+002dB,1.39587708261893e+001°)
1.26765186585784e+000	(-2.01838033387247e+002dB,1.39896847923359e+001°)
1.27057410520854e+000	(-2.01836863605727e+002dB,1.40206662363892e+001°)
1.27350308101666e+000	(-2.01835687280583e+002dB,1.40517083122583e+001°)
1.27643880881134e+000	(-2.01834506427028e+002dB,1.40828144640838e+001°)
1.27938130415752e+000	(-2.01833317960062e+002dB,1.41139797077962e+001°)
1.28233058265602e+000	(-2.01832127012750e+002dB,1.41452126744675e+001°)
1.28528665994361e+000	(-2.01830929428339e+002dB,1.41765065947179e+001°)
1.28824955169313e+000	(-2.01829727480758e+002dB,1.42078653757276e+001°)
1.29121927361353e+000	(-2.01828519603226e+002dB,1.42392865307548e+001°)
1.29419584144998e+000	(-2.01827304811454e+002dB,1.42707685265122e+001°)
1.29717927098395e+000	(-2.01826091047555e+002dB,1.43023248262541e+001°)
1.30016957803328e+000	(-2.01824865429623e+002dB,1.43339339163845e+001°)
1.30316677845229e+000	(-2.01823637211260e+002dB,1.43656114805685e+001°)
1.30617088813183e+000	(-2.01822402415417e+002dB,1.43973509425793e+001°)
1.30918192299940e+000	(-2.01821165542475e+002dB,1.44291600528497e+001°)
1.31219989901920e+000	(-2.01819922020073e+002dB,1.44610311983309e+001°)
1.31522483219223e+000	(-2.01818668835871e+002dB,1.44929593547015e+001°)
1.31825673855640e+000	(-2.01817413247627e+002dB,1.45249570022692e+001°)
1.32129563418657e+000	(-2.01816154683564e+002dB,1.45570233242139e+001°)
1.32434153519466e+000	(-2.01814887905014e+002dB,1.45891494825828e+001°)
1.32739445772973e+000	(-2.01813616387329e+002dB,1.46213415525081e+001°)
1.33045441797808e+000	(-2.01812337546674e+002dB,1.46535952134365e+001°)
1.33352143216332e+000	(-2.01811056619094e+002dB,1.46859196231721e+001°)
1.33659551654643e+000	(-2.01809768550839e+002dB,1.47183061931050e+001°)
1.33967668742593e+000	(-2.01808474352838e+002dB,1.47507567874380e+001°)
1.34276496113786e+000	(-2.01807174053452e+002dB,1.47832715764570e+001°)
1.34586035405594e+000	(-2.01805871525872e+002dB,1.48158574395440e+001°)
1.34896288259164e+000	(-2.01804558104964e+002dB,1.48484993914287e+001°)
1.35207256319427e+000	(-2.01803243119167e+002dB,1.48812138477666e+001°)
1.35518941235103e+000	(-2.01801921632581e+002dB,1.49139923141357e+001°)
1.35831344658715e+000	(-2.01800591913982e+002dB,1.49468318598592e+001°)
1.36144468246594e+000	(-2.01799260753944e+002dB,1.49797445674742e+001°)
1.36458313658892e+000	(-2.01797920842311e+002dB,1.50127176851103e+001°)
1.36772882559584e+000	(-2.01796574908334e+002dB,1.50457561434616e+001°)
1.37088176616484e+000	(-2.01795225872968e+002dB,1.50788652588090e+001°)
1.37404197501251e+000	(-2.01793869327630e+002dB,1.51120373392277e+001°)
1.37720946889394e+000	(-2.01792505124173e+002dB,1.51452722276733e+001°)
1.38038426460288e+000	(-2.01791140097438e+002dB,1.51785822613126e+001°)
1.38356637897177e+000	(-2.01789764878348e+002dB,1.52119508256000e+001°)
1.38675582887188e+000	(-2.01788382973561e+002dB,1.52453842999887e+001°)
1.38995263121334e+000	(-2.01786999026250e+002dB,1.52788911700193e+001°)
1.39315680294529e+000	(-2.01785607112273e+002dB,1.53124609129396e+001°)
1.39636836105593e+000	(-2.01784209828281e+002dB,1.53460983328606e+001°)
1.39958732257261e+000	(-2.01782803969059e+002dB,1.53797977503076e+001°)
1.40281370456195e+000	(-2.01781397342960e+002dB,1.54135734621406e+001°)
1.40604752412990e+000	(-2.01779980430745e+002dB,1.54474083112222e+001°)
1.40928879842186e+000	(-2.01778557264006e+002dB,1.54813097387573e+001°)
1.41253754462274e+000	(-2.01777130320749e+002dB,1.55152824090638e+001°)
1.41579377995707e+000	(-2.01775695904767e+002dB,1.55493196959858e+001°)
1.41905752168908e+000	(-2.01774255306641e+002dB,1.55834240854974e+001°)
1.42232878712281e+000	(-2.01772810043736e+002dB,1.56175985039072e+001°)
1.42560759360218e+000	(-2.01771355211843e+002dB,1.56518340354186e+001°)
1.42889395851109e+000	(-2.01769898279880e+002dB,1.56861446015994e+001°)
1.43218789927353e+000	(-2.01768432354174e+002dB,1.57205175844630e+001°)
1.43548943335364e+000	(-2.01766961615535e+002dB,1.57549608582363e+001°)
1.43879857825583e+000	(-2.01765482653838e+002dB,1.57894682097861e+001°)
1.44211535152486e+000	(-2.01763999884264e+002dB,1.58240479977185e+001°)
1.44543977074592e+000	(-2.01762509517359e+002dB,1.58586932824995e+001°)
1.44877185354475e+000	(-2.01761012805814e+002dB,1.58934065297598e+001°)
1.45211161758773e+000	(-2.01759509543161e+002dB,1.59281874801926e+001°)
1.45545908058195e+000	(-2.01757999293329e+002dB,1.59630354380048e+001°)
1.45881426027534e+000	(-2.01756483022730e+002dB,1.59979523525715e+001°)
1.46217717445671e+000	(-2.01754962156997e+002dB,1.60329410609293e+001°)
1.46554784095590e+000	(-2.01753432545586e+002dB,1.60679938308654e+001°)
1.46892627764385e+000	(-2.01751897805510e+002dB,1.61031176500273e+001°)
1.47231250243271e+000	(-2.01750354415671e+002dB,1.61383059450278e+001°)
1.47570653327588e+000	(-2.01748807577849e+002dB,1.61735687688961e+001°)
1.47910838816819e+000	(-2.01747251059913e+002dB,1.62088943417214e+001°)
1.48251808514594e+000	(-2.01745689037145e+002dB,1.62442907765513e+001°)
1.48593564228699e+000	(-2.01744122559472e+002dB,1.62797602399629e+001°)
1.48936107771090e+000	(-2.01742547415183e+002dB,1.63152947581251e+001°)
1.49279440957898e+000	(-2.01740963848857e+002dB,1.63508949070519e+001°)
1.49623565609442e+000	(-2.01739375617180e+002dB,1.63865680798377e+001°)
1.49968483550236e+000	(-2.01737781296632e+002dB,1.64223116656049e+001°)
1.50314196609001e+000	(-2.01736179269363e+002dB,1.64581226497435e+001°)
1.50660706618673e+000	(-2.01734570950441e+002dB,1.64940039127653e+001°)
1.51008015416413e+000	(-2.01732955195447e+002dB,1.65299533503377e+001°)
1.51356124843619e+000	(-2.01731332619600e+002dB,1.65659722905588e+001°)
1.51705036745932e+000	(-2.01729702708339e+002dB,1.66020598510604e+001°)
1.52054752973248e+000	(-2.01728068841963e+002dB,1.66382228182782e+001°)
1.52405275379728e+000	(-2.01726424010284e+002dB,1.66744475107051e+001°)
1.52756605823806e+000	(-2.01724774032991e+002dB,1.67107455276349e+001°)
1.53108746168202e+000	(-2.01723116361586e+002dB,1.67471119642978e+001°)
1.53461698279928e+000	(-2.01721453489886e+002dB,1.67835519015568e+001°)
1.53815464030302e+000	(-2.01719782193011e+002dB,1.68200590626939e+001°)
1.54170045294954e+000	(-2.01718102857231e+002dB,1.68566343297156e+001°)
1.54525443953840e+000	(-2.01716418674218e+002dB,1.68932842120887e+001°)
1.54881661891247e+000	(-2.01714724570435e+002dB,1.69299986826203e+001°)
1.55238700995807e+000	(-2.01713027239378e+002dB,1.69667913024476e+001°)
1.55596563160506e+000	(-2.01711318681102e+002dB,1.70036461175905e+001°)
1.55955250282694e+000	(-2.01709604859880e+002dB,1.70405752593348e+001°)
1.56314764264094e+000	(-2.01707885262078e+002dB,1.70775778427563e+001°)
1.56675107010813e+000	(-2.01706155670324e+002dB,1.71146454508070e+001°)
1.57036280433354e+000	(-2.01704419822976e+002dB,1.71517857846765e+001°)
1.57398286446620e+000	(-2.01702676683223e+002dB,1.71889968719119e+001°)
1.57761126969933e+000	(-2.01700926180877e+002dB,1.72262786979531e+001°)
1.58124803927037e+000	(-2.01699169539206e+002dB,1.72636338988611e+001°)
1.58489319246110e+000	(-2.01697404422304e+002dB,1.73010578210807e+001°)
1.58854674859776e+000	(-2.01695633095423e+002dB,1.73385552430494e+001°)
1.59220872705115e+000	(-2.01693849456280e+002dB,1.73761137144110e+001°)
1.59587914723672e+000	(-2.01692064080141e+002dB,1.74137551738242e+001°)
1.59955802861465e+000	(-2.01690269222583e+002dB,1.74514637721840e+001°)
1.60324539069002e+000	(-2.01688466714742e+002dB,1.74892434155432e+001°)
1.60694125301286e+000	(-2.01686656620104e+002dB,1.75270943629838e+001°)
1.61064563517825e+000	(-2.01684836841670e+002dB,1.75650123636747e+001°)
1.61435855682647e+000	(-2.01683012379514e+002dB,1.76030079802555e+001°)
1.61808003764305e+000	(-2.01681182330906e+002dB,1.76410794896727e+001°)
1.62181009735891e+000	(-2.01679339173626e+002dB,1.76792112341628e+001°)
1.62554875575047e+000	(-2.01677492646841e+002dB,1.77174237871215e+001°)
1.62929603263970e+000	(-2.01675634892202e+002dB,1.77557007408220e+001°)
1.63305194789432e+000	(-2.01673769811100e+002dB,1.77940504319544e+001°)
1.63681652142779e+000	(-2.01671900374362e+002dB,1.78324792987689e+001°)
1.64058977319952e+000	(-2.01670020439204e+002dB,1.78709744544188e+001°)
1.64437172321491e+000	(-2.01668132396273e+002dB,1.79095410835942e+001°)
1.64816239152549e+000	(-2.01666237428351e+002dB,1.79481818374077e+001°)
1.65196179822900e+000	(-2.01664334753041e+002dB,1.79868951818151e+001°)
1.65576996346951e+000	(-2.01662423383001e+002dB,1.80256791278710e+001°)
1.65958690743754e+000	(-2.01660503112207e+002dB,1.80645333484844e+001°)
1.66341265037015e+000	(-2.01658576073372e+002dB,1.81034625561553e+001°)
1.66724721255104e+000	(-2.01656641538735e+002dB,1.81424653233203e+001°)
1.67109061431069e+000	(-2.01654698261181e+002dB,1.81815390832333e+001°)
1.67494287602642e+000	(-2.01652747975772e+002dB,1.82206877202285e+001°)
1.67880401812254e+000	(-2.01650787792230e+002dB,1.82599050868453e+001°)
1.68267406107045e+000	(-2.01648820430357e+002dB,1.82991972161939e+001°)
1.68655302538872e+000	(-2.01646846107856e+002dB,1.83385647255872e+001°)
1.69044093164324e+000	(-2.01644859342045e+002dB,1.83779957445912e+001°)
1.69433780044731e+000	(-2.01642869641138e+002dB,1.84175112209984e+001°)
1.69824365246172e+000	(-2.01640869923357e+002dB,1.84570957701293e+001°)
1.70215850839493e+000	(-2.01638857916722e+002dB,1.84967444780616e+001°)
1.70608238900310e+000	(-2.01636842182934e+002dB,1.85364763469245e+001°)
1.71001531509027e+000	(-2.01634816916969e+002dB,1.85762787037134e+001°)
1.71395730750840e+000	(-2.01632782827477e+002dB,1.86161532311306e+001°)
1.71790838715757e+000	(-2.01630740664917e+002dB,1.86561017196312e+001°)
1.72186857498599e+000	(-2.01628689149755e+002dB,1.86961214440109e+001°)
1.72583789199018e+000	(-2.01626630788111e+002dB,1.87362181230709e+001°)
1.72981635921508e+000	(-2.01624561161884e+002dB,1.87763819996213e+001°)
1.73380399775412e+000	(-2.01622485011039e+002dB,1.88166238104632e+001°)
1.73780082874935e+000	(-2.01620400038871e+002dB,1.88569385378904e+001°)
1.74180687339159e+000	(-2.01618306716642e+002dB,1.88973273671533e+001°)
1.74582215292048e+000	(-2.01616205052421e+002dB,1.89377904454136e+001°)
1.74984668862464e+000	(-2.01614093711662e+002dB,1.89783248745445e+001°)
1.75388050184174e+000	(-2.01611974627269e+002dB,1.90189351583751e+001°)
1.75792361395867e+000	(-2.01609845853772e+002dB,1.90596170025781e+001°)
1.76197604641161e+000	(-2.01607708552681e+002dB,1.91003731696935e+001°)
1.76603782068614e+000	(-2.01605563174385e+002dB,1.91412048185883e+001°)
1.77010895831740e+000	(-2.01603410839344e+002dB,1.91821146559521e+001°)
1.77418948089014e+000	(-2.01601244581440e+002dB,1.92230868125882e+001°)
1.77827941003890e+000	(-2.01599071460668e+002dB,1.92641376078107e+001°)
1.78237876744807e+000	(-2.01596893115685e+002dB,1.93052709837900e+001°)
1.78648757485203e+000	(-2.01594702004760e+002dB,1.93464696560534e+001°)
1.79060585403527e+000	(-2.01592500265779e+002dB,1.93877386497227e+001°)
1.79473362683250e+000	(-2.01590291795755e+002dB,1.94290871287143e+001°)
1.79887091512876e+000	(-2.01588075342308e+002dB,1.94705123319157e+001°)
1.80301774085955e+000	(-2.01585848436922e+002dB,1.95120086291897e+001°)
1.80717412601090e+000	(-2.01583614433220e+002dB,1.95535839780063e+001°)
1.81134009261958e+000	(-2.01581367640491e+002dB,1.95952251700769e+001°)
1.81551566277311e+000	(-2.01579113820201e+002dB,1.96369458291300e+001°)
1.81970085860996e+000	(-2.01576850498825e+002dB,1.96787402767905e+001°)
1.82389570231961e+000	(-2.01574578162220e+002dB,1.97206097790022e+001°)
1.82810021614272e+000	(-2.01572295622015e+002dB,1.97625516446643e+001°)
1.83231442237119e+000	(-2.01570004010779e+002dB,1.98045686704138e+001°)
1.83653834334832e+000	(-2.01567704819845e+002dB,1.98466645321137e+001°)
1.84077200146893e+000	(-2.01565395267547e+002dB,1.98888327415827e+001°)
1.84501541917945e+000	(-2.01563076171425e+002dB,1.99310753589602e+001°)
1.84926861897805e+000	(-2.01560745957437e+002dB,1.99733887290124e+001°)
1.85353162341479e+000	(-2.01558407392776e+002dB,2.00157795937908e+001°)
1.85780445509167e+000	(-2.01556060500668e+002dB,2.00582481481066e+001°)
1.86208713666284e+000	(-2.01553702061947e+002dB,2.01007867603973e+001°)
1.86637969083464e+000	(-2.01551335587472e+002dB,2.01434040119301e+001°)
1.87068214036577e+000	(-2.01548959136287e+002dB,2.01860953408076e+001°)
1.87499450806739e+000	(-2.01546572827217e+002dB,2.02288611490866e+001°)
1.87931681680324e+000	(-2.01544176212226e+002dB,2.02717004606630e+001°)
1.88364908948977e+000	(-2.01541770013162e+002dB,2.03146151466121e+001°)
1.88799134909627e+000	(-2.01539355196505e+002dB,2.03576076932860e+001°)
