Freq.	V(vout)/V(vin)
1.00000000000000e+000	(-1.96116481314245e+002dB,1.11204105446276e+001°)
1.00230523807790e+000	(-1.96115733770820e+002dB,1.11454021667503e+001°)
1.00461579027840e+000	(-1.96114986905428e+002dB,1.11704522829599e+001°)
1.00693166885180e+000	(-1.96114234527818e+002dB,1.11955529602087e+001°)
1.00925288607668e+000	(-1.96113476438575e+002dB,1.12207040309518e+001°)
1.01157945425990e+000	(-1.96112716918367e+002dB,1.12459112016311e+001°)
1.01391138573668e+000	(-1.96111958725455e+002dB,1.12711782291967e+001°)
1.01624869287070e+000	(-1.96111191689254e+002dB,1.12964918684345e+001°)
1.01859138805412e+000	(-1.96110421278653e+002dB,1.13218594062045e+001°)
1.02093948370768e+000	(-1.96109649073767e+002dB,1.13472830482897e+001°)
1.02329299228075e+000	(-1.96108872691855e+002dB,1.13727597620656e+001°)
1.02565192625141e+000	(-1.96108093139216e+002dB,1.13982909930966e+001°)
1.02801629812647e+000	(-1.96107309912799e+002dB,1.14238761876453e+001°)
1.03038612044162e+000	(-1.96106523474439e+002dB,1.14495160752256e+001°)
1.03276140576140e+000	(-1.96105734594429e+002dB,1.14752118043139e+001°)
1.03514216667934e+000	(-1.96104943817319e+002dB,1.15009642302762e+001°)
1.03752841581801e+000	(-1.96104144033534e+002dB,1.15267639186698e+001°)
1.03992016582906e+000	(-1.96103342976313e+002dB,1.15526213607893e+001°)
1.04231742939330e+000	(-1.96102539122367e+002dB,1.15785346341375e+001°)
1.04472021922080e+000	(-1.96101732563307e+002dB,1.16045039851800e+001°)
1.04712854805090e+000	(-1.96100922590607e+002dB,1.16305285754580e+001°)
1.04954242865232e+000	(-1.96100107260166e+002dB,1.16566058765813e+001°)
1.05196187382322e+000	(-1.96099290219566e+002dB,1.16827409629937e+001°)
1.05438689639126e+000	(-1.96098467357108e+002dB,1.17089283472983e+001°)
1.05681750921366e+000	(-1.96097641333994e+002dB,1.17351717714113e+001°)
1.05925372517729e+000	(-1.96096812072083e+002dB,1.17614712487340e+001°)
1.06169555719872e+000	(-1.96095979455122e+002dB,1.17878267395555e+001°)
1.06414301822431e+000	(-1.96095144021381e+002dB,1.18142391060566e+001°)
1.06659612123026e+000	(-1.96094302647014e+002dB,1.18407041530683e+001°)
1.06905487922266e+000	(-1.96093458479496e+002dB,1.18672263387995e+001°)
1.07151930523761e+000	(-1.96092611013885e+002dB,1.18938050875278e+001°)
1.07398941234124e+000	(-1.96091758221580e+002dB,1.19204376955846e+001°)
1.07646521362983e+000	(-1.96090905012500e+002dB,1.19471311180120e+001°)
1.07894672222983e+000	(-1.96090047028863e+002dB,1.19738794080610e+001°)
1.08143395129794e+000	(-1.96089184016770e+002dB,1.20006823176249e+001°)
1.08392691402120e+000	(-1.96088316981947e+002dB,1.20275413659017e+001°)
1.08642562361706e+000	(-1.96087445503351e+002dB,1.20544560755221e+001°)
1.08893009333343e+000	(-1.96086571199728e+002dB,1.20814288438895e+001°)
1.09144033644876e+000	(-1.96085693319625e+002dB,1.21084587355867e+001°)
1.09395636627209e+000	(-1.96084811876804e+002dB,1.21355458911292e+001°)
1.09647819614318e+000	(-1.96083926393318e+002dB,1.21626897523794e+001°)
1.09900583943252e+000	(-1.96083035717390e+002dB,1.21898887951796e+001°)
1.10153930954141e+000	(-1.96082141237780e+002dB,1.22171451089501e+001°)
1.10407861990207e+000	(-1.96081243843724e+002dB,1.22444600866426e+001°)
1.10662378397766e+000	(-1.96080342634013e+002dB,1.22718325641885e+001°)
1.10917481526240e+000	(-1.96079438346270e+002dB,1.22992637228717e+001°)
1.11173172728159e+000	(-1.96078528320147e+002dB,1.23267498559231e+001°)
1.11429453359173e+000	(-1.96077616131800e+002dB,1.23542962320497e+001°)
1.11686324778056e+000	(-1.96076695725619e+002dB,1.23818942198196e+001°)
1.11943788346715e+000	(-1.96075773803961e+002dB,1.24095536250715e+001°)
1.12201845430196e+000	(-1.96074849063909e+002dB,1.24372726973199e+001°)
1.12460497396692e+000	(-1.96073918849117e+002dB,1.24650476954162e+001°)
1.12719745617551e+000	(-1.96072986266361e+002dB,1.24928832658623e+001°)
1.12979591467280e+000	(-1.96072047679555e+002dB,1.25207742197055e+001°)
1.13240036323556e+000	(-1.96071106141565e+002dB,1.25487251404215e+001°)
1.13501081567231e+000	(-1.96070157856162e+002dB,1.25767305735100e+001°)
1.13762728582343e+000	(-1.96069210802923e+002dB,1.26048023832597e+001°)
1.14024978756117e+000	(-1.96068255010054e+002dB,1.26329260024100e+001°)
1.14287833478977e+000	(-1.96067295526660e+002dB,1.26611089871856e+001°)
1.14551294144553e+000	(-1.96066333650875e+002dB,1.26893533917061e+001°)
1.14815362149688e+000	(-1.96065365715425e+002dB,1.27176538961567e+001°)
1.15080038894443e+000	(-1.96064394381867e+002dB,1.27460145742144e+001°)
1.15345325782109e+000	(-1.96063419935488e+002dB,1.27744359825975e+001°)
1.15611224219210e+000	(-1.96062440817051e+002dB,1.28029159171685e+001°)
1.15877735615512e+000	(-1.96061453863409e+002dB,1.28314497429535e+001°)
1.16144861384034e+000	(-1.96060466201485e+002dB,1.28600482775052e+001°)
1.16412602941049e+000	(-1.96059471366472e+002dB,1.28887019220641e+001°)
1.16680961706096e+000	(-1.96058476688643e+002dB,1.29174218588451e+001°)
1.16949939101987e+000	(-1.96057474565466e+002dB,1.29461967285878e+001°)
1.17219536554813e+000	(-1.96056470338147e+002dB,1.29750347392498e+001°)
1.17489755493953e+000	(-1.96055456240352e+002dB,1.30039242060098e+001°)
1.17760597352080e+000	(-1.96054442016959e+002dB,1.30328800730249e+001°)
1.18032063565173e+000	(-1.96053424261072e+002dB,1.30618972941735e+001°)
1.18304155572516e+000	(-1.96052400849021e+002dB,1.30909727441302e+001°)
1.18576874816716e+000	(-1.96051370219923e+002dB,1.31201041331052e+001°)
1.18850222743702e+000	(-1.96050338832781e+002dB,1.31493015083481e+001°)
1.19124200802737e+000	(-1.96049300630892e+002dB,1.31785556775376e+001°)
1.19398810446427e+000	(-1.96048259765794e+002dB,1.32078731664009e+001°)
1.19674053130724e+000	(-1.96047214943411e+002dB,1.32372521100899e+001°)
1.19949930314938e+000	(-1.96046162374408e+002dB,1.32666867448623e+001°)
1.20226443461741e+000	(-1.96045105168481e+002dB,1.32961820076206e+001°)
1.20503594037179e+000	(-1.96044047340538e+002dB,1.33257442945077e+001°)
1.20781383510678e+000	(-1.96042981927141e+002dB,1.33553628669631e+001°)
1.21059813355048e+000	(-1.96041913293764e+002dB,1.33850446691948e+001°)
1.21338885046497e+000	(-1.96040838117190e+002dB,1.34147846121652e+001°)
1.21618600064636e+000	(-1.96039759844020e+002dB,1.34445882343918e+001°)
1.21898959892486e+000	(-1.96038674263393e+002dB,1.34744490218028e+001°)
1.22179966016487e+000	(-1.96037588987290e+002dB,1.35043791289819e+001°)
1.22461619926504e+000	(-1.96036493780369e+002dB,1.35343624831581e+001°)
1.22743923115840e+000	(-1.96035398729677e+002dB,1.35644152054054e+001°)
1.23026877081238e+000	(-1.96034293551593e+002dB,1.35945210701865e+001°)
1.23310483322890e+000	(-1.96033186172244e+002dB,1.36246928158070e+001°)
1.23594743344451e+000	(-1.96032076516569e+002dB,1.36549304754640e+001°)
1.23879658653036e+000	(-1.96030958714791e+002dB,1.36852247739365e+001°)
1.24165230759241e+000	(-1.96029836376957e+002dB,1.37155816114521e+001°)
1.24451461177138e+000	(-1.96028709568281e+002dB,1.37460012217859e+001°)
1.24738351424294e+000	(-1.96027574709153e+002dB,1.37764779451603e+001°)
1.25025903021771e+000	(-1.96026442662379e+002dB,1.38070294811151e+001°)
1.25314117494141e+000	(-1.96025299048018e+002dB,1.38376326766464e+001°)
1.25602996369487e+000	(-1.96024151502726e+002dB,1.38683000196999e+001°)
1.25892541179416e+000	(-1.96023000523538e+002dB,1.38990324585869e+001°)
1.26182753459066e+000	(-1.96021844420837e+002dB,1.39298273720472e+001°)
1.26473634747115e+000	(-1.96020684129652e+002dB,1.39606864176426e+001°)
1.26765186585784e+000	(-1.96019516619141e+002dB,1.39916047490851e+001°)
1.27057410520854e+000	(-1.96018344367853e+002dB,1.40225865507377e+001°)
1.27350308101666e+000	(-1.96017167452071e+002dB,1.40536320781638e+001°)
1.27643880881134e+000	(-1.96015987990865e+002dB,1.40847449693429e+001°)
1.27938130415752e+000	(-1.96014799662770e+002dB,1.41159148932996e+001°)
1.28233058265602e+000	(-1.96013606959029e+002dB,1.41471494009089e+001°)
1.28528665994361e+000	(-1.96012409029587e+002dB,1.41784472106832e+001°)
1.28824955169313e+000	(-1.96011207224297e+002dB,1.42098107030669e+001°)
1.29121927361353e+000	(-1.96010000032231e+002dB,1.42412374900526e+001°)
1.29419584144998e+000	(-1.96008784439546e+002dB,1.42727226388088e+001°)
1.29717927098395e+000	(-1.96007568089740e+002dB,1.43042790949664e+001°)
1.30016957803328e+000	(-1.96006344699370e+002dB,1.43358964448383e+001°)
1.30316677845229e+000	(-1.96005116305086e+002dB,1.43675782359898e+001°)
1.30617088813183e+000	(-1.96003880754995e+002dB,1.43993209542513e+001°)
1.30918192299940e+000	(-1.96002642256830e+002dB,1.44311318476732e+001°)
1.31219989901920e+000	(-1.96001396984186e+002dB,1.44630045610152e+001°)
1.31522483219223e+000	(-1.96000145604129e+002dB,1.44949403423433e+001°)
1.31825673855640e+000	(-1.95998890690456e+002dB,1.45269437095508e+001°)
1.32129563418657e+000	(-1.95997628895975e+002dB,1.45590090775756e+001°)
1.32434153519466e+000	(-1.95996363098743e+002dB,1.45911414985105e+001°)
1.32739445772973e+000	(-1.95995092833170e+002dB,1.46233403155905e+001°)
1.33045441797808e+000	(-1.95993813334731e+002dB,1.46555974490703e+001°)
1.33352143216332e+000	(-1.95992529156019e+002dB,1.46879208535300e+001°)
1.33659551654643e+000	(-1.95991242206989e+002dB,1.47203139765212e+001°)
1.33967668742593e+000	(-1.95989949386917e+002dB,1.47527715927326e+001°)
1.34276496113786e+000	(-1.95988648287712e+002dB,1.47852896336498e+001°)
1.34586035405594e+000	(-1.95987344412332e+002dB,1.48178777975070e+001°)
1.34896288259164e+000	(-1.95986030480675e+002dB,1.48505235127954e+001°)
1.35207256319427e+000	(-1.95984716229394e+002dB,1.48832439233086e+001°)
1.35518941235103e+000	(-1.95983394686283e+002dB,1.49160269702912e+001°)
1.35831344658715e+000	(-1.95982063476768e+002dB,1.49488685800888e+001°)
1.36144468246594e+000	(-1.95980731770721e+002dB,1.49817850195918e+001°)
1.36458313658892e+000	(-1.95979391546386e+002dB,1.50147622875058e+001°)
1.36772882559584e+000	(-1.95978046799388e+002dB,1.50478075638999e+001°)
1.37088176616484e+000	(-1.95976695967172e+002dB,1.50809182148460e+001°)
1.37404197501251e+000	(-1.95975339163385e+002dB,1.51140945674009e+001°)
1.37720946889394e+000	(-1.95973974893014e+002dB,1.51473340783166e+001°)
1.38038426460288e+000	(-1.95972608973619e+002dB,1.51806472681558e+001°)
1.38356637897177e+000	(-1.95971233328778e+002dB,1.52140198287316e+001°)
1.38675582887188e+000	(-1.95969852505917e+002dB,1.52474600175865e+001°)
1.38995263121334e+000	(-1.95968468339720e+002dB,1.52809712787145e+001°)
1.39315680294529e+000	(-1.95967075822368e+002dB,1.53145447268734e+001°)
1.39636836105593e+000	(-1.95965675552219e+002dB,1.53481815441188e+001°)
1.39958732257261e+000	(-1.95964271878122e+002dB,1.53818897287139e+001°)
1.40281370456195e+000	(-1.95962862894606e+002dB,1.54156659760677e+001°)
1.40604752412990e+000	(-1.95961445739363e+002dB,1.54495052055991e+001°)
1.40928879842186e+000	(-1.95960023761590e+002dB,1.54834136392799e+001°)
1.41253754462274e+000	(-1.95958596581194e+002dB,1.55173907255929e+001°)
1.41579377995707e+000	(-1.95957162082340e+002dB,1.55514327205081e+001°)
1.41905752168908e+000	(-1.95955719636098e+002dB,1.55855385805525e+001°)
1.42232878712281e+000	(-1.95954274973863e+002dB,1.56197189815168e+001°)
1.42560759360218e+000	(-1.95952819937421e+002dB,1.56539590225826e+001°)
1.42889395851109e+000	(-1.95951361312293e+002dB,1.56882713509815e+001°)
1.43218789927353e+000	(-1.95949895355822e+002dB,1.57226491792280e+001°)
1.43548943335364e+000	(-1.95948424662401e+002dB,1.57570974512339e+001°)
1.43879857825583e+000	(-1.95946945969358e+002dB,1.57916102290014e+001°)
1.44211535152486e+000	(-1.95945460136470e+002dB,1.58261892272434e+001°)
1.44543977074592e+000	(-1.95943972324092e+002dB,1.58608442356985e+001°)
1.44877185354475e+000	(-1.95942474778083e+002dB,1.58955608739271e+001°)
1.45211161758773e+000	(-1.95940969544678e+002dB,1.59303430800728e+001°)
1.45545908058195e+000	(-1.95939460624476e+002dB,1.59651985161119e+001°)
1.45881426027534e+000	(-1.95937943967016e+002dB,1.60001196852822e+001°)
1.46217717445671e+000	(-1.95936423110089e+002dB,1.60351134070348e+001°)
1.46554784095590e+000	(-1.95934890677327e+002dB,1.60701658233550e+001°)
1.46892627764385e+000	(-1.95933357645535e+002dB,1.61052979033409e+001°)
1.47231250243271e+000	(-1.95931814147373e+002dB,1.61404910171813e+001°)
1.47570653327588e+000	(-1.95930263802605e+002dB,1.61757521684768e+001°)
1.47910838816819e+000	(-1.95928709427398e+002dB,1.62110868835910e+001°)
1.48251808514594e+000	(-1.95927147536947e+002dB,1.62464886270526e+001°)
1.48593564228699e+000	(-1.95925579440420e+002dB,1.62819600385804e+001°)
1.48936107771090e+000	(-1.95924003546168e+002dB,1.63174981795865e+001°)
1.49279440957898e+000	(-1.95922421102701e+002dB,1.63531055808179e+001°)
1.49623565609442e+000	(-1.95920832332013e+002dB,1.63887828041706e+001°)
1.49968483550236e+000	(-1.95919235596501e+002dB,1.64245267998004e+001°)
1.50314196609001e+000	(-1.95917635142665e+002dB,1.64603459569574e+001°)
1.50660706618673e+000	(-1.95916026118752e+002dB,1.64962309682259e+001°)
1.51008015416413e+000	(-1.95914407266479e+002dB,1.65321794752921e+001°)
1.51356124843619e+000	(-1.95912787055153e+002dB,1.65682081876371e+001°)
1.51705036745932e+000	(-1.95911157003087e+002dB,1.66043006253407e+001°)
1.52054752973248e+000	(-1.95909519505029e+002dB,1.66404615987811e+001°)
1.52405275379728e+000	(-1.95907876775410e+002dB,1.66766956055777e+001°)
1.52756605823806e+000	(-1.95906226606421e+002dB,1.67129984252915e+001°)
1.53108746168202e+000	(-1.95904566955413e+002dB,1.67493661253649e+001°)
1.53461698279928e+000	(-1.95902905355888e+002dB,1.67858137907903e+001°)
1.53815464030302e+000	(-1.95901233751127e+002dB,1.68223255520582e+001°)
1.54170045294954e+000	(-1.95899552582998e+002dB,1.68589023808207e+001°)
1.54525443953840e+000	(-1.95897868803389e+002dB,1.68955583002118e+001°)
1.54881661891247e+000	(-1.95896173546337e+002dB,1.69322756966576e+001°)
1.55238700995807e+000	(-1.95894476630380e+002dB,1.69690744017546e+001°)
1.55596563160506e+000	(-1.95892767345862e+002dB,1.70059330143776e+001°)
1.55955250282694e+000	(-1.95891053338571e+002dB,1.70428670518138e+001°)
1.56314764264094e+000	(-1.95889332264560e+002dB,1.70798719268942e+001°)
1.56675107010813e+000	(-1.95887603383014e+002dB,1.71169462658504e+001°)
1.57036280433354e+000	(-1.95885867482517e+002dB,1.71540917954337e+001°)
1.57398286446620e+000	(-1.95884120840492e+002dB,1.71913010510810e+001°)
1.57761126969933e+000	(-1.95882371386226e+002dB,1.72285903327330e+001°)
1.58124803927037e+000	(-1.95880615013019e+002dB,1.72659514133057e+001°)
1.58489319246110e+000	(-1.95878847726491e+002dB,1.73033762194591e+001°)
1.58854674859776e+000	(-1.95877077935850e+002dB,1.73408821505448e+001°)
1.59220872705115e+000	(-1.95875293976700e+002dB,1.73784453243545e+001°)
1.59587914723672e+000	(-1.95873506177417e+002dB,1.74160871453469e+001°)
1.59955802861465e+000	(-1.95871712925627e+002dB,1.74538044499036e+001°)
1.60324539069002e+000	(-1.95869908695720e+002dB,1.74915859094085e+001°)
1.60694125301286e+000	(-1.95868097577025e+002dB,1.75294401232149e+001°)
1.61064563517825e+000	(-1.95866279272359e+002dB,1.75673666086691e+001°)
1.61435855682647e+000	(-1.95864453628421e+002dB,1.76053651789861e+001°)
1.61808003764305e+000	(-1.95862623531751e+002dB,1.76434420224276e+001°)
1.62181009735891e+000	(-1.95860778957168e+002dB,1.76815762320589e+001°)
1.62554875575047e+000	(-1.95858931369218e+002dB,1.77197920009089e+001°)
1.62929603263970e+000	(-1.95857074931576e+002dB,1.77580771956954e+001°)
1.63305194789432e+000	(-1.95855209083571e+002dB,1.77964307410025e+001°)
1.63681652142779e+000	(-1.95853336409406e+002dB,1.78348582249548e+001°)
1.64058977319952e+000	(-1.95851458497213e+002dB,1.78733631677697e+001°)
1.64437172321491e+000	(-1.95849568580096e+002dB,1.79119313074256e+001°)
1.64816239152549e+000	(-1.95847674540330e+002dB,1.79505795549097e+001°)
1.65196179822900e+000	(-1.95845771590263e+002dB,1.79892978383407e+001°)
1.65576996346951e+000	(-1.95843857268238e+002dB,1.80280809855497e+001°)
1.65958690743754e+000	(-1.95841939099335e+002dB,1.80669452656278e+001°)
1.66341265037015e+000	(-1.95840011157091e+002dB,1.81058780849539e+001°)
1.66724721255104e+000	(-1.95838075289071e+002dB,1.81448835383403e+001°)
1.67109061431069e+000	(-1.95836131989998e+002dB,1.81839628262480e+001°)
1.67494287602642e+000	(-1.95834181163789e+002dB,1.82231158763969e+001°)
1.67880401812254e+000	(-1.95832220355119e+002dB,1.82623374795944e+001°)
1.68267406107045e+000	(-1.95830253400057e+002dB,1.83016361038929e+001°)
1.68655302538872e+000	(-1.95828277206998e+002dB,1.83410051455212e+001°)
1.69044093164324e+000	(-1.95826291280793e+002dB,1.83804436297530e+001°)
1.69433780044731e+000	(-1.95824299345933e+002dB,1.84199598422534e+001°)
1.69824365246172e+000	(-1.95822300598292e+002dB,1.84595521725608e+001°)
1.70215850839493e+000	(-1.95820288051855e+002dB,1.84992053508203e+001°)
1.70608238900310e+000	(-1.95818270459203e+002dB,1.85389387810504e+001°)
1.71001531509027e+000	(-1.95816245908659e+002dB,1.85787484007572e+001°)
1.71395730750840e+000	(-1.95814210745389e+002dB,1.86186262351331e+001°)
1.71790838715757e+000	(-1.95812168753825e+002dB,1.86585808055200e+001°)
1.72186857498599e+000	(-1.95810116188167e+002dB,1.86986038993026e+001°)
1.72583789199018e+000	(-1.95808055508261e+002dB,1.87387011137609e+001°)
1.72981635921508e+000	(-1.95805987934248e+002dB,1.87788753165758e+001°)
1.73380399775412e+000	(-1.95803909890711e+002dB,1.88191186204110e+001°)
1.73780082874935e+000	(-1.95801826023889e+002dB,1.88594415896158e+001°)
1.74180687339159e+000	(-1.95799730399937e+002dB,1.88998309908904e+001°)
1.74582215292048e+000	(-1.95797629254426e+002dB,1.89403010149992e+001°)
1.74984668862464e+000	(-1.95795517404184e+002dB,1.89808400756106e+001°)
1.75388050184174e+000	(-1.95793396831489e+002dB,1.90214527733021e+001°)
1.75792361395867e+000	(-1.95791268717016e+002dB,1.90621419232867e+001°)
1.76197604641161e+000	(-1.95789129918031e+002dB,1.91029004888512e+001°)
1.76603782068614e+000	(-1.95786984529477e+002dB,1.91437379406411e+001°)
1.77010895831740e+000	(-1.95784830695012e+002dB,1.91846501769797e+001°)
1.77418948089014e+000	(-1.95782664872945e+002dB,1.92256291804285e+001°)
1.77827941003890e+000	(-1.95780491236085e+002dB,1.92666846463343e+001°)
1.78237876744807e+000	(-1.95778310142512e+002dB,1.93078175428588e+001°)
1.78648757485203e+000	(-1.95776120895584e+002dB,1.93490264031405e+001°)
1.79060585403527e+000	(-1.95773916551890e+002dB,1.93902952426487e+001°)
1.79473362683250e+000	(-1.95771709853930e+002dB,1.94316537389781e+001°)
1.79887091512876e+000	(-1.95769490340583e+002dB,1.94730777223115e+001°)
1.80301774085955e+000	(-1.95767265484907e+002dB,1.95145847251978e+001°)
1.80717412601090e+000	(-1.95765029410559e+002dB,1.95561611612897e+001°)
1.81134009261958e+000	(-1.95762783590325e+002dB,1.95978105778383e+001°)
1.81551566277311e+000	(-1.95760528062353e+002dB,1.96395331771651e+001°)
1.81970085860996e+000	(-1.95758265229861e+002dB,1.96813347428918e+001°)
1.82389570231961e+000	(-1.95755991652864e+002dB,1.97232072927561e+001°)
1.82810021614272e+000	(-1.95753707750120e+002dB,1.97651519165070e+001°)
1.83231442237119e+000	(-1.95751416741332e+002dB,1.98071763677691e+001°)
1.83653834334832e+000	(-1.95749115100207e+002dB,1.98492724068245e+001°)
1.84077200146893e+000	(-1.95746805664595e+002dB,1.98914469068422e+001°)
1.84501541917945e+000	(-1.95744486081599e+002dB,1.99336943859254e+001°)
1.84926861897805e+000	(-1.95742156696895e+002dB,1.99760157815469e+001°)
1.85353162341479e+000	(-1.95739814952629e+002dB,2.00184050607974e+001°)
1.85780445509167e+000	(-1.95737468570570e+002dB,2.00608808964660e+001°)
1.86208713666284e+000	(-1.95735109732338e+002dB,2.01034246130569e+001°)
1.86637969083464e+000	(-1.95732743631620e+002dB,2.01460488502149e+001°)
1.87068214036577e+000	(-1.95730365322737e+002dB,2.01887417704009e+001°)
1.87499450806739e+000	(-1.95727979697462e+002dB,2.02315153418061e+001°)
1.87931681680324e+000	(-1.95725581629825e+002dB,2.02743572320953e+001°)
1.88364908948977e+000	(-1.95723175482943e+002dB,2.03172781699312e+001°)
1.88799134909627e+000	(-1.95720758487592e+002dB,2.03602715224623e+001°)
