Freq.	V(vo)
Step Information: 1=1  (Run: 1/11)
1.00000000000000e-001	(2.88212362674513e+001dB,1.79906100085078e+002°)
1.02329299228075e-001	(2.88212357177386e+001dB,1.79903912879138e+002°)
1.04712854805090e-001	(2.88212351421187e+001dB,1.79901674726918e+002°)
1.07151930523761e-001	(2.88212345393709e+001dB,1.79899384441745e+002°)
1.09647819614319e-001	(2.88212339082164e+001dB,1.79897040809311e+002°)
1.12201845430196e-001	(2.88212332473167e+001dB,1.79894642587021e+002°)
1.14815362149688e-001	(2.88212325552698e+001dB,1.79892188503341e+002°)
1.17489755493953e-001	(2.88212318306079e+001dB,1.79889677257117e+002°)
1.20226443461741e-001	(2.88212310717939e+001dB,1.79887107516894e+002°)
1.23026877081238e-001	(2.88212302772182e+001dB,1.79884477920201e+002°)
1.25892541179417e-001	(2.88212294451954e+001dB,1.79881787072837e+002°)
1.28824955169313e-001	(2.88212285739608e+001dB,1.79879033548126e+002°)
1.31825673855641e-001	(2.88212276616664e+001dB,1.79876215886164e+002°)
1.34896288259165e-001	(2.88212267063771e+001dB,1.79873332593043e+002°)
1.38038426460288e-001	(2.88212257060666e+001dB,1.79870382140062e+002°)
1.41253754462275e-001	(2.88212246586131e+001dB,1.79867362962914e+002°)
1.44543977074593e-001	(2.88212235617950e+001dB,1.79864273460859e+002°)
1.47910838816821e-001	(2.88212224132857e+001dB,1.79861111995873e+002°)
1.51356124843621e-001	(2.88212212106491e+001dB,1.79857876891784e+002°)
1.54881661891248e-001	(2.88212199513344e+001dB,1.79854566433378e+002°)
1.58489319246111e-001	(2.88212186326705e+001dB,1.79851178865495e+002°)
1.62181009735893e-001	(2.88212172518602e+001dB,1.79847712392097e+002°)
1.65958690743756e-001	(2.88212158059748e+001dB,1.79844165175316e+002°)
1.69824365246174e-001	(2.88212142919475e+001dB,1.79840535334478e+002°)
1.73780082874937e-001	(2.88212127065668e+001dB,1.79836820945110e+002°)
1.77827941003892e-001	(2.88212110464700e+001dB,1.79833020037920e+002°)
1.81970085860998e-001	(2.88212093081360e+001dB,1.79829130597750e+002°)
1.86208713666287e-001	(2.88212074878776e+001dB,1.79825150562510e+002°)
1.90546071796325e-001	(2.88212055818338e+001dB,1.79821077822087e+002°)
1.94984459975804e-001	(2.88212035859619e+001dB,1.79816910217224e+002°)
1.99526231496888e-001	(2.88212014960284e+001dB,1.79812645538380e+002°)
2.04173794466953e-001	(2.88211993076004e+001dB,1.79808281524554e+002°)
2.08929613085404e-001	(2.88211970160362e+001dB,1.79803815862090e+002°)
2.13796208950223e-001	(2.88211946164752e+001dB,1.79799246183453e+002°)
2.18776162394955e-001	(2.88211921038278e+001dB,1.79794570065971e+002°)
2.23872113856834e-001	(2.88211894727645e+001dB,1.79789785030554e+002°)
2.29086765276777e-001	(2.88211867177048e+001dB,1.79784888540380e+002°)
2.34422881531992e-001	(2.88211838328049e+001dB,1.79779877999551e+002°)
2.39883291901949e-001	(2.88211808119460e+001dB,1.79774750751719e+002°)
2.45470891568503e-001	(2.88211776487206e+001dB,1.79769504078678e+002°)
2.51188643150958e-001	(2.88211743364195e+001dB,1.79764135198924e+002°)
2.57039578276886e-001	(2.88211708680171e+001dB,1.79758641266184e+002°)
2.63026799189538e-001	(2.88211672361570e+001dB,1.79753019367906e+002°)
2.69153480392691e-001	(2.88211634331357e+001dB,1.79747266523719e+002°)
2.75422870333816e-001	(2.88211594508872e+001dB,1.79741379683853e+002°)
2.81838293126445e-001	(2.88211552809651e+001dB,1.79735355727524e+002°)
2.88403150312660e-001	(2.88211509145248e+001dB,1.79729191461285e+002°)
2.95120922666638e-001	(2.88211463423053e+001dB,1.79722883617330e+002°)
3.01995172040201e-001	(2.88211415546088e+001dB,1.79716428851769e+002°)
3.09029543251359e-001	(2.88211365412808e+001dB,1.79709823742857e+002°)
3.16227766016838e-001	(2.88211312916882e+001dB,1.79703064789179e+002°)
3.23593656929628e-001	(2.88211257946966e+001dB,1.79696148407801e+002°)
3.31131121482591e-001	(2.88211200386473e+001dB,1.79689070932373e+002°)
3.38844156139202e-001	(2.88211140113320e+001dB,1.79681828611189e+002°)
3.46736850452531e-001	(2.88211076999669e+001dB,1.79674417605201e+002°)
3.54813389233575e-001	(2.88211010911663e+001dB,1.79666833985986e+002°)
3.63078054770101e-001	(2.88210941709132e+001dB,1.79659073733673e+002°)
3.71535229097172e-001	(2.88210869245305e+001dB,1.79651132734813e+002°)
3.80189396320561e-001	(2.88210793366492e+001dB,1.79643006780205e+002°)
3.89045144994280e-001	(2.88210713911763e+001dB,1.79634691562668e+002°)
3.98107170553497e-001	(2.88210630712604e+001dB,1.79626182674765e+002°)
4.07380277804112e-001	(2.88210543592560e+001dB,1.79617475606473e+002°)
4.16869383470335e-001	(2.88210452366863e+001dB,1.79608565742800e+002°)
4.26579518801592e-001	(2.88210356842036e+001dB,1.79599448361341e+002°)
4.36515832240165e-001	(2.88210256815488e+001dB,1.79590118629789e+002°)
4.46683592150962e-001	(2.88210152075081e+001dB,1.79580571603376e+002°)
4.57088189614874e-001	(2.88210042398681e+001dB,1.79570802222264e+002°)
4.67735141287197e-001	(2.88209927553688e+001dB,1.79560805308872e+002°)
4.78630092322638e-001	(2.88209807296544e+001dB,1.79550575565139e+002°)
4.89778819368445e-001	(2.88209681372212e+001dB,1.79540107569730e+002°)
5.01187233627271e-001	(2.88209549513640e+001dB,1.79529395775173e+002°)
5.12861383991364e-001	(2.88209411441194e+001dB,1.79518434504928e+002°)
5.24807460249772e-001	(2.88209266862064e+001dB,1.79507217950397e+002°)
5.37031796370252e-001	(2.88209115469647e+001dB,1.79495740167854e+002°)
5.49540873857624e-001	(2.88208956942890e+001dB,1.79483995075313e+002°)
5.62341325190348e-001	(2.88208790945617e+001dB,1.79471976449323e+002°)
5.75439937337156e-001	(2.88208617125814e+001dB,1.79459677921680e+002°)
5.88843655355588e-001	(2.88208435114881e+001dB,1.79447092976078e+002°)
6.02559586074357e-001	(2.88208244526855e+001dB,1.79434214944672e+002°)
6.16595001861481e-001	(2.88208044957589e+001dB,1.79421037004568e+002°)
6.30957344480192e-001	(2.88207835983896e+001dB,1.79407552174226e+002°)
6.45654229034654e-001	(2.88207617162653e+001dB,1.79393753309789e+002°)
6.60693448007595e-001	(2.88207388029866e+001dB,1.79379633101324e+002°)
6.76082975391981e-001	(2.88207148099678e+001dB,1.79365184068972e+002°)
6.91830970918935e-001	(2.88206896863349e+001dB,1.79350398559021e+002°)
7.07945784384137e-001	(2.88206633788175e+001dB,1.79335268739879e+002°)
7.24435960074989e-001	(2.88206358316358e+001dB,1.79319786597959e+002°)
7.41310241300916e-001	(2.88206069863826e+001dB,1.79303943933474e+002°)
7.58577575029182e-001	(2.88205767819000e+001dB,1.79287732356127e+002°)
7.76247116628690e-001	(2.88205451541490e+001dB,1.79271143280715e+002°)
7.94328234724280e-001	(2.88205120360750e+001dB,1.79254167922621e+002°)
8.12830516164098e-001	(2.88204773574649e+001dB,1.79236797293212e+002°)
8.31763771102669e-001	(2.88204410447990e+001dB,1.79219022195129e+002°)
8.51138038202375e-001	(2.88204030210953e+001dB,1.79200833217475e+002°)
8.70963589956079e-001	(2.88203632057465e+001dB,1.79182220730885e+002°)
8.91250938133744e-001	(2.88203215143493e+001dB,1.79163174882491e+002°)
9.12010839355908e-001	(2.88202778585261e+001dB,1.79143685590780e+002°)
9.33254300796989e-001	(2.88202321457377e+001dB,1.79123742540319e+002°)
9.54992586021434e-001	(2.88201842790876e+001dB,1.79103335176378e+002°)
9.77237220955809e-001	(2.88201341571173e+001dB,1.79082452699425e+002°)
9.99999999999998e-001	(2.88200816735912e+001dB,1.79061084059498e+002°)
1.02329299228075e+000	(2.88200267172726e+001dB,1.79039217950450e+002°)
1.04712854805090e+000	(2.88199691716878e+001dB,1.79016842804072e+002°)
1.07151930523760e+000	(2.88199089148804e+001dB,1.78993946784078e+002°)
1.09647819614318e+000	(2.88198458191532e+001dB,1.78970517779960e+002°)
1.12201845430196e+000	(2.88197797507984e+001dB,1.78946543400707e+002°)
1.14815362149688e+000	(2.88197105698153e+001dB,1.78922010968382e+002°)
1.17489755493953e+000	(2.88196381296140e+001dB,1.78896907511566e+002°)
1.20226443461741e+000	(2.88195622767063e+001dB,1.78871219758643e+002°)
1.23026877081238e+000	(2.88194828503811e+001dB,1.78844934130957e+002°)
1.25892541179416e+000	(2.88193996823653e+001dB,1.78818036735800e+002°)
1.28824955169313e+000	(2.88193125964687e+001dB,1.78790513359264e+002°)
1.31825673855640e+000	(2.88192214082119e+001dB,1.78762349458926e+002°)
1.34896288259165e+000	(2.88191259244371e+001dB,1.78733530156382e+002°)
1.38038426460288e+000	(2.88190259429005e+001dB,1.78704040229616e+002°)
1.41253754462275e+000	(2.88189212518463e+001dB,1.78673864105210e+002°)
1.44543977074592e+000	(2.88188116295595e+001dB,1.78642985850380e+002°)
1.47910838816820e+000	(2.88186968438992e+001dB,1.78611389164850e+002°)
1.51356124843620e+000	(2.88185766518089e+001dB,1.78579057372552e+002°)
1.54881661891248e+000	(2.88184507988050e+001dB,1.78545973413146e+002°)
1.58489319246111e+000	(2.88183190184405e+001dB,1.78512119833371e+002°)
1.62181009735892e+000	(2.88181810317445e+001dB,1.78477478778208e+002°)
1.65958690743756e+000	(2.88180365466347e+001dB,1.78442031981867e+002°)
1.69824365246174e+000	(2.88178852573033e+001dB,1.78405760758577e+002°)
1.73780082874937e+000	(2.88177268435739e+001dB,1.78368645993204e+002°)
1.77827941003892e+000	(2.88175609702283e+001dB,1.78330668131662e+002°)
1.81970085860998e+000	(2.88173872863028e+001dB,1.78291807171140e+002°)
1.86208713666286e+000	(2.88172054243506e+001dB,1.78252042650132e+002°)
1.90546071796324e+000	(2.88170149996705e+001dB,1.78211353638268e+002°)
1.94984459975804e+000	(2.88168156095004e+001dB,1.78169718725941e+002°)
1.99526231496887e+000	(2.88166068321722e+001dB,1.78127116013742e+002°)
2.04173794466952e+000	(2.88163882262283e+001dB,1.78083523101677e+002°)
2.08929613085403e+000	(2.88161593294969e+001dB,1.78038917078190e+002°)
2.13796208950223e+000	(2.88159196581245e+001dB,1.77993274508972e+002°)
2.18776162394955e+000	(2.88156687055638e+001dB,1.77946571425563e+002°)
2.23872113856833e+000	(2.88154059415146e+001dB,1.77898783313742e+002°)
2.29086765276777e+000	(2.88151308108160e+001dB,1.77849885101709e+002°)
2.34422881531991e+000	(2.88148427322871e+001dB,1.77799851148050e+002°)
2.39883291901948e+000	(2.88145410975152e+001dB,1.77748655229495e+002°)
2.45470891568502e+000	(2.88142252695868e+001dB,1.77696270528460e+002°)
2.51188643150957e+000	(2.88138945817617e+001dB,1.77642669620376e+002°)
2.57039578276886e+000	(2.88135483360851e+001dB,1.77587824460808e+002°)
2.63026799189537e+000	(2.88131858019371e+001dB,1.77531706372365e+002°)
2.69153480392691e+000	(2.88128062145143e+001dB,1.77474286031389e+002°)
2.75422870333816e+000	(2.88124087732437e+001dB,1.77415533454454e+002°)
2.81838293126444e+000	(2.88119926401224e+001dB,1.77355417984644e+002°)
2.88403150312660e+000	(2.88115569379833e+001dB,1.77293908277634e+002°)
2.95120922666637e+000	(2.88111007486802e+001dB,1.77230972287572e+002°)
3.01995172040200e+000	(2.88106231111916e+001dB,1.77166577252767e+002°)
3.09029543251358e+000	(2.88101230196378e+001dB,1.77100689681182e+002°)
3.16227766016837e+000	(2.88095994212084e+001dB,1.77033275335743e+002°)
3.23593656929627e+000	(2.88090512139961e+001dB,1.76964299219475e+002°)
3.31131121482590e+000	(2.88084772447328e+001dB,1.76893725560460e+002°)
3.38844156139201e+000	(2.88078763064238e+001dB,1.76821517796633e+002°)
3.46736850452530e+000	(2.88072471358752e+001dB,1.76747638560426e+002°)
3.54813389233574e+000	(2.88065884111115e+001dB,1.76672049663268e+002°)
3.63078054770100e+000	(2.88058987486769e+001dB,1.76594712079949e+002°)
3.71535229097171e+000	(2.88051767008166e+001dB,1.76515585932868e+002°)
3.80189396320560e+000	(2.88044207525326e+001dB,1.76434630476176e+002°)
3.89045144994279e+000	(2.88036293185094e+001dB,1.76351804079825e+002°)
3.98107170553496e+000	(2.88028007399032e+001dB,1.76267064213546e+002°)
4.07380277804111e+000	(2.88019332809902e+001dB,1.76180367430775e+002°)
4.16869383470334e+000	(2.88010251256669e+001dB,1.76091669352539e+002°)
4.26579518801591e+000	(2.88000743737987e+001dB,1.76000924651341e+002°)
4.36515832240164e+000	(2.87990790374072e+001dB,1.75908087035046e+002°)
4.46683592150961e+000	(2.87980370366944e+001dB,1.75813109230819e+002°)
4.57088189614873e+000	(2.87969461958927e+001dB,1.75715942969124e+002°)
4.67735141287196e+000	(2.87958042389378e+001dB,1.75616538967825e+002°)
4.78630092322636e+000	(2.87946087849551e+001dB,1.75514846916426e+002°)
4.89778819368444e+000	(2.87933573435546e+001dB,1.75410815460481e+002°)
5.01187233627270e+000	(2.87920473099253e+001dB,1.75304392186215e+002°)
5.12861383991363e+000	(2.87906759597225e+001dB,1.75195523605401e+002°)
5.24807460249770e+000	(2.87892404437419e+001dB,1.75084155140544e+002°)
5.37031796370250e+000	(2.87877377823695e+001dB,1.74970231110411e+002°)
5.49540873857622e+000	(2.87861648598034e+001dB,1.74853694715975e+002°)
5.62341325190346e+000	(2.87845184180368e+001dB,1.74734488026823e+002°)
5.75439937337154e+000	(2.87827950505948e+001dB,1.74612551968088e+002°)
5.88843655355586e+000	(2.87809911960183e+001dB,1.74487826307989e+002°)
6.02559586074355e+000	(2.87791031310847e+001dB,1.74360249646026e+002°)
6.16595001861479e+000	(2.87771269637588e+001dB,1.74229759401934e+002°)
6.30957344480190e+000	(2.87750586258647e+001dB,1.74096291805456e+002°)
6.45654229034652e+000	(2.87728938654714e+001dB,1.73959781887046e+002°)
6.60693448007593e+000	(2.87706282389825e+001dB,1.73820163469572e+002°)
6.76082975391978e+000	(2.87682571029237e+001dB,1.73677369161149e+002°)
6.91830970918933e+000	(2.87657756054188e+001dB,1.73531330349178e+002°)
7.07945784384134e+000	(2.87631786773467e+001dB,1.73381977195741e+002°)
7.24435960074986e+000	(2.87604610231722e+001dB,1.73229238634442e+002°)
7.41310241300914e+000	(2.87576171114437e+001dB,1.73073042368849e+002°)
7.58577575029180e+000	(2.87546411649489e+001dB,1.72913314872660e+002°)
7.76247116628688e+000	(2.87515271505254e+001dB,1.72749981391750e+002°)
7.94328234724277e+000	(2.87482687685167e+001dB,1.72582965948246e+002°)
8.12830516164095e+000	(2.87448594418713e+001dB,1.72412191346803e+002°)
8.31763771102667e+000	(2.87412923048778e+001dB,1.72237579183253e+002°)
8.51138038202372e+000	(2.87375601915337e+001dB,1.72059049855808e+002°)
8.70963589956076e+000	(2.87336556235448e+001dB,1.71876522579016e+002°)
8.91250938133741e+000	(2.87295707979529e+001dB,1.71689915400668e+002°)
9.12010839355905e+000	(2.87252975743906e+001dB,1.71499145221887e+002°)
9.33254300796986e+000	(2.87208274619655e+001dB,1.71304127820606e+002°)
9.54992586021431e+000	(2.87161516057743e+001dB,1.71104777878691e+002°)
9.77237220955806e+000	(2.87112607730512e+001dB,1.70901009012937e+002°)
9.99999999999995e+000	(2.87061453389562e+001dB,1.70692733810229e+002°)
1.02329299228075e+001	(2.87007952720110e+001dB,1.70479863867104e+002°)
1.04712854805089e+001	(2.86952001191921e+001dB,1.70262309834030e+002°)
1.07151930523760e+001	(2.86893489906934e+001dB,1.70039981464669e+002°)
1.09647819614318e+001	(2.86832305443738e+001dB,1.69812787670459e+002°)
1.12201845430196e+001	(2.86768329699073e+001dB,1.69580636580803e+002°)
1.14815362149688e+001	(2.86701439726567e+001dB,1.69343435609214e+002°)
1.17489755493952e+001	(2.86631507572964e+001dB,1.69101091525749e+002°)
1.20226443461741e+001	(2.86558400112112e+001dB,1.68853510536066e+002°)
1.23026877081237e+001	(2.86481978877054e+001dB,1.68600598367476e+002°)
1.25892541179416e+001	(2.86402099890573e+001dB,1.68342260362342e+002°)
1.28824955169313e+001	(2.86318613494627e+001dB,1.68078401579195e+002°)
1.31825673855640e+001	(2.86231364179115e+001dB,1.67808926901940e+002°)
1.34896288259165e+001	(2.86140190410524e+001dB,1.67533741157523e+002°)
1.38038426460288e+001	(2.86044924461005e+001dB,1.67252749242446e+002°)
1.41253754462275e+001	(2.85945392238537e+001dB,1.66965856258484e+002°)
1.44543977074592e+001	(2.85841413118868e+001dB,1.66672967657998e+002°)
1.47910838816820e+001	(2.85732799780013e+001dB,1.66373989399179e+002°)
1.51356124843620e+001	(2.85619358040137e+001dB,1.66068828111601e+002°)
1.54881661891247e+001	(2.85500886699741e+001dB,1.65757391272397e+002°)
1.58489319246110e+001	(2.85377177389142e+001dB,1.65439587393399e+002°)
1.62181009735892e+001	(2.85248014422312e+001dB,1.65115326219511e+002°)
1.65958690743755e+001	(2.85113174658227e+001dB,1.64784518938615e+002°)
1.69824365246173e+001	(2.84972427370958e+001dB,1.64447078403211e+002°)
1.73780082874936e+001	(2.84825534129809e+001dB,1.64102919364019e+002°)
1.77827941003891e+001	(2.84672248690928e+001dB,1.63751958715667e+002°)
1.81970085860997e+001	(2.84512316901842e+001dB,1.63394115754580e+002°)
1.86208713666286e+001	(2.84345476620509e+001dB,1.63029312449109e+002°)
1.90546071796323e+001	(2.84171457650525e+001dB,1.62657473721862e+002°)
1.94984459975803e+001	(2.83989981694212e+001dB,1.62278527744154e+002°)
1.99526231496887e+001	(2.83800762325394e+001dB,1.61892406242376e+002°)
2.04173794466952e+001	(2.83603504983720e+001dB,1.61499044816030e+002°)
2.08929613085403e+001	(2.83397906992474e+001dB,1.61098383267033e+002°)
2.13796208950222e+001	(2.83183657601845e+001dB,1.60690365939839e+002°)
2.18776162394954e+001	(2.82960438059685e+001dB,1.60274942071756e+002°)
2.23872113856832e+001	(2.82727921711806e+001dB,1.59852066152757e+002°)
2.29086765276776e+001	(2.82485774133886e+001dB,1.59421698293921e+002°)
2.34422881531991e+001	(2.82233653297041e+001dB,1.58983804603517e+002°)
2.39883291901947e+001	(2.81971209769127e+001dB,1.58538357569578e+002°)
2.45470891568501e+001	(2.81698086953759e+001dB,1.58085336447680e+002°)
2.51188643150956e+001	(2.81413921369003e+001dB,1.57624727652459e+002°)
2.57039578276885e+001	(2.81118342967589e+001dB,1.57156525151257e+002°)
2.63026799189536e+001	(2.80810975500391e+001dB,1.56680730858093e+002°)
2.69153480392690e+001	(2.80491436924765e+001dB,1.56197355026019e+002°)
2.75422870333815e+001	(2.80159339859177e+001dB,1.55706416635728e+002°)
2.81838293126443e+001	(2.79814292085329e+001dB,1.55207943778131e+002°)
2.88403150312659e+001	(2.79455897098764e+001dB,1.54701974028449e+002°)
2.95120922666636e+001	(2.79083754708660e+001dB,1.54188554809237e+002°)
3.01995172040199e+001	(2.78697461687208e+001dB,1.53667743739583e+002°)
3.09029543251357e+001	(2.78296612468629e+001dB,1.53139608967634e+002°)
3.16227766016836e+001	(2.77880799897514e+001dB,1.52604229483462e+002°)
3.23593656929626e+001	(2.77449616025769e+001dB,1.52061695409215e+002°)
3.31131121482589e+001	(2.77002652956983e+001dB,1.51512108263428e+002°)
3.38844156139200e+001	(2.76539503736625e+001dB,1.50955581196311e+002°)
3.46736850452529e+001	(2.76059763285925e+001dB,1.50392239192854e+002°)
3.54813389233573e+001	(2.75563029376836e+001dB,1.49822219240595e+002°)
3.63078054770099e+001	(2.75048903644940e+001dB,1.49245670458953e+002°)
3.71535229097170e+001	(2.74516992636606e+001dB,1.48662754187150e+002°)
3.80189396320558e+001	(2.73966908886226e+001dB,1.48073644027853e+002°)
3.89045144994278e+001	(2.73398272018785e+001dB,1.47478525843892e+002°)
3.98107170553494e+001	(2.72810709872536e+001dB,1.46877597705591e+002°)
4.07380277804110e+001	(2.72203859636063e+001dB,1.46271069786550e+002°)
4.16869383470332e+001	(2.71577368993541e+001dB,1.45659164206016e+002°)
4.26579518801589e+001	(2.70930897271619e+001dB,1.45042114816332e+002°)
4.36515832240163e+001	(2.70264116580949e+001dB,1.44420166934356e+002°)
4.46683592150960e+001	(2.69576712945107e+001dB,1.43793577016151e+002°)
4.57088189614871e+001	(2.68868387409396e+001dB,1.43162612274739e+002°)
4.67735141287194e+001	(2.68138857121866e+001dB,1.42527550241169e+002°)
4.78630092322634e+001	(2.67387856378791e+001dB,1.41888678269684e+002°)
4.89778819368442e+001	(2.66615137626854e+001dB,1.41246292988267e+002°)
5.01187233627268e+001	(2.65820472414393e+001dB,1.40600699696428e+002°)
5.12861383991361e+001	(2.65003652284227e+001dB,1.39952211712565e+002°)
5.24807460249768e+001	(2.64164489600906e+001dB,1.39301149673811e+002°)
5.37031796370248e+001	(2.63302818305563e+001dB,1.38647840791744e+002°)
5.49540873857620e+001	(2.62418494592069e+001dB,1.37992618067861e+002°)
5.62341325190344e+001	(2.61511397498718e+001dB,1.37335819473127e+002°)
5.75439937337152e+001	(2.60581429410331e+001dB,1.36677787096350e+002°)
5.88843655355584e+001	(2.59628516466393e+001dB,1.36018866266472e+002°)
6.02559586074353e+001	(2.58652608871617e+001dB,1.35359404654179e+002°)
6.16595001861477e+001	(2.57653681106164e+001dB,1.34699751358496e+002°)
6.30957344480188e+001	(2.56631732033652e+001dB,1.34040255984157e+002°)
