Freq.	V(vout)/V(vin)
1.00000000000000e+000	(1.88881992247343e+001dB,-6.33127992572367e-004°)
1.02329299228075e+000	(1.88881992247119e+001dB,-6.47875438015029e-004°)
1.04712854805090e+000	(1.88881992246883e+001dB,-6.62966395590472e-004°)
1.07151930523761e+000	(1.88881992246637e+001dB,-6.78408866724148e-004°)
1.09647819614318e+000	(1.88881992246378e+001dB,-6.94211039218650e-004°)
1.12201845430196e+000	(1.88881992246108e+001dB,-7.10381291594992e-004°)
1.14815362149688e+000	(1.88881992245825e+001dB,-7.26928197535016e-004°)
1.17489755493953e+000	(1.88881992245529e+001dB,-7.43860530427264e-004°)
1.20226443461741e+000	(1.88881992245218e+001dB,-7.61187268018752e-004°)
1.23026877081238e+000	(1.88881992244893e+001dB,-7.78917597175086e-004°)
1.25892541179417e+000	(1.88881992244553e+001dB,-7.97060918751463e-004°)
1.28824955169313e+000	(1.88881992244197e+001dB,-8.15626852577125e-004°)
1.31825673855641e+000	(1.88881992243823e+001dB,-8.34625242555922e-004°)
1.34896288259165e+000	(1.88881992243433e+001dB,-8.54066161885681e-004°)
1.38038426460288e+000	(1.88881992243023e+001dB,-8.73959918399148e-004°)
1.41253754462275e+000	(1.88881992242595e+001dB,-8.94317060029330e-004°)
1.44543977074593e+000	(1.88881992242146e+001dB,-9.15148380402164e-004°)
1.47910838816821e+000	(1.88881992241677e+001dB,-9.36464924559427e-004°)
1.51356124843621e+000	(1.88881992241185e+001dB,-9.58277994814971e-004°)
1.54881661891248e+000	(1.88881992240670e+001dB,-9.80599156747353e-004°)
1.58489319246111e+000	(1.88881992240130e+001dB,-1.00344024533206e-003°)
1.62181009735893e+000	(1.88881992239566e+001dB,-1.02681337121657e-003°)
1.65958690743756e+000	(1.88881992238974e+001dB,-1.05073092714159e-003°)
1.69824365246174e+000	(1.88881992238355e+001dB,-1.07520559451183e-003°)
1.73780082874937e+000	(1.88881992237706e+001dB,-1.10025035011984e-003°)
1.77827941003892e+000	(1.88881992237027e+001dB,-1.12587847302654e-003°)
1.81970085860998e+000	(1.88881992236316e+001dB,-1.15210355160188e-003°)
1.86208713666287e+000	(1.88881992235572e+001dB,-1.17893949072961e-003°)
1.90546071796325e+000	(1.88881992234792e+001dB,-1.20640051917983e-003°)
1.94984459975804e+000	(1.88881992233976e+001dB,-1.23450119715328e-003°)
1.99526231496888e+000	(1.88881992233121e+001dB,-1.26325642400133e-003°)
2.04173794466953e+000	(1.88881992232226e+001dB,-1.29268144612582e-003°)
2.08929613085404e+000	(1.88881992231289e+001dB,-1.32279186506292e-003°)
2.13796208950223e+000	(1.88881992230307e+001dB,-1.35360364575524e-003°)
2.18776162394955e+000	(1.88881992229279e+001dB,-1.38513312501671e-003°)
2.23872113856834e+000	(1.88881992228203e+001dB,-1.41739702019448e-003°)
2.29086765276777e+000	(1.88881992227076e+001dB,-1.45041243803279e-003°)
2.34422881531992e+000	(1.88881992225896e+001dB,-1.48419688374310e-003°)
2.39883291901949e+000	(1.88881992224660e+001dB,-1.51876827028565e-003°)
2.45470891568503e+000	(1.88881992223367e+001dB,-1.55414492786710e-003°)
2.51188643150958e+000	(1.88881992222012e+001dB,-1.59034561365946e-003°)
2.57039578276886e+000	(1.88881992220593e+001dB,-1.62738952174543e-003°)
2.63026799189538e+000	(1.88881992219108e+001dB,-1.66529629329530e-003°)
2.69153480392691e+000	(1.88881992217552e+001dB,-1.70408602698098e-003°)
2.75422870333816e+000	(1.88881992215923e+001dB,-1.74377928963261e-003°)
2.81838293126445e+000	(1.88881992214218e+001dB,-1.78439712714330e-003°)
2.88403150312660e+000	(1.88881992212432e+001dB,-1.82596107562801e-003°)
2.95120922666638e+000	(1.88881992210561e+001dB,-1.86849317284225e-003°)
3.01995172040201e+000	(1.88881992208603e+001dB,-1.91201596986677e-003°)
3.09029543251359e+000	(1.88881992206552e+001dB,-1.95655254306448e-003°)
3.16227766016837e+000	(1.88881992204405e+001dB,-2.00212650631581e-003°)
3.23593656929628e+000	(1.88881992202157e+001dB,-2.04876202353913e-003°)
3.31131121482591e+000	(1.88881992199802e+001dB,-2.09648382150276e-003°)
3.38844156139202e+000	(1.88881992197337e+001dB,-2.14531720293542e-003°)
3.46736850452531e+000	(1.88881992194755e+001dB,-2.19528805994209e-003°)
3.54813389233575e+000	(1.88881992192052e+001dB,-2.24642288773234e-003°)
3.63078054770101e+000	(1.88881992189221e+001dB,-2.29874879866844e-003°)
3.71535229097172e+000	(1.88881992186257e+001dB,-2.35229353664069e-003°)
3.80189396320560e+000	(1.88881992183153e+001dB,-2.40708549177758e-003°)
3.89045144994280e+000	(1.88881992179903e+001dB,-2.46315371549866e-003°)
3.98107170553496e+000	(1.88881992176500e+001dB,-2.52052793591791e-003°)
4.07380277804112e+000	(1.88881992172937e+001dB,-2.57923857360606e-003°)
4.16869383470335e+000	(1.88881992169205e+001dB,-2.63931675771991e-003°)
4.26579518801592e+000	(1.88881992165298e+001dB,-2.70079434250747e-003°)
4.36515832240165e+000	(1.88881992161206e+001dB,-2.76370392419745e-003°)
4.46683592150962e+000	(1.88881992156922e+001dB,-2.82807885828225e-003°)
4.57088189614874e+000	(1.88881992152436e+001dB,-2.89395327720349e-003°)
4.67735141287197e+000	(1.88881992147738e+001dB,-2.96136210844944e-003°)
4.78630092322637e+000	(1.88881992142819e+001dB,-3.03034109307404e-003°)
4.89778819368445e+000	(1.88881992137668e+001dB,-3.10092680464730e-003°)
5.01187233627271e+000	(1.88881992132274e+001dB,-3.17315666864710e-003°)
5.12861383991364e+000	(1.88881992126626e+001dB,-3.24706898230261e-003°)
5.24807460249771e+000	(1.88881992120712e+001dB,-3.32270293490004e-003°)
5.37031796370252e+000	(1.88881992114519e+001dB,-3.40009862856131e-003°)
5.49540873857623e+000	(1.88881992108035e+001dB,-3.47929709950668e-003°)
5.62341325190348e+000	(1.88881992101244e+001dB,-3.56034033981273e-003°)
5.75439937337156e+000	(1.88881992094134e+001dB,-3.64327131967711e-003°)
5.88843655355588e+000	(1.88881992086689e+001dB,-3.72813401020187e-003°)
6.02559586074356e+000	(1.88881992078892e+001dB,-3.81497340670756e-003°)
6.16595001861481e+000	(1.88881992070729e+001dB,-3.90383555259032e-003°)
6.30957344480192e+000	(1.88881992062180e+001dB,-3.99476756373465e-003°)
6.45654229034654e+000	(1.88881992053229e+001dB,-4.08781765349494e-003°)
6.60693448007594e+000	(1.88881992043856e+001dB,-4.18303515825877e-003°)
6.76082975391980e+000	(1.88881992034041e+001dB,-4.28047056360574e-003°)
6.91830970918935e+000	(1.88881992023763e+001dB,-4.38017553107555e-003°)
7.07945784384136e+000	(1.88881992013001e+001dB,-4.48220292555966e-003°)
7.24435960074988e+000	(1.88881992001732e+001dB,-4.58660684333090e-003°)
7.41310241300916e+000	(1.88881991989932e+001dB,-4.69344264072608e-003°)
7.58577575029182e+000	(1.88881991977576e+001dB,-4.80276696349659e-003°)
7.76247116628690e+000	(1.88881991964637e+001dB,-4.91463777684273e-003°)
7.94328234724279e+000	(1.88881991951089e+001dB,-5.02911439614763e-003°)
8.12830516164097e+000	(1.88881991936902e+001dB,-5.14625751842701e-003°)
8.31763771102669e+000	(1.88881991922047e+001dB,-5.26612925451154e-003°)
8.51138038202374e+000	(1.88881991906491e+001dB,-5.38879316197882e-003°)
8.70963589956078e+000	(1.88881991890202e+001dB,-5.51431427885241e-003°)
8.91250938133743e+000	(1.88881991873146e+001dB,-5.64275915808586e-003°)
9.12010839355907e+000	(1.88881991855286e+001dB,-5.77419590284990e-003°)
9.33254300796988e+000	(1.88881991836584e+001dB,-5.90869420264169e-003°)
9.54992586021433e+000	(1.88881991817000e+001dB,-6.04632537023503e-003°)
9.77237220955808e+000	(1.88881991796494e+001dB,-6.18716237949133e-003°)
9.99999999999997e+000	(1.88881991775021e+001dB,-6.33127990405133e-003°)
1.02329299228075e+001	(1.88881991752537e+001dB,-6.47875435692796e-003°)
1.04712854805090e+001	(1.88881991728992e+001dB,-6.62966393102155e-003°)
1.07151930523760e+001	(1.88881991704338e+001dB,-6.78408864057868e-003°)
1.09647819614318e+001	(1.88881991678522e+001dB,-6.94211036361680e-003°)
1.12201845430196e+001	(1.88881991651490e+001dB,-7.10381288533694e-003°)
1.14815362149688e+001	(1.88881991623183e+001dB,-7.26928194254775e-003°)
1.17489755493953e+001	(1.88881991593543e+001dB,-7.43860526912422e-003°)
1.20226443461741e+001	(1.88881991562505e+001dB,-7.61187264252531e-003°)
1.23026877081238e+001	(1.88881991530005e+001dB,-7.78917593139508e-003°)
1.25892541179416e+001	(1.88881991495973e+001dB,-7.97060914427263e-003°)
1.28824955169313e+001	(1.88881991460337e+001dB,-8.15626847943661e-003°)
1.31825673855640e+001	(1.88881991423022e+001dB,-8.34625237591076e-003°)
1.34896288259165e+001	(1.88881991383948e+001dB,-8.54066156565753e-003°)
1.38038426460288e+001	(1.88881991343033e+001dB,-8.73959912698741e-003°)
1.41253754462275e+001	(1.88881991300189e+001dB,-8.94317053921235e-003°)
1.44543977074592e+001	(1.88881991255326e+001dB,-9.15148373857224e-003°)
1.47910838816820e+001	(1.88881991208349e+001dB,-9.36464917546398e-003°)
1.51356124843620e+001	(1.88881991159158e+001dB,-9.58277987300375e-003°)
1.54881661891248e+001	(1.88881991107648e+001dB,-9.80599148695317e-003°)
1.58489319246111e+001	(1.88881991053711e+001dB,-1.00344023670415e-002°)
1.62181009735892e+001	(1.88881990997232e+001dB,-1.02681336197160e-002°)
1.65958690743755e+001	(1.88881990938091e+001dB,-1.05073091723543e-002°)
1.69824365246174e+001	(1.88881990876163e+001dB,-1.07520558389718e-002°)
1.73780082874937e+001	(1.88881990811317e+001dB,-1.10025033874604e-002°)
1.77827941003892e+001	(1.88881990743414e+001dB,-1.12587846083929e-002°)
1.81970085860998e+001	(1.88881990672311e+001dB,-1.15210353854301e-002°)
1.86208713666286e+001	(1.88881990597857e+001dB,-1.17893947673678e-002°)
1.90546071796324e+001	(1.88881990519895e+001dB,-1.20640050418625e-002°)
1.94984459975804e+001	(1.88881990438258e+001dB,-1.23450118108736e-002°)
1.99526231496887e+001	(1.88881990352773e+001dB,-1.26325640678639e-002°)
2.04173794466952e+001	(1.88881990263260e+001dB,-1.29268142767968e-002°)
2.08929613085403e+001	(1.88881990169528e+001dB,-1.32279184529752e-002°)
2.13796208950222e+001	(1.88881990071379e+001dB,-1.35360362457624e-002°)
2.18776162394954e+001	(1.88881989968604e+001dB,-1.38513310232299e-002°)
2.23872113856833e+001	(1.88881989860986e+001dB,-1.41739699587773e-002°)
2.29086765276776e+001	(1.88881989748295e+001dB,-1.45041241197692e-002°)
2.34422881531991e+001	(1.88881989630294e+001dB,-1.48419685582374e-002°)
2.39883291901948e+001	(1.88881989506731e+001dB,-1.51876824036951e-002°)
2.45470891568502e+001	(1.88881989377345e+001dB,-1.55414489581137e-002°)
2.51188643150957e+001	(1.88881989241862e+001dB,-1.59034557931114e-002°)
2.57039578276885e+001	(1.88881989099993e+001dB,-1.62738948494054e-002°)
2.63026799189537e+001	(1.88881988951438e+001dB,-1.66529625385815e-002°)
2.69153480392690e+001	(1.88881988795882e+001dB,-1.70408598472331e-002°)
2.75422870333815e+001	(1.88881988632995e+001dB,-1.74377924435270e-002°)
2.81838293126444e+001	(1.88881988462431e+001dB,-1.78439707862500e-002°)
2.88403150312659e+001	(1.88881988283829e+001dB,-1.82596102363972e-002°)
2.95120922666637e+001	(1.88881988096809e+001dB,-1.86849311713579e-002°)
3.01995172040200e+001	(1.88881987900975e+001dB,-1.91201591017623e-002°)
3.09029543251358e+001	(1.88881987695913e+001dB,-1.95655247910491e-002°)
3.16227766016837e+001	(1.88881987481185e+001dB,-2.00212643778190e-002°)
3.23593656929627e+001	(1.88881987256338e+001dB,-2.04876195010372e-002°)
3.31131121482590e+001	(1.88881987020895e+001dB,-2.09648374281530e-002°)
3.38844156139201e+001	(1.88881986774355e+001dB,-2.14531711862028e-002°)
3.46736850452530e+001	(1.88881986516196e+001dB,-2.19528796959680e-002°)
3.54813389233574e+001	(1.88881986245871e+001dB,-2.24642279092562e-002°)
3.63078054770100e+001	(1.88881985962805e+001dB,-2.29874869493817e-002°)
3.71535229097171e+001	(1.88881985666399e+001dB,-2.35229342549170e-002°)
3.80189396320559e+001	(1.88881985356024e+001dB,-2.40708537267930e-002°)
3.89045144994279e+001	(1.88881985031021e+001dB,-2.46315358788255e-002°)
3.98107170553495e+001	(1.88881984690702e+001dB,-2.52052779917479e-002°)
4.07380277804111e+001	(1.88881984334344e+001dB,-2.57923842708316e-002°)
4.16869383470333e+001	(1.88881983961191e+001dB,-2.63931660071780e-002°)
4.26579518801591e+001	(1.88881983570451e+001dB,-2.70079417427667e-002°)
4.36515832240164e+001	(1.88881983161297e+001dB,-2.76370374393490e-002°)
4.46683592150961e+001	(1.88881982732860e+001dB,-2.82807866512746e-002°)
4.57088189614873e+001	(1.88881982284232e+001dB,-2.89395307023440e-002°)
4.67735141287196e+001	(1.88881981814460e+001dB,-2.96136188667807e-002°)
4.78630092322636e+001	(1.88881981322548e+001dB,-3.03034085544173e-002°)
4.89778819368444e+001	(1.88881980807454e+001dB,-3.10092655001970e-002°)
5.01187233627270e+001	(1.88881980268084e+001dB,-3.17315639580871e-002°)
5.12861383991362e+001	(1.88881979703294e+001dB,-3.24706868995101e-002°)
5.24807460249770e+001	(1.88881979111886e+001dB,-3.32270262163967e-002°)
5.37031796370250e+001	(1.88881978492607e+001dB,-3.40009829289678e-002°)
5.49540873857622e+001	(1.88881977844141e+001dB,-3.47929673983565e-002°)
5.62341325190346e+001	(1.88881977165114e+001dB,-3.56033995441829e-002°)
5.75439937337154e+001	(1.88881976454086e+001dB,-3.64327090671952e-002°)
5.88843655355586e+001	(1.88881975709548e+001dB,-3.72813356770986e-002°)
6.02559586074355e+001	(1.88881974929921e+001dB,-3.81497293256884e-002°)
6.16595001861479e+001	(1.88881974113551e+001dB,-3.90383504454152e-002°)
6.30957344480190e+001	(1.88881973258707e+001dB,-3.99476701935056e-002°)
6.45654229034652e+001	(1.88881972363576e+001dB,-4.08781707017689e-002°)
6.60693448007593e+001	(1.88881971426258e+001dB,-4.18303453322223e-002°)
6.76082975391978e+001	(1.88881970444766e+001dB,-4.28046989386703e-002°)
6.91830970918933e+001	(1.88881969417018e+001dB,-4.38017481343760e-002°)
7.07945784384134e+001	(1.88881968340833e+001dB,-4.48220215659675e-002°)
7.24435960074986e+001	(1.88881967213929e+001dB,-4.58660601937232e-002°)
7.41310241300914e+001	(1.88881966033916e+001dB,-4.69344175783857e-002°)
7.58577575029180e+001	(1.88881964798291e+001dB,-4.80276601746559e-002°)
7.76247116628688e+001	(1.88881963504433e+001dB,-4.91463676315227e-002°)
7.94328234724277e+001	(1.88881962149597e+001dB,-5.02911330995875e-002°)
8.12830516164095e+001	(1.88881960730909e+001dB,-5.14625635455467e-002°)
8.31763771102667e+001	(1.88881959245361e+001dB,-5.26612800739990e-002°)
8.51138038202372e+001	(1.88881957689802e+001dB,-5.38879182567465e-002°)
8.70963589956076e+001	(1.88881956060931e+001dB,-5.51431284697673e-002°)
8.91250938133741e+001	(1.88881954355293e+001dB,-5.64275762380345e-002°)
9.12010839355905e+001	(1.88881952569272e+001dB,-5.77419425883673e-002°)
9.33254300796986e+001	(1.88881950699078e+001dB,-5.90869244104988e-002°)
9.54992586021431e+001	(1.88881948740745e+001dB,-6.04632348265545e-002°)
9.77237220955805e+001	(1.88881946690118e+001dB,-6.18716035691344e-002°)
9.99999999999995e+001	(1.88881944542849e+001dB,-6.33127773682014e-002°)
1.02329299228075e+002	(1.88881942294382e+001dB,-6.47875203469796e-002°)
1.04712854805089e+002	(1.88881939939948e+001dB,-6.62966144270736e-002°)
1.07151930523760e+002	(1.88881937474553e+001dB,-6.78408597430208e-002°)
1.09647819614318e+002	(1.88881934892968e+001dB,-6.94210750665005e-002°)
1.12201845430196e+002	(1.88881932189716e+001dB,-7.10380982404203e-002°)
1.14815362149688e+002	(1.88881929359064e+001dB,-7.26927866231129e-002°)
1.17489755493952e+002	(1.88881926395009e+001dB,-7.43860175428767e-002°)
1.20226443461741e+002	(1.88881923291261e+001dB,-7.61186887631025e-002°)
1.23026877081237e+002	(1.88881920041239e+001dB,-7.78917189582313e-002°)
1.25892541179416e+002	(1.88881916638048e+001dB,-7.97060482007958e-002°)
1.28824955169313e+002	(1.88881913074470e+001dB,-8.15626384598052e-002°)
1.31825673855640e+002	(1.88881909342947e+001dB,-8.34624741107336e-002°)
1.34896288259165e+002	(1.88881905435562e+001dB,-8.54065624573871e-002°)
1.38038426460288e+002	(1.88881901344028e+001dB,-8.73959342659200e-002°)
1.41253754462275e+002	(1.88881897059666e+001dB,-8.94316443112901e-002°)
1.44543977074592e+002	(1.88881892573390e+001dB,-9.15147719364341e-002°)
1.47910838816820e+002	(1.88881887875682e+001dB,-9.36464216244685e-002°)
1.51356124843620e+002	(1.88881882956578e+001dB,-9.58277235842102e-002°)
1.54881661891247e+002	(1.88881877805645e+001dB,-9.80598343493329e-002°)
1.58489319246110e+002	(1.88881872411957e+001dB,-1.00343937391474e-001°)
1.62181009735892e+002	(1.88881866764072e+001dB,-1.02681243747616e-001°)
1.65958690743755e+002	(1.88881860850012e+001dB,-1.05072992662080e-001°)
1.69824365246173e+002	(1.88881854657231e+001dB,-1.07520452243457e-001°)
1.73780082874936e+002	(1.88881848172595e+001dB,-1.10024920136847e-001°)
1.77827941003891e+002	(1.88881841382348e+001dB,-1.12587724211739e-001°)
1.81970085860997e+002	(1.88881834272088e+001dB,-1.15210223265908e-001°)
1.86208713666286e+002	(1.88881826826732e+001dB,-1.17893807745709e-001°)
1.90546071796323e+002	(1.88881819030490e+001dB,-1.20639900483121e-001°)
1.94984459975803e+002	(1.88881810866823e+001dB,-1.23449957449968e-001°)
1.99526231496887e+002	(1.88881802318416e+001dB,-1.26325468529687e-001°)
2.04173794466952e+002	(1.88881793367137e+001dB,-1.29267958307066e-001°)
2.08929613085403e+002	(1.88881783993999e+001dB,-1.32278986876360e-001°)
2.13796208950222e+002	(1.88881774179121e+001dB,-1.35360150668228e-001°)
2.18776162394954e+002	(1.88881763901685e+001dB,-1.38513083295905e-001°)
2.23872113856832e+002	(1.88881753139890e+001dB,-1.41739456421082e-001°)
2.29086765276776e+002	(1.88881741870910e+001dB,-1.45040980639929e-001°)
2.34422881531991e+002	(1.88881730070843e+001dB,-1.48419406389746e-001°)
2.39883291901947e+002	(1.88881717714659e+001dB,-1.51876524876712e-001°)
2.45470891568501e+002	(1.88881704776150e+001dB,-1.55414169025224e-001°)
2.51188643150956e+002	(1.88881691227872e+001dB,-1.59034214449329e-001°)
2.57039578276885e+002	(1.88881677041088e+001dB,-1.62738580446763e-001°)
2.63026799189536e+002	(1.88881662185706e+001dB,-1.66529231016119e-001°)
2.69153480392690e+002	(1.88881646630217e+001dB,-1.70408175897680e-001°)
2.75422870333815e+002	(1.88881630341626e+001dB,-1.74377471638476e-001°)
2.81838293126443e+002	(1.88881613285384e+001dB,-1.78439222682110e-001°)
2.88403150312659e+002	(1.88881595425313e+001dB,-1.82595582483946e-001°)
2.95120922666637e+002	(1.88881576723531e+001dB,-1.86848754652240e-001°)
3.01995172040200e+002	(1.88881557140370e+001dB,-1.91200994115806e-001°)
3.09029543251357e+002	(1.88881536634292e+001dB,-1.95654608318853e-001°)
3.16227766016836e+002	(1.88881515161803e+001dB,-2.00211958443607e-001°)
3.23593656929626e+002	(1.88881492677358e+001dB,-2.04875460661366e-001°)
3.31131121482589e+002	(1.88881469133266e+001dB,-2.09647587412651e-001°)
3.38844156139200e+002	(1.88881444479588e+001dB,-2.14530868717123e-001°)
3.46736850452529e+002	(1.88881418664034e+001dB,-2.19527893513961e-001°)
3.54813389233573e+002	(1.88881391631846e+001dB,-2.24641311033397e-001°)
3.63078054770099e+002	(1.88881363325689e+001dB,-2.29873832200141e-001°)
3.71535229097170e+002	(1.88881333685523e+001dB,-2.35228231069430e-001°)
3.80189396320558e+002	(1.88881302648481e+001dB,-2.40707346296444e-001°)
3.89045144994278e+002	(1.88881270148731e+001dB,-2.46314082639893e-001°)
3.98107170553494e+002	(1.88881236117341e+001dB,-2.52051412500520e-001°)
4.07380277804110e+002	(1.88881200482130e+001dB,-2.57922377495373e-001°)
4.16869383470332e+002	(1.88881163167515e+001dB,-2.63930090068640e-001°)
4.26579518801589e+002	(1.88881124094349e+001dB,-2.70077735139908e-001°)
4.36515832240163e+002	(1.88881083179760e+001dB,-2.76368571790705e-001°)
4.46683592150960e+002	(1.88881040336966e+001dB,-2.82805934990213e-001°)
4.57088189614872e+002	(1.88880995475099e+001dB,-2.89393237361049e-001°)
4.67735141287195e+002	(1.88880948499007e+001dB,-2.96133970986048e-001°)
4.78630092322635e+002	(1.88880899309053e+001dB,-3.03031709256981e-001°)
4.89778819368443e+002	(1.88880847800908e+001dB,-3.10090108766193e-001°)
5.01187233627268e+002	(1.88880793865324e+001dB,-3.17312911242127e-001°)
5.12861383991361e+002	(1.88880737387905e+001dB,-3.24703945529762e-001°)
5.24807460249769e+002	(1.88880678248866e+001dB,-3.32267129616994e-001°)
5.37031796370249e+002	(1.88880616322776e+001dB,-3.40006472708012e-001°)
5.49540873857620e+002	(1.88880551478293e+001dB,-3.47926077344755e-001°)
5.62341325190345e+002	(1.88880483577887e+001dB,-3.56030141577549e-001°)
5.75439937337152e+002	(1.88880412477546e+001dB,-3.64322961186061e-001°)
