v3	V(vin)	V(vout)
-1.500000000000000e+001	-1.500000e+001	1.506184e+000
-1.490000000000000e+001	-1.490000e+001	1.496184e+000
-1.480000000000000e+001	-1.480000e+001	1.486185e+000
-1.470000000000000e+001	-1.470000e+001	1.476185e+000
-1.460000000000000e+001	-1.460000e+001	1.466186e+000
-1.450000000000000e+001	-1.450000e+001	1.456186e+000
-1.440000000000000e+001	-1.440000e+001	1.446187e+000
-1.430000000000000e+001	-1.430000e+001	1.436188e+000
-1.420000000000000e+001	-1.420000e+001	1.426188e+000
-1.410000000000000e+001	-1.410000e+001	1.416189e+000
-1.400000000000000e+001	-1.400000e+001	1.406189e+000
-1.390000000000000e+001	-1.390000e+001	1.396190e+000
-1.380000000000000e+001	-1.380000e+001	1.386190e+000
-1.370000000000001e+001	-1.370000e+001	1.376191e+000
-1.360000000000001e+001	-1.360000e+001	1.366192e+000
-1.350000000000001e+001	-1.350000e+001	1.356192e+000
-1.340000000000001e+001	-1.340000e+001	1.346193e+000
-1.330000000000001e+001	-1.330000e+001	1.336193e+000
-1.320000000000001e+001	-1.320000e+001	1.326194e+000
-1.310000000000001e+001	-1.310000e+001	1.316194e+000
-1.300000000000001e+001	-1.300000e+001	1.306195e+000
-1.290000000000001e+001	-1.290000e+001	1.296196e+000
-1.280000000000001e+001	-1.280000e+001	1.286196e+000
-1.270000000000001e+001	-1.270000e+001	1.276197e+000
-1.260000000000001e+001	-1.260000e+001	1.266197e+000
-1.250000000000001e+001	-1.250000e+001	1.256198e+000
-1.240000000000001e+001	-1.240000e+001	1.246198e+000
-1.230000000000001e+001	-1.230000e+001	1.236199e+000
-1.220000000000001e+001	-1.220000e+001	1.226200e+000
-1.210000000000001e+001	-1.210000e+001	1.216200e+000
-1.200000000000001e+001	-1.200000e+001	1.206201e+000
-1.190000000000001e+001	-1.190000e+001	1.196201e+000
-1.180000000000001e+001	-1.180000e+001	1.186202e+000
-1.170000000000001e+001	-1.170000e+001	1.176202e+000
-1.160000000000001e+001	-1.160000e+001	1.166203e+000
-1.150000000000001e+001	-1.150000e+001	1.156203e+000
-1.140000000000001e+001	-1.140000e+001	1.146204e+000
-1.130000000000001e+001	-1.130000e+001	1.136205e+000
-1.120000000000001e+001	-1.120000e+001	1.126205e+000
-1.110000000000001e+001	-1.110000e+001	1.116206e+000
-1.100000000000001e+001	-1.100000e+001	1.106206e+000
-1.090000000000002e+001	-1.090000e+001	1.096207e+000
-1.080000000000002e+001	-1.080000e+001	1.086207e+000
-1.070000000000002e+001	-1.070000e+001	1.076208e+000
-1.060000000000002e+001	-1.060000e+001	1.066208e+000
-1.050000000000002e+001	-1.050000e+001	1.056209e+000
-1.040000000000002e+001	-1.040000e+001	1.046210e+000
-1.030000000000002e+001	-1.030000e+001	1.036210e+000
-1.020000000000002e+001	-1.020000e+001	1.026211e+000
-1.010000000000002e+001	-1.010000e+001	1.016211e+000
-1.000000000000002e+001	-1.000000e+001	1.006212e+000
-9.900000000000018e+000	-9.900000e+000	9.962125e-001
-9.800000000000019e+000	-9.800000e+000	9.862130e-001
-9.700000000000019e+000	-9.700000e+000	9.762136e-001
-9.600000000000019e+000	-9.600000e+000	9.662142e-001
-9.500000000000020e+000	-9.500000e+000	9.562147e-001
-9.400000000000020e+000	-9.400000e+000	9.462153e-001
-9.300000000000020e+000	-9.300000e+000	9.362159e-001
-9.200000000000021e+000	-9.200000e+000	9.262164e-001
-9.100000000000021e+000	-9.100000e+000	9.162170e-001
-9.000000000000021e+000	-9.000000e+000	9.062176e-001
-8.900000000000022e+000	-8.900000e+000	8.962181e-001
-8.800000000000022e+000	-8.800000e+000	8.862187e-001
-8.700000000000022e+000	-8.700000e+000	8.762193e-001
-8.600000000000023e+000	-8.600000e+000	8.662198e-001
-8.500000000000023e+000	-8.500000e+000	8.562204e-001
-8.400000000000023e+000	-8.400000e+000	8.462210e-001
-8.300000000000024e+000	-8.300000e+000	8.362215e-001
-8.200000000000024e+000	-8.200000e+000	8.262221e-001
-8.100000000000025e+000	-8.100000e+000	8.162227e-001
-8.000000000000025e+000	-8.000000e+000	8.062232e-001
-7.900000000000025e+000	-7.900000e+000	7.962238e-001
-7.800000000000026e+000	-7.800000e+000	7.862244e-001
-7.700000000000026e+000	-7.700000e+000	7.762249e-001
-7.600000000000026e+000	-7.600000e+000	7.662255e-001
-7.500000000000027e+000	-7.500000e+000	7.562261e-001
-7.400000000000027e+000	-7.400000e+000	7.462266e-001
-7.300000000000027e+000	-7.300000e+000	7.362272e-001
-7.200000000000028e+000	-7.200000e+000	7.262278e-001
-7.100000000000028e+000	-7.100000e+000	7.162283e-001
-7.000000000000028e+000	-7.000000e+000	7.062289e-001
-6.900000000000029e+000	-6.900000e+000	6.962295e-001
-6.800000000000029e+000	-6.800000e+000	6.862300e-001
-6.700000000000030e+000	-6.700000e+000	6.762305e-001
-6.600000000000030e+000	-6.600000e+000	6.662312e-001
-6.500000000000030e+000	-6.500000e+000	6.562317e-001
-6.400000000000031e+000	-6.400000e+000	6.462322e-001
-6.300000000000031e+000	-6.300000e+000	6.362329e-001
-6.200000000000031e+000	-6.200000e+000	6.262334e-001
-6.100000000000032e+000	-6.100000e+000	6.162339e-001
-6.000000000000032e+000	-6.000000e+000	6.062346e-001
-5.900000000000032e+000	-5.900000e+000	5.962351e-001
-5.800000000000033e+000	-5.800000e+000	5.862356e-001
-5.700000000000033e+000	-5.700000e+000	5.762362e-001
-5.600000000000033e+000	-5.600000e+000	5.662368e-001
-5.500000000000034e+000	-5.500000e+000	5.562373e-001
-5.400000000000034e+000	-5.400000e+000	5.462379e-001
-5.300000000000035e+000	-5.300000e+000	5.362385e-001
-5.200000000000035e+000	-5.200000e+000	5.262390e-001
-5.100000000000035e+000	-5.100000e+000	5.162396e-001
-5.000000000000036e+000	-5.000000e+000	5.062402e-001
-4.900000000000036e+000	-4.900000e+000	4.962407e-001
-4.800000000000036e+000	-4.800000e+000	4.862413e-001
-4.700000000000037e+000	-4.700000e+000	4.762419e-001
-4.600000000000037e+000	-4.600000e+000	4.662424e-001
-4.500000000000037e+000	-4.500000e+000	4.562430e-001
-4.400000000000038e+000	-4.400000e+000	4.462436e-001
-4.300000000000038e+000	-4.300000e+000	4.362441e-001
-4.200000000000038e+000	-4.200000e+000	4.262447e-001
-4.100000000000039e+000	-4.100000e+000	4.162453e-001
-4.000000000000039e+000	-4.000000e+000	4.062458e-001
-3.900000000000039e+000	-3.900000e+000	3.962464e-001
-3.800000000000039e+000	-3.800000e+000	3.862469e-001
-3.700000000000039e+000	-3.700000e+000	3.762475e-001
-3.600000000000039e+000	-3.600000e+000	3.662481e-001
-3.500000000000039e+000	-3.500000e+000	3.562486e-001
-3.400000000000039e+000	-3.400000e+000	3.462492e-001
-3.300000000000039e+000	-3.300000e+000	3.362498e-001
-3.200000000000038e+000	-3.200000e+000	3.262503e-001
-3.100000000000038e+000	-3.100000e+000	3.162509e-001
-3.000000000000038e+000	-3.000000e+000	3.062515e-001
-2.900000000000038e+000	-2.900000e+000	2.962520e-001
-2.800000000000038e+000	-2.800000e+000	2.862526e-001
-2.700000000000038e+000	-2.700000e+000	2.762532e-001
-2.600000000000038e+000	-2.600000e+000	2.662537e-001
-2.500000000000038e+000	-2.500000e+000	2.562543e-001
-2.400000000000038e+000	-2.400000e+000	2.462549e-001
-2.300000000000038e+000	-2.300000e+000	2.362554e-001
-2.200000000000038e+000	-2.200000e+000	2.262560e-001
-2.100000000000037e+000	-2.100000e+000	2.162566e-001
-2.000000000000037e+000	-2.000000e+000	2.062571e-001
-1.900000000000037e+000	-1.900000e+000	1.962577e-001
-1.800000000000037e+000	-1.800000e+000	1.862583e-001
-1.700000000000037e+000	-1.700000e+000	1.762588e-001
-1.600000000000037e+000	-1.600000e+000	1.662594e-001
-1.500000000000037e+000	-1.500000e+000	1.562600e-001
-1.400000000000037e+000	-1.400000e+000	1.462605e-001
-1.300000000000037e+000	-1.300000e+000	1.362611e-001
-1.200000000000037e+000	-1.200000e+000	1.262617e-001
-1.100000000000037e+000	-1.100000e+000	1.162622e-001
-1.000000000000036e+000	-1.000000e+000	1.062628e-001
-9.000000000000364e-001	-9.000000e-001	9.626336e-002
-8.000000000000365e-001	-8.000000e-001	8.626392e-002
-7.000000000000365e-001	-7.000000e-001	7.626449e-002
-6.000000000000365e-001	-6.000000e-001	6.626505e-002
-5.000000000000365e-001	-5.000000e-001	5.626562e-002
-4.000000000000366e-001	-4.000000e-001	4.626619e-002
-3.000000000000366e-001	-3.000000e-001	3.626675e-002
-2.000000000000366e-001	-2.000000e-001	2.626732e-002
-1.000000000000366e-001	-1.000000e-001	1.626788e-002
-3.655409308578328e-014	-3.655409e-014	6.268447e-003
9.999999999996345e-002	1.000000e-001	-3.730988e-003
1.999999999999635e-001	2.000000e-001	-1.373042e-002
2.999999999999635e-001	3.000000e-001	-2.372986e-002
3.999999999999635e-001	4.000000e-001	-3.372929e-002
4.999999999999635e-001	5.000000e-001	-4.372873e-002
5.999999999999635e-001	6.000000e-001	-5.372816e-002
6.999999999999634e-001	7.000000e-001	-6.372759e-002
7.999999999999634e-001	8.000000e-001	-7.372703e-002
8.999999999999634e-001	9.000000e-001	-8.372647e-002
9.999999999999634e-001	1.000000e+000	-9.372590e-002
1.099999999999964e+000	1.100000e+000	-1.037253e-001
1.199999999999964e+000	1.200000e+000	-1.137248e-001
1.299999999999964e+000	1.300000e+000	-1.237242e-001
1.399999999999964e+000	1.400000e+000	-1.337236e-001
1.499999999999964e+000	1.500000e+000	-1.437231e-001
1.599999999999964e+000	1.600000e+000	-1.537225e-001
1.699999999999964e+000	1.700000e+000	-1.637219e-001
1.799999999999964e+000	1.800000e+000	-1.737214e-001
1.899999999999964e+000	1.900000e+000	-1.837208e-001
1.999999999999964e+000	2.000000e+000	-1.937203e-001
2.099999999999964e+000	2.100000e+000	-2.037197e-001
2.199999999999964e+000	2.200000e+000	-2.137191e-001
2.299999999999964e+000	2.300000e+000	-2.237186e-001
2.399999999999964e+000	2.400000e+000	-2.337180e-001
2.499999999999965e+000	2.500000e+000	-2.437174e-001
2.599999999999965e+000	2.600000e+000	-2.537169e-001
2.699999999999965e+000	2.700000e+000	-2.637163e-001
2.799999999999965e+000	2.800000e+000	-2.737157e-001
2.899999999999965e+000	2.900000e+000	-2.837152e-001
2.999999999999965e+000	3.000000e+000	-2.937146e-001
3.099999999999965e+000	3.100000e+000	-3.037140e-001
3.199999999999965e+000	3.200000e+000	-3.137135e-001
3.299999999999965e+000	3.300000e+000	-3.237129e-001
3.399999999999965e+000	3.400000e+000	-3.337123e-001
3.499999999999965e+000	3.500000e+000	-3.437118e-001
3.599999999999965e+000	3.600000e+000	-3.537112e-001
3.699999999999966e+000	3.700000e+000	-3.637106e-001
3.799999999999966e+000	3.800000e+000	-3.737101e-001
3.899999999999966e+000	3.900000e+000	-3.837095e-001
3.999999999999966e+000	4.000000e+000	-3.937089e-001
4.099999999999966e+000	4.100000e+000	-4.037084e-001
4.199999999999966e+000	4.200000e+000	-4.137078e-001
4.299999999999965e+000	4.300000e+000	-4.237072e-001
4.399999999999965e+000	4.400000e+000	-4.337067e-001
4.499999999999965e+000	4.500000e+000	-4.437061e-001
4.599999999999964e+000	4.600000e+000	-4.537055e-001
4.699999999999964e+000	4.700000e+000	-4.637050e-001
4.799999999999963e+000	4.800000e+000	-4.737044e-001
4.899999999999963e+000	4.900000e+000	-4.837039e-001
4.999999999999963e+000	5.000000e+000	-4.937033e-001
5.099999999999962e+000	5.100000e+000	-5.037027e-001
5.199999999999962e+000	5.200000e+000	-5.137022e-001
5.299999999999962e+000	5.300000e+000	-5.237016e-001
5.399999999999961e+000	5.400000e+000	-5.337010e-001
5.499999999999961e+000	5.500000e+000	-5.437005e-001
5.599999999999961e+000	5.600000e+000	-5.536999e-001
5.699999999999960e+000	5.700000e+000	-5.636993e-001
5.799999999999960e+000	5.800000e+000	-5.736988e-001
5.899999999999960e+000	5.900000e+000	-5.836982e-001
5.999999999999959e+000	6.000000e+000	-5.936976e-001
6.099999999999959e+000	6.100000e+000	-6.036971e-001
6.199999999999958e+000	6.200000e+000	-6.136965e-001
6.299999999999958e+000	6.300000e+000	-6.236959e-001
6.399999999999958e+000	6.400000e+000	-6.336954e-001
6.499999999999957e+000	6.500000e+000	-6.436948e-001
6.599999999999957e+000	6.600000e+000	-6.536942e-001
6.699999999999957e+000	6.700000e+000	-6.636937e-001
6.799999999999956e+000	6.800000e+000	-6.736931e-001
6.899999999999956e+000	6.900000e+000	-6.836925e-001
6.999999999999956e+000	7.000000e+000	-6.936920e-001
7.099999999999955e+000	7.100000e+000	-7.036914e-001
7.199999999999955e+000	7.200000e+000	-7.136908e-001
7.299999999999955e+000	7.300000e+000	-7.236903e-001
7.399999999999954e+000	7.400000e+000	-7.336897e-001
7.499999999999954e+000	7.500000e+000	-7.436891e-001
7.599999999999954e+000	7.600000e+000	-7.536886e-001
7.699999999999953e+000	7.700000e+000	-7.636880e-001
7.799999999999953e+000	7.800000e+000	-7.736874e-001
7.899999999999952e+000	7.900000e+000	-7.836869e-001
7.999999999999952e+000	8.000000e+000	-7.936863e-001
8.099999999999952e+000	8.100000e+000	-8.036858e-001
8.199999999999951e+000	8.200000e+000	-8.136852e-001
8.299999999999951e+000	8.300000e+000	-8.236846e-001
8.399999999999951e+000	8.400000e+000	-8.336841e-001
8.499999999999950e+000	8.500000e+000	-8.436835e-001
8.599999999999950e+000	8.600000e+000	-8.536829e-001
8.699999999999950e+000	8.700000e+000	-8.636824e-001
8.799999999999949e+000	8.800000e+000	-8.736818e-001
8.899999999999949e+000	8.900000e+000	-8.836812e-001
8.999999999999949e+000	9.000000e+000	-8.936807e-001
9.099999999999948e+000	9.100000e+000	-9.036801e-001
9.199999999999948e+000	9.200000e+000	-9.136795e-001
9.299999999999947e+000	9.300000e+000	-9.236790e-001
9.399999999999947e+000	9.400000e+000	-9.336784e-001
9.499999999999947e+000	9.500000e+000	-9.436778e-001
9.599999999999946e+000	9.600000e+000	-9.536773e-001
9.699999999999946e+000	9.700000e+000	-9.636767e-001
9.799999999999946e+000	9.800000e+000	-9.736761e-001
9.899999999999945e+000	9.900000e+000	-9.836756e-001
9.999999999999945e+000	1.000000e+001	-9.936750e-001
1.009999999999995e+001	1.010000e+001	-1.003674e+000
1.019999999999994e+001	1.020000e+001	-1.013674e+000
1.029999999999994e+001	1.030000e+001	-1.023673e+000
1.039999999999994e+001	1.040000e+001	-1.033673e+000
1.049999999999994e+001	1.050000e+001	-1.043672e+000
1.059999999999994e+001	1.060000e+001	-1.053672e+000
1.069999999999994e+001	1.070000e+001	-1.063671e+000
1.079999999999994e+001	1.080000e+001	-1.073671e+000
1.089999999999994e+001	1.090000e+001	-1.083670e+000
1.099999999999994e+001	1.100000e+001	-1.093669e+000
1.109999999999994e+001	1.110000e+001	-1.103669e+000
1.119999999999994e+001	1.120000e+001	-1.113668e+000
1.129999999999994e+001	1.130000e+001	-1.123668e+000
1.139999999999994e+001	1.140000e+001	-1.133667e+000
1.149999999999994e+001	1.150000e+001	-1.143667e+000
1.159999999999994e+001	1.160000e+001	-1.153666e+000
1.169999999999994e+001	1.170000e+001	-1.163665e+000
1.179999999999994e+001	1.180000e+001	-1.173665e+000
1.189999999999994e+001	1.190000e+001	-1.183664e+000
1.199999999999994e+001	1.200000e+001	-1.193664e+000
1.209999999999994e+001	1.210000e+001	-1.203663e+000
1.219999999999994e+001	1.220000e+001	-1.213663e+000
1.229999999999994e+001	1.230000e+001	-1.223662e+000
1.239999999999994e+001	1.240000e+001	-1.233661e+000
1.249999999999994e+001	1.250000e+001	-1.243661e+000
1.259999999999994e+001	1.260000e+001	-1.253660e+000
1.269999999999994e+001	1.270000e+001	-1.263660e+000
1.279999999999994e+001	1.280000e+001	-1.273659e+000
1.289999999999994e+001	1.290000e+001	-1.283659e+000
1.299999999999993e+001	1.300000e+001	-1.293658e+000
1.309999999999993e+001	1.310000e+001	-1.303658e+000
1.319999999999993e+001	1.320000e+001	-1.313657e+000
1.329999999999993e+001	1.330000e+001	-1.323656e+000
1.339999999999993e+001	1.340000e+001	-1.333656e+000
1.349999999999993e+001	1.350000e+001	-1.343655e+000
1.359999999999993e+001	1.360000e+001	-1.353655e+000
1.369999999999993e+001	1.370000e+001	-1.363654e+000
1.379999999999993e+001	1.380000e+001	-1.373654e+000
1.389999999999993e+001	1.390000e+001	-1.383653e+000
1.399999999999993e+001	1.400000e+001	-1.393652e+000
1.409999999999993e+001	1.410000e+001	-1.403652e+000
1.419999999999993e+001	1.420000e+001	-1.413651e+000
1.429999999999993e+001	1.430000e+001	-1.423651e+000
1.439999999999993e+001	1.440000e+001	-1.433650e+000
1.449999999999993e+001	1.450000e+001	-1.443650e+000
1.459999999999993e+001	1.460000e+001	-1.453649e+000
1.469999999999993e+001	1.470000e+001	-1.463648e+000
1.479999999999993e+001	1.480000e+001	-1.473648e+000
1.489999999999993e+001	1.490000e+001	-1.483647e+000
1.500000000000000e+001	1.500000e+001	-1.493647e+000
