Freq.	V(vout)/V(vin)
1.00000000000000e-001	(-2.74985430813215e-004dB,1.79999982347129e+002°)
1.02329299228075e-001	(-2.74985430824787e-004dB,1.79999981935941e+002°)
1.04712854805090e-001	(-2.74985430835395e-004dB,1.79999981515175e+002°)
1.07151930523761e-001	(-2.74985430849861e-004dB,1.79999981084608e+002°)
1.09647819614319e-001	(-2.74985430860468e-004dB,1.79999980644012e+002°)
1.12201845430196e-001	(-2.74985430877827e-004dB,1.79999980193153e+002°)
1.14815362149688e-001	(-2.74985430892292e-004dB,1.79999979731792e+002°)
1.17489755493953e-001	(-2.74985430908686e-004dB,1.79999979259685e+002°)
1.20226443461741e-001	(-2.74985430924116e-004dB,1.79999978776581e+002°)
1.23026877081238e-001	(-2.74985430946296e-004dB,1.79999978282224e+002°)
1.25892541179417e-001	(-2.74985430959797e-004dB,1.79999977776352e+002°)
1.28824955169313e-001	(-2.74985430981013e-004dB,1.79999977258697e+002°)
1.31825673855641e-001	(-2.74985431004158e-004dB,1.79999976728984e+002°)
1.34896288259165e-001	(-2.74985431024409e-004dB,1.79999976186932e+002°)
1.38038426460288e-001	(-2.74985431043696e-004dB,1.79999975632255e+002°)
1.41253754462275e-001	(-2.74985431069734e-004dB,1.79999975064657e+002°)
1.44543977074593e-001	(-2.74985431090950e-004dB,1.79999974483838e+002°)
1.47910838816821e-001	(-2.74985431117952e-004dB,1.79999973889490e+002°)
1.51356124843621e-001	(-2.74985431139168e-004dB,1.79999973281298e+002°)
1.54881661891248e-001	(-2.74985431166170e-004dB,1.79999972658940e+002°)
1.58489319246111e-001	(-2.74985431199922e-004dB,1.79999972022085e+002°)
1.62181009735893e-001	(-2.74985431232711e-004dB,1.79999971370395e+002°)
1.65958690743756e-001	(-2.74985431260677e-004dB,1.79999970703526e+002°)
1.69824365246174e-001	(-2.74985431295394e-004dB,1.79999970021124e+002°)
1.73780082874937e-001	(-2.74985431333968e-004dB,1.79999969322826e+002°)
1.77827941003892e-001	(-2.74985431367721e-004dB,1.79999968608263e+002°)
1.81970085860998e-001	(-2.74985431407259e-004dB,1.79999967877055e+002°)
1.86208713666287e-001	(-2.74985431446798e-004dB,1.79999967128816e+002°)
1.90546071796325e-001	(-2.74985431487301e-004dB,1.79999966363148e+002°)
1.94984459975804e-001	(-2.74985431532626e-004dB,1.79999965579645e+002°)
1.99526231496888e-001	(-2.74985431577951e-004dB,1.79999964777892e+002°)
2.04173794466953e-001	(-2.74985431628097e-004dB,1.79999963957463e+002°)
2.08929613085404e-001	(-2.74985431680173e-004dB,1.79999963117925e+002°)
2.13796208950223e-001	(-2.74985431732248e-004dB,1.79999962258831e+002°)
2.18776162394955e-001	(-2.74985431790110e-004dB,1.79999961379726e+002°)
2.23872113856834e-001	(-2.74985431847971e-004dB,1.79999960480144e+002°)
2.29086765276777e-001	(-2.74985431910654e-004dB,1.79999959559609e+002°)
2.34422881531992e-001	(-2.74985431970444e-004dB,1.79999958617631e+002°)
2.39883291901949e-001	(-2.74985432036985e-004dB,1.79999957653712e+002°)
2.45470891568503e-001	(-2.74985432114134e-004dB,1.79999956667340e+002°)
2.51188643150958e-001	(-2.74985432184532e-004dB,1.79999955657993e+002°)
2.57039578276886e-001	(-2.74985432262645e-004dB,1.79999954625135e+002°)
2.63026799189538e-001	(-2.74985432342687e-004dB,1.79999953568218e+002°)
2.69153480392691e-001	(-2.74985432419835e-004dB,1.79999952486683e+002°)
2.75422870333816e-001	(-2.74985432510485e-004dB,1.79999951379956e+002°)
2.81838293126445e-001	(-2.74985432599206e-004dB,1.79999950247449e+002°)
2.88403150312660e-001	(-2.74985432699499e-004dB,1.79999949088564e+002°)
2.95120922666638e-001	(-2.74985432799792e-004dB,1.79999947902684e+002°)
3.01995172040201e-001	(-2.74985432906836e-004dB,1.79999946689182e+002°)
3.09029543251359e-001	(-2.74985433020630e-004dB,1.79999945447413e+002°)
3.16227766016838e-001	(-2.74985433133460e-004dB,1.79999944176720e+002°)
3.23593656929628e-001	(-2.74985433259791e-004dB,1.79999942876429e+002°)
3.31131121482591e-001	(-2.74985433380336e-004dB,1.79999941545850e+002°)
3.38844156139202e-001	(-2.74985433516310e-004dB,1.79999940184278e+002°)
3.46736850452531e-001	(-2.74985433660964e-004dB,1.79999938790991e+002°)
3.54813389233575e-001	(-2.74985433803689e-004dB,1.79999937365250e+002°)
3.63078054770101e-001	(-2.74985433959915e-004dB,1.79999935906299e+002°)
3.71535229097172e-001	(-2.74985434120963e-004dB,1.79999934413365e+002°)
3.80189396320561e-001	(-2.74985434288761e-004dB,1.79999932885656e+002°)
3.89045144994280e-001	(-2.74985434463310e-004dB,1.79999931322362e+002°)
3.98107170553497e-001	(-2.74985434651360e-004dB,1.79999929722654e+002°)
4.07380277804112e-001	(-2.74985434840374e-004dB,1.79999928085685e+002°)
4.16869383470335e-001	(-2.74985435042889e-004dB,1.79999926410585e+002°)
4.26579518801592e-001	(-2.74985435260834e-004dB,1.79999924696468e+002°)
4.36515832240165e-001	(-2.74985435472028e-004dB,1.79999922942423e+002°)
4.46683592150962e-001	(-2.74985435705403e-004dB,1.79999921147521e+002°)
4.57088189614874e-001	(-2.74985435948421e-004dB,1.79999919310811e+002°)
4.67735141287197e-001	(-2.74985436207834e-004dB,1.79999917431319e+002°)
4.78630092322638e-001	(-2.74985436466281e-004dB,1.79999915508047e+002°)
4.89778819368445e-001	(-2.74985436753660e-004dB,1.79999913539976e+002°)
5.01187233627271e-001	(-2.74985437045861e-004dB,1.79999911526064e+002°)
5.12861383991364e-001	(-2.74985437352526e-004dB,1.79999909465241e+002°)
5.24807460249772e-001	(-2.74985437668836e-004dB,1.79999907356416e+002°)
5.37031796370252e-001	(-2.74985438009254e-004dB,1.79999905198469e+002°)
5.49540873857624e-001	(-2.74985438359316e-004dB,1.79999902990258e+002°)
5.62341325190348e-001	(-2.74985438725772e-004dB,1.79999900730611e+002°)
5.75439937337156e-001	(-2.74985439111515e-004dB,1.79999898418330e+002°)
5.88843655355588e-001	(-2.74985439515581e-004dB,1.79999896052189e+002°)
6.02559586074357e-001	(-2.74985439938935e-004dB,1.79999893630933e+002°)
6.16595001861481e-001	(-2.74985440381575e-004dB,1.79999891153279e+002°)
6.30957344480192e-001	(-2.74985440842538e-004dB,1.79999888617913e+002°)
6.45654229034654e-001	(-2.74985441330503e-004dB,1.79999886023491e+002°)
6.60693448007595e-001	(-2.74985441833898e-004dB,1.79999883368637e+002°)
6.76082975391981e-001	(-2.74985442369117e-004dB,1.79999880651944e+002°)
6.91830970918935e-001	(-2.74985442925551e-004dB,1.79999877871971e+002°)
7.07945784384137e-001	(-2.74985443510917e-004dB,1.79999875027243e+002°)
7.24435960074989e-001	(-2.74985444117498e-004dB,1.79999872116254e+002°)
7.41310241300916e-001	(-2.74985444761689e-004dB,1.79999869137459e+002°)
7.58577575029182e-001	(-2.74985445424203e-004dB,1.79999866089279e+002°)
7.76247116628690e-001	(-2.74985446131077e-004dB,1.79999862970097e+002°)
7.94328234724280e-001	(-2.74985446865918e-004dB,1.79999859778261e+002°)
8.12830516164098e-001	(-2.74985447630654e-004dB,1.79999856512077e+002°)
8.31763771102669e-001	(-2.74985448433964e-004dB,1.79999853169814e+002°)
8.51138038202375e-001	(-2.74985449282599e-004dB,1.79999849749699e+002°)
8.70963589956079e-001	(-2.74985450164022e-004dB,1.79999846249920e+002°)
8.91250938133744e-001	(-2.74985451085949e-004dB,1.79999842668621e+002°)
9.12010839355908e-001	(-2.74985452055128e-004dB,1.79999839003902e+002°)
9.33254300796989e-001	(-2.74985453062883e-004dB,1.79999835253821e+002°)
9.54992586021434e-001	(-2.74985454130427e-004dB,1.79999831416390e+002°)
9.77237220955809e-001	(-2.74985455240403e-004dB,1.79999827489573e+002°)
9.99999999999998e-001	(-2.74985456403419e-004dB,1.79999823471289e+002°)
1.02329299228075e+000	(-2.74985457622367e-004dB,1.79999819359407e+002°)
1.04712854805090e+000	(-2.74985458905928e-004dB,1.79999815151747e+002°)
1.07151930523760e+000	(-2.74985460229991e-004dB,1.79999810846079e+002°)
1.09647819614318e+000	(-2.74985461636990e-004dB,1.79999806440118e+002°)
1.12201845430196e+000	(-2.74985463097992e-004dB,1.79999801931529e+002°)
1.14815362149688e+000	(-2.74985464635179e-004dB,1.79999797317921e+002°)
1.17489755493953e+000	(-2.74985466239870e-004dB,1.79999792596849e+002°)
1.20226443461741e+000	(-2.74985467916889e-004dB,1.79999787765809e+002°)
1.23026877081238e+000	(-2.74985469679735e-004dB,1.79999782822240e+002°)
1.25892541179416e+000	(-2.74985471527445e-004dB,1.79999777763520e+002°)
1.28824955169313e+000	(-2.74985473459054e-004dB,1.79999772586968e+002°)
1.31825673855640e+000	(-2.74985475478420e-004dB,1.79999767289838e+002°)
1.34896288259165e+000	(-2.74985477601936e-004dB,1.79999761869322e+002°)
1.38038426460288e+000	(-2.74985479814173e-004dB,1.79999756322545e+002°)
1.41253754462275e+000	(-2.74985482142134e-004dB,1.79999750646568e+002°)
1.44543977074592e+000	(-2.74985484571351e-004dB,1.79999744838381e+002°)
1.47910838816820e+000	(-2.74985487117257e-004dB,1.79999738894903e+002°)
1.51356124843620e+000	(-2.74985489782742e-004dB,1.79999732812984e+002°)
1.54881661891248e+000	(-2.74985492570701e-004dB,1.79999726589399e+002°)
1.58489319246111e+000	(-2.74985495491741e-004dB,1.79999720220848e+002°)
1.62181009735892e+000	(-2.74985498555507e-004dB,1.79999713703954e+002°)
1.65958690743756e+000	(-2.74985501760068e-004dB,1.79999707035263e+002°)
1.69824365246174e+000	(-2.74985505115070e-004dB,1.79999700211238e+002°)
1.73780082874937e+000	(-2.74985508634976e-004dB,1.79999693228260e+002°)
1.77827941003892e+000	(-2.74985512312074e-004dB,1.79999686082628e+002°)
1.81970085860998e+000	(-2.74985516162755e-004dB,1.79999678770553e+002°)
1.86208713666286e+000	(-2.74985520198593e-004dB,1.79999671288158e+002°)
1.90546071796324e+000	(-2.74985524420553e-004dB,1.79999663631476e+002°)
1.94984459975804e+000	(-2.74985528849849e-004dB,1.79999655796447e+002°)
1.99526231496887e+000	(-2.74985533484553e-004dB,1.79999647778916e+002°)
2.04173794466952e+000	(-2.74985538335274e-004dB,1.79999639574633e+002°)
2.08929613085403e+000	(-2.74985543414548e-004dB,1.79999631179248e+002°)
2.13796208950223e+000	(-2.74985548734911e-004dB,1.79999622588309e+002°)
2.18776162394955e+000	(-2.74985554298292e-004dB,1.79999613797261e+002°)
2.23872113856833e+000	(-2.74985560135551e-004dB,1.79999604801444e+002°)
2.29086765276777e+000	(-2.74985566238008e-004dB,1.79999595596087e+002°)
2.34422881531991e+000	(-2.74985572630737e-004dB,1.79999586176310e+002°)
2.39883291901948e+000	(-2.74985579333026e-004dB,1.79999576537117e+002°)
2.45470891568502e+000	(-2.74985586338122e-004dB,1.79999566673400e+002°)
2.51188643150957e+000	(-2.74985593686530e-004dB,1.79999556579927e+002°)
2.57039578276886e+000	(-2.74985601371499e-004dB,1.79999546251346e+002°)
2.63026799189537e+000	(-2.74985609428710e-004dB,1.79999535682182e+002°)
2.69153480392691e+000	(-2.74985617852377e-004dB,1.79999524866831e+002°)
2.75422870333816e+000	(-2.74985626686861e-004dB,1.79999513799558e+002°)
2.81838293126444e+000	(-2.74985635925410e-004dB,1.79999502474495e+002°)
2.88403150312660e+000	(-2.74985645604671e-004dB,1.79999490885637e+002°)
2.95120922666637e+000	(-2.74985655736217e-004dB,1.79999479026840e+002°)
3.01995172040200e+000	(-2.74985666352834e-004dB,1.79999466891816e+002°)
3.09029543251358e+000	(-2.74985677467060e-004dB,1.79999454474131e+002°)
3.16227766016837e+000	(-2.74985689100110e-004dB,1.79999441767202e+002°)
3.23593656929627e+000	(-2.74985701284773e-004dB,1.79999428764289e+002°)
3.31131121482590e+000	(-2.74985714041301e-004dB,1.79999415458500e+002°)
3.38844156139201e+000	(-2.74985727405374e-004dB,1.79999401842780e+002°)
3.46736850452530e+000	(-2.74985741394351e-004dB,1.79999387909908e+002°)
3.54813389233574e+000	(-2.74985756044878e-004dB,1.79999373652498e+002°)
3.63078054770100e+000	(-2.74985771382028e-004dB,1.79999359062991e+002°)
3.71535229097171e+000	(-2.74985787445339e-004dB,1.79999344133650e+002°)
3.80189396320560e+000	(-2.74985804272421e-004dB,1.79999328856560e+002°)
3.89045144994279e+000	(-2.74985821885456e-004dB,1.79999313223621e+002°)
3.98107170553496e+000	(-2.74985840323981e-004dB,1.79999297226544e+002°)
4.07380277804111e+000	(-2.74985859637178e-004dB,1.79999280856848e+002°)
4.16869383470334e+000	(-2.74985879859766e-004dB,1.79999264105852e+002°)
4.26579518801591e+000	(-2.74985901035138e-004dB,1.79999246964675e+002°)
4.36515832240164e+000	(-2.74985923201871e-004dB,1.79999229424229e+002°)
4.46683592150961e+000	(-2.74985946423612e-004dB,1.79999211475214e+002°)
4.57088189614873e+000	(-2.74985970737006e-004dB,1.79999193108112e+002°)
4.67735141287196e+000	(-2.74985996197985e-004dB,1.79999174313185e+002°)
4.78630092322636e+000	(-2.74986022856698e-004dB,1.79999155080469e+002°)
4.89778819368444e+000	(-2.74986050769076e-004dB,1.79999135399765e+002°)
5.01187233627270e+000	(-2.74986079998767e-004dB,1.79999115260638e+002°)
5.12861383991363e+000	(-2.74986110605561e-004dB,1.79999094652411e+002°)
5.24807460249770e+000	(-2.74986142656963e-004dB,1.79999073564156e+002°)
5.37031796370250e+000	(-2.74986176218550e-004dB,1.79999051984694e+002°)
5.49540873857622e+000	(-2.74986211358791e-004dB,1.79999029902580e+002°)
5.62341325190346e+000	(-2.74986248156764e-004dB,1.79999007306109e+002°)
5.75439937337154e+000	(-2.74986286691545e-004dB,1.79998984183297e+002°)
5.88843655355586e+000	(-2.74986327038355e-004dB,1.79998960521887e+002°)
6.02559586074355e+000	(-2.74986369286878e-004dB,1.79998936309331e+002°)
6.16595001861479e+000	(-2.74986413529695e-004dB,1.79998911532793e+002°)
6.30957344480190e+000	(-2.74986459861310e-004dB,1.79998886179134e+002°)
6.45654229034652e+000	(-2.74986508362731e-004dB,1.79998860234914e+002°)
6.60693448007593e+000	(-2.74986559166075e-004dB,1.79998833686374e+002°)
6.76082975391978e+000	(-2.74986612350418e-004dB,1.79998806519440e+002°)
6.91830970918933e+000	(-2.74986668048843e-004dB,1.79998778719707e+002°)
7.07945784384134e+000	(-2.74986726373215e-004dB,1.79998750272434e+002°)
7.24435960074986e+000	(-2.74986787444078e-004dB,1.79998721162540e+002°)
7.41310241300914e+000	(-2.74986851390657e-004dB,1.79998691374588e+002°)
7.58577575029180e+000	(-2.74986918346997e-004dB,1.79998660892787e+002°)
7.76247116628688e+000	(-2.74986988478004e-004dB,1.79998629700973e+002°)
7.94328234724277e+000	(-2.74987061892649e-004dB,1.79998597782608e+002°)
8.12830516164095e+000	(-2.74987138778984e-004dB,1.79998565120769e+002°)
8.31763771102667e+000	(-2.74987219285518e-004dB,1.79998531698138e+002°)
8.51138038202372e+000	(-2.74987303579086e-004dB,1.79998497496995e+002°)
8.70963589956076e+000	(-2.74987391855453e-004dB,1.79998462499204e+002°)
8.91250938133741e+000	(-2.74987484290131e-004dB,1.79998426686209e+002°)
9.12010839355905e+000	(-2.74987581077921e-004dB,1.79998390039023e+002°)
9.33254300796986e+000	(-2.74987682428089e-004dB,1.79998352538215e+002°)
9.54992586021431e+000	(-2.74987788556651e-004dB,1.79998314163900e+002°)
9.77237220955806e+000	(-2.74987899688302e-004dB,1.79998274895733e+002°)
9.99999999999995e+000	(-2.74988016053524e-004dB,1.79998234712893e+002°)
1.02329299228075e+001	(-2.74988137906908e-004dB,1.79998193594074e+002°)
1.04712854805089e+001	(-2.74988265498221e-004dB,1.79998151517474e+002°)
1.07151930523760e+001	(-2.74988399100378e-004dB,1.79998108460785e+002°)
1.09647819614318e+001	(-2.74988539010401e-004dB,1.79998064401177e+002°)
1.12201845430196e+001	(-2.74988685506988e-004dB,1.79998019315289e+002°)
1.14815362149688e+001	(-2.74988838900665e-004dB,1.79997973179215e+002°)
1.17489755493952e+001	(-2.74988999537634e-004dB,1.79997925968494e+002°)
1.20226443461741e+001	(-2.74989167735169e-004dB,1.79997877658094e+002°)
1.23026877081237e+001	(-2.74989343863585e-004dB,1.79997828222400e+002°)
1.25892541179416e+001	(-2.74989528295123e-004dB,1.79997777635202e+002°)
1.28824955169313e+001	(-2.74989721412634e-004dB,1.79997725869676e+002°)
1.31825673855640e+001	(-2.74989923638506e-004dB,1.79997672898376e+002°)
1.34896288259165e+001	(-2.74990135392235e-004dB,1.79997618693215e+002°)
1.38038426460288e+001	(-2.74990357122247e-004dB,1.79997563225455e+002°)
1.41253754462275e+001	(-2.74990589308794e-004dB,1.79997506465684e+002°)
1.44543977074592e+001	(-2.74990832431160e-004dB,1.79997448383809e+002°)
1.47910838816820e+001	(-2.74991087013956e-004dB,1.79997388949032e+002°)
1.51356124843620e+001	(-2.74991353596259e-004dB,1.79997328129842e+002°)
1.54881661891247e+001	(-2.74991632734503e-004dB,1.79997265893992e+002°)
1.58489319246110e+001	(-2.74991925039127e-004dB,1.79997202208481e+002°)
1.62181009735892e+001	(-2.74992231112854e-004dB,1.79997137039545e+002°)
1.65958690743755e+001	(-2.74992551617235e-004dB,1.79997070352630e+002°)
1.69824365246173e+001	(-2.74992887226354e-004dB,1.79997002112376e+002°)
1.73780082874936e+001	(-2.74993238643230e-004dB,1.79996932282603e+002°)
1.77827941003891e+001	(-2.74993606625848e-004dB,1.79996860826285e+002°)
1.81970085860997e+001	(-2.74993991957266e-004dB,1.79996787705536e+002°)
1.86208713666286e+001	(-2.74994395446581e-004dB,1.79996712881586e+002°)
1.90546071796323e+001	(-2.74994817948214e-004dB,1.79996636314762e+002°)
1.94984459975803e+001	(-2.74995260359018e-004dB,1.79996557964468e+002°)
1.99526231496887e+001	(-2.74995723624063e-004dB,1.79996477789161e+002°)
2.04173794466952e+001	(-2.74996208715423e-004dB,1.79996395746331e+002°)
2.08929613085403e+001	(-2.74996716679426e-004dB,1.79996311792479e+002°)
2.13796208950222e+001	(-2.74997248581688e-004dB,1.79996225883089e+002°)
2.18776162394954e+001	(-2.74997805547614e-004dB,1.79996137972613e+002°)
2.23872113856832e+001	(-2.74998388762400e-004dB,1.79996048014439e+002°)
2.29086765276776e+001	(-2.74998999459461e-004dB,1.79995955960870e+002°)
2.34422881531991e+001	(-2.74999638946465e-004dB,1.79995861763098e+002°)
2.39883291901947e+001	(-2.75000308562907e-004dB,1.79995765371178e+002°)
2.45470891568501e+001	(-2.75001009747607e-004dB,1.79995666734002e+002°)
2.51188643150956e+001	(-2.75001743970249e-004dB,1.79995565799271e+002°)
2.57039578276885e+001	(-2.75002512795984e-004dB,1.79995462513467e+002°)
2.63026799189536e+001	(-2.75003317861328e-004dB,1.79995356821829e+002°)
2.69153480392690e+001	(-2.75004160867409e-004dB,1.79995248668316e+002°)
2.75422870333815e+001	(-2.75005043592503e-004dB,1.79995137995584e+002°)
2.81838293126443e+001	(-2.75005967928681e-004dB,1.79995024744953e+002°)
2.88403150312659e+001	(-2.75006935824909e-004dB,1.79994908856376e+002°)
2.95120922666636e+001	(-2.75007949337199e-004dB,1.79994790268407e+002°)
3.01995172040199e+001	(-2.75009010619928e-004dB,1.79994668918169e+002°)
3.09029543251357e+001	(-2.75010121915227e-004dB,1.79994544741322e+002°)
3.16227766016836e+001	(-2.75011285584809e-004dB,1.79994417672024e+002°)
3.23593656929626e+001	(-2.75012504083929e-004dB,1.79994287642902e+002°)
3.31131121482589e+001	(-2.75013780028892e-004dB,1.79994154585012e+002°)
3.38844156139200e+001	(-2.75015116092896e-004dB,1.79994018427807e+002°)
3.46736850452529e+001	(-2.75016515130443e-004dB,1.79993879099092e+002°)
3.54813389233573e+001	(-2.75017980106932e-004dB,1.79993736524995e+002°)
3.63078054770099e+001	(-2.75019514117954e-004dB,1.79993590629921e+002°)
3.71535229097170e+001	(-2.75021120424966e-004dB,1.79993441336513e+002°)
3.80189396320558e+001	(-2.75022802434082e-004dB,1.79993288565616e+002°)
3.89045144994278e+001	(-2.75024563728855e-004dB,1.79993132236227e+002°)
3.98107170553494e+001	(-2.75026408008564e-004dB,1.79992972265460e+002°)
4.07380277804110e+001	(-2.75028339221289e-004dB,1.79992808568494e+002°)
4.16869383470332e+001	(-2.75030361446266e-004dB,1.79992641058536e+002°)
4.26579518801589e+001	(-2.75032478971029e-004dB,1.79992469646770e+002°)
4.36515832240163e+001	(-2.75034696289488e-004dB,1.79992294242312e+002°)
4.46683592150960e+001	(-2.75037018119281e-004dB,1.79992114752158e+002°)
4.57088189614871e+001	(-2.75039449366098e-004dB,1.79991931081142e+002°)
4.67735141287194e+001	(-2.75041995194077e-004dB,1.79991743131879e+002°)
4.78630092322634e+001	(-2.75044661001693e-004dB,1.79991550804715e+002°)
4.89778819368442e+001	(-2.75047452448763e-004dB,1.79991353997675e+002°)
5.01187233627268e+001	(-2.75050375448731e-004dB,1.79991152606411e+002°)
5.12861383991361e+001	(-2.75053436208206e-004dB,1.79990946524142e+002°)
5.24807460249768e+001	(-2.75056641221174e-004dB,1.79990735641601e+002°)
5.37031796370248e+001	(-2.75059997273822e-004dB,1.79990519846974e+002°)
5.49540873857620e+001	(-2.75063511490828e-004dB,1.79990299025844e+002°)
5.62341325190344e+001	(-2.75067191331502e-004dB,1.79990073061130e+002°)
5.75439937337152e+001	(-2.75071044606178e-004dB,1.79989841833022e+002°)
