Freq.	V(vout)/V(vin)
1.00000000000000e+001	(-2.00001090705227e+001dB,1.79999296751707e+002°)
1.02329299228075e+001	(-2.00001090705247e+001dB,1.79999280370950e+002°)
1.04712854805090e+001	(-2.00001090705268e+001dB,1.79999263608636e+002°)
1.07151930523761e+001	(-2.00001090705290e+001dB,1.79999246455878e+002°)
1.09647819614319e+001	(-2.00001090705312e+001dB,1.79999228903580e+002°)
1.12201845430196e+001	(-2.00001090705336e+001dB,1.79999210942437e+002°)
1.14815362149688e+001	(-2.00001090705361e+001dB,1.79999192562926e+002°)
1.17489755493953e+001	(-2.00001090705387e+001dB,1.79999173755300e+002°)
1.20226443461741e+001	(-2.00001090705414e+001dB,1.79999154509589e+002°)
1.23026877081238e+001	(-2.00001090705443e+001dB,1.79999134815587e+002°)
1.25892541179417e+001	(-2.00001090705473e+001dB,1.79999114662853e+002°)
1.28824955169313e+001	(-2.00001090705504e+001dB,1.79999094040702e+002°)
1.31825673855641e+001	(-2.00001090705537e+001dB,1.79999072938199e+002°)
1.34896288259165e+001	(-2.00001090705571e+001dB,1.79999051344156e+002°)
1.38038426460288e+001	(-2.00001090705607e+001dB,1.79999029247122e+002°)
1.41253754462275e+001	(-2.00001090705645e+001dB,1.79999006635383e+002°)
1.44543977074593e+001	(-2.00001090705684e+001dB,1.79998983496949e+002°)
1.47910838816821e+001	(-2.00001090705725e+001dB,1.79998959819551e+002°)
1.51356124843621e+001	(-2.00001090705769e+001dB,1.79998935590636e+002°)
1.54881661891248e+001	(-2.00001090705814e+001dB,1.79998910797357e+002°)
1.58489319246111e+001	(-2.00001090705861e+001dB,1.79998885426568e+002°)
1.62181009735893e+001	(-2.00001090705911e+001dB,1.79998859464817e+002°)
1.65958690743756e+001	(-2.00001090705963e+001dB,1.79998832898340e+002°)
1.69824365246174e+001	(-2.00001090706018e+001dB,1.79998805713050e+002°)
1.73780082874937e+001	(-2.00001090706075e+001dB,1.79998777894534e+002°)
1.77827941003892e+001	(-2.00001090706134e+001dB,1.79998749428040e+002°)
1.81970085860998e+001	(-2.00001090706197e+001dB,1.79998720298477e+002°)
1.86208713666287e+001	(-2.00001090706262e+001dB,1.79998690490400e+002°)
1.90546071796325e+001	(-2.00001090706331e+001dB,1.79998659988003e+002°)
1.94984459975804e+001	(-2.00001090706402e+001dB,1.79998628775114e+002°)
1.99526231496888e+001	(-2.00001090706477e+001dB,1.79998596835183e+002°)
2.04173794466953e+001	(-2.00001090706556e+001dB,1.79998564151276e+002°)
2.08929613085404e+001	(-2.00001090706638e+001dB,1.79998530706062e+002°)
2.13796208950223e+001	(-2.00001090706725e+001dB,1.79998496481810e+002°)
2.18776162394955e+001	(-2.00001090706815e+001dB,1.79998461460372e+002°)
2.23872113856834e+001	(-2.00001090706910e+001dB,1.79998425623181e+002°)
2.29086765276777e+001	(-2.00001090707009e+001dB,1.79998388951234e+002°)
2.34422881531992e+001	(-2.00001090707112e+001dB,1.79998351425087e+002°)
2.39883291901949e+001	(-2.00001090707221e+001dB,1.79998313024844e+002°)
2.45470891568503e+001	(-2.00001090707335e+001dB,1.79998273730145e+002°)
2.51188643150958e+001	(-2.00001090707454e+001dB,1.79998233520155e+002°)
2.57039578276886e+001	(-2.00001090707578e+001dB,1.79998192373553e+002°)
2.63026799189538e+001	(-2.00001090707709e+001dB,1.79998150268524e+002°)
2.69153480392691e+001	(-2.00001090707846e+001dB,1.79998107182743e+002°)
2.75422870333816e+001	(-2.00001090707989e+001dB,1.79998063093366e+002°)
2.81838293126445e+001	(-2.00001090708139e+001dB,1.79998017977014e+002°)
2.88403150312660e+001	(-2.00001090708296e+001dB,1.79997971809768e+002°)
2.95120922666638e+001	(-2.00001090708460e+001dB,1.79997924567149e+002°)
3.01995172040201e+001	(-2.00001090708632e+001dB,1.79997876224107e+002°)
3.09029543251359e+001	(-2.00001090708812e+001dB,1.79997826755012e+002°)
3.16227766016838e+001	(-2.00001090709001e+001dB,1.79997776133633e+002°)
3.23593656929628e+001	(-2.00001090709199e+001dB,1.79997724333131e+002°)
3.31131121482591e+001	(-2.00001090709406e+001dB,1.79997671326040e+002°)
3.38844156139202e+001	(-2.00001090709623e+001dB,1.79997617084256e+002°)
3.46736850452531e+001	(-2.00001090709849e+001dB,1.79997561579018e+002°)
3.54813389233575e+001	(-2.00001090710087e+001dB,1.79997504780896e+002°)
3.63078054770101e+001	(-2.00001090710336e+001dB,1.79997446659777e+002°)
3.71535229097172e+001	(-2.00001090710596e+001dB,1.79997387184843e+002°)
3.80189396320561e+001	(-2.00001090710869e+001dB,1.79997326324560e+002°)
3.89045144994280e+001	(-2.00001090711155e+001dB,1.79997264046658e+002°)
3.98107170553497e+001	(-2.00001090711454e+001dB,1.79997200318118e+002°)
4.07380277804112e+001	(-2.00001090711767e+001dB,1.79997135105150e+002°)
4.16869383470335e+001	(-2.00001090712095e+001dB,1.79997068373176e+002°)
4.26579518801592e+001	(-2.00001090712438e+001dB,1.79997000086815e+002°)
4.36515832240165e+001	(-2.00001090712798e+001dB,1.79996930209860e+002°)
4.46683592150962e+001	(-2.00001090713175e+001dB,1.79996858705262e+002°)
4.57088189614874e+001	(-2.00001090713569e+001dB,1.79996785535108e+002°)
4.67735141287197e+001	(-2.00001090713982e+001dB,1.79996710660602e+002°)
4.78630092322638e+001	(-2.00001090714414e+001dB,1.79996634042045e+002°)
4.89778819368445e+001	(-2.00001090714867e+001dB,1.79996555638812e+002°)
5.01187233627271e+001	(-2.00001090715341e+001dB,1.79996475409333e+002°)
5.12861383991364e+001	(-2.00001090715837e+001dB,1.79996393311070e+002°)
5.24807460249772e+001	(-2.00001090716357e+001dB,1.79996309300493e+002°)
5.37031796370252e+001	(-2.00001090716901e+001dB,1.79996223333057e+002°)
5.49540873857624e+001	(-2.00001090717471e+001dB,1.79996135363183e+002°)
5.62341325190348e+001	(-2.00001090718068e+001dB,1.79996045344228e+002°)
5.75439937337156e+001	(-2.00001090718693e+001dB,1.79995953228461e+002°)
5.88843655355588e+001	(-2.00001090719348e+001dB,1.79995858967043e+002°)
6.02559586074357e+001	(-2.00001090720032e+001dB,1.79995762509994e+002°)
6.16595001861481e+001	(-2.00001090720750e+001dB,1.79995663806172e+002°)
6.30957344480192e+001	(-2.00001090721502e+001dB,1.79995562803242e+002°)
6.45654229034654e+001	(-2.00001090722288e+001dB,1.79995459447653e+002°)
6.60693448007595e+001	(-2.00001090723112e+001dB,1.79995353684602e+002°)
6.76082975391980e+001	(-2.00001090723975e+001dB,1.79995245458013e+002°)
6.91830970918935e+001	(-2.00001090724878e+001dB,1.79995134710503e+002°)
7.07945784384136e+001	(-2.00001090725824e+001dB,1.79995021383352e+002°)
7.24435960074988e+001	(-2.00001090726814e+001dB,1.79994905416472e+002°)
7.41310241300916e+001	(-2.00001090727851e+001dB,1.79994786748377e+002°)
7.58577575029182e+001	(-2.00001090728938e+001dB,1.79994665316147e+002°)
7.76247116628690e+001	(-2.00001090730075e+001dB,1.79994541055397e+002°)
7.94328234724279e+001	(-2.00001090731265e+001dB,1.79994413900242e+002°)
8.12830516164097e+001	(-2.00001090732512e+001dB,1.79994283783264e+002°)
8.31763771102669e+001	(-2.00001090733818e+001dB,1.79994150635471e+002°)
8.51138038202374e+001	(-2.00001090735185e+001dB,1.79994014386268e+002°)
8.70963589956078e+001	(-2.00001090736617e+001dB,1.79993874963413e+002°)
8.91250938133743e+001	(-2.00001090738116e+001dB,1.79993732292983e+002°)
9.12010839355907e+001	(-2.00001090739685e+001dB,1.79993586299331e+002°)
9.33254300796988e+001	(-2.00001090741330e+001dB,1.79993436905050e+002°)
9.54992586021433e+001	(-2.00001090743050e+001dB,1.79993284030930e+002°)
9.77237220955808e+001	(-2.00001090744853e+001dB,1.79993127595914e+002°)
9.99999999999997e+001	(-2.00001090746740e+001dB,1.79992967517058e+002°)
1.02329299228075e+002	(-2.00001090748716e+001dB,1.79992803709486e+002°)
1.04712854805090e+002	(-2.00001090750785e+001dB,1.79992636086346e+002°)
1.07151930523760e+002	(-2.00001090752952e+001dB,1.79992464558762e+002°)
1.09647819614318e+002	(-2.00001090755221e+001dB,1.79992289035786e+002°)
1.12201845430196e+002	(-2.00001090757597e+001dB,1.79992109424356e+002°)
1.14815362149688e+002	(-2.00001090760085e+001dB,1.79991925629237e+002°)
1.17489755493953e+002	(-2.00001090762690e+001dB,1.79991737552980e+002°)
1.20226443461741e+002	(-2.00001090765418e+001dB,1.79991545095865e+002°)
1.23026877081238e+002	(-2.00001090768274e+001dB,1.79991348155847e+002°)
1.25892541179416e+002	(-2.00001090771265e+001dB,1.79991146628507e+002°)
1.28824955169313e+002	(-2.00001090774398e+001dB,1.79990940406992e+002°)
1.31825673855640e+002	(-2.00001090777677e+001dB,1.79990729381960e+002°)
1.34896288259165e+002	(-2.00001090781112e+001dB,1.79990513441524e+002°)
1.38038426460288e+002	(-2.00001090784708e+001dB,1.79990292471190e+002°)
1.41253754462275e+002	(-2.00001090788473e+001dB,1.79990066353794e+002°)
1.44543977074592e+002	(-2.00001090792416e+001dB,1.79989834969448e+002°)
1.47910838816820e+002	(-2.00001090796545e+001dB,1.79989598195468e+002°)
1.51356124843620e+002	(-2.00001090800868e+001dB,1.79989355906314e+002°)
1.54881661891248e+002	(-2.00001090805396e+001dB,1.79989107973519e+002°)
1.58489319246111e+002	(-2.00001090810136e+001dB,1.79988854265628e+002°)
1.62181009735892e+002	(-2.00001090815100e+001dB,1.79988594648121e+002°)
1.65958690743755e+002	(-2.00001090820298e+001dB,1.79988328983345e+002°)
1.69824365246174e+002	(-2.00001090825741e+001dB,1.79988057130442e+002°)
1.73780082874937e+002	(-2.00001090831440e+001dB,1.79987778945270e+002°)
1.77827941003892e+002	(-2.00001090837408e+001dB,1.79987494280334e+002°)
1.81970085860998e+002	(-2.00001090843658e+001dB,1.79987202984699e+002°)
1.86208713666286e+002	(-2.00001090850201e+001dB,1.79986904903916e+002°)
1.90546071796324e+002	(-2.00001090857053e+001dB,1.79986599879940e+002°)
1.94984459975804e+002	(-2.00001090864229e+001dB,1.79986287751043e+002°)
1.99526231496887e+002	(-2.00001090871742e+001dB,1.79985968351729e+002°)
2.04173794466952e+002	(-2.00001090879609e+001dB,1.79985641512650e+002°)
2.08929613085403e+002	(-2.00001090887847e+001dB,1.79985307060509e+002°)
2.13796208950222e+002	(-2.00001090896474e+001dB,1.79984964817978e+002°)
2.18776162394954e+002	(-2.00001090905507e+001dB,1.79984614603593e+002°)
2.23872113856833e+002	(-2.00001090914965e+001dB,1.79984256231667e+002°)
2.29086765276776e+002	(-2.00001090924870e+001dB,1.79983889512186e+002°)
2.34422881531991e+002	(-2.00001090935241e+001dB,1.79983514250710e+002°)
2.39883291901948e+002	(-2.00001090946101e+001dB,1.79983130248271e+002°)
2.45470891568502e+002	(-2.00001090957473e+001dB,1.79982737301266e+002°)
2.51188643150957e+002	(-2.00001090969380e+001dB,1.79982335201349e+002°)
2.57039578276885e+002	(-2.00001090981849e+001dB,1.79981923735320e+002°)
2.63026799189537e+002	(-2.00001090994906e+001dB,1.79981502685016e+002°)
2.69153480392690e+002	(-2.00001091008577e+001dB,1.79981071827190e+002°)
2.75422870333816e+002	(-2.00001091022894e+001dB,1.79980630933395e+002°)
2.81838293126444e+002	(-2.00001091037885e+001dB,1.79980179769863e+002°)
2.88403150312659e+002	(-2.00001091053582e+001dB,1.79979718097382e+002°)
2.95120922666637e+002	(-2.00001091070019e+001dB,1.79979245671166e+002°)
3.01995172040200e+002	(-2.00001091087231e+001dB,1.79978762240729e+002°)
3.09029543251358e+002	(-2.00001091105254e+001dB,1.79978267549750e+002°)
3.16227766016837e+002	(-2.00001091124127e+001dB,1.79977761335936e+002°)
3.23593656929627e+002	(-2.00001091143888e+001dB,1.79977243330886e+002°)
3.31131121482590e+002	(-2.00001091164581e+001dB,1.79976713259947e+002°)
3.38844156139201e+002	(-2.00001091186250e+001dB,1.79976170842069e+002°)
3.46736850452530e+002	(-2.00001091208940e+001dB,1.79975615789653e+002°)
3.54813389233574e+002	(-2.00001091232699e+001dB,1.79975047808404e+002°)
3.63078054770100e+002	(-2.00001091257578e+001dB,1.79974466597171e+002°)
3.71535229097171e+002	(-2.00001091283629e+001dB,1.79973871847786e+002°)
3.80189396320559e+002	(-2.00001091310908e+001dB,1.79973263244907e+002°)
3.89045144994279e+002	(-2.00001091339472e+001dB,1.79972640465844e+002°)
3.98107170553495e+002	(-2.00001091369383e+001dB,1.79972003180390e+002°)
4.07380277804111e+002	(-2.00001091400704e+001dB,1.79971351050648e+002°)
4.16869383470333e+002	(-2.00001091433500e+001dB,1.79970683730851e+002°)
4.26579518801591e+002	(-2.00001091467843e+001dB,1.79970000867176e+002°)
4.36515832240164e+002	(-2.00001091503803e+001dB,1.79969302097559e+002°)
4.46683592150961e+002	(-2.00001091541459e+001dB,1.79968587051503e+002°)
4.57088189614873e+002	(-2.00001091580889e+001dB,1.79967855349882e+002°)
4.67735141287196e+002	(-2.00001091622177e+001dB,1.79967106604737e+002°)
4.78630092322636e+002	(-2.00001091665412e+001dB,1.79966340419072e+002°)
4.89778819368444e+002	(-2.00001091710684e+001dB,1.79965556386646e+002°)
5.01187233627270e+002	(-2.00001091758089e+001dB,1.79964754091755e+002°)
5.12861383991362e+002	(-2.00001091807728e+001dB,1.79963933109009e+002°)
5.24807460249770e+002	(-2.00001091859708e+001dB,1.79963093003113e+002°)
5.37031796370250e+002	(-2.00001091914137e+001dB,1.79962233328631e+002°)
5.49540873857622e+002	(-2.00001091971131e+001dB,1.79961353629752e+002°)
5.62341325190346e+002	(-2.00001092030811e+001dB,1.79960453440047e+002°)
5.75439937337154e+002	(-2.00001092093303e+001dB,1.79959532282222e+002°)
5.88843655355586e+002	(-2.00001092158741e+001dB,1.79958589667868e+002°)
6.02559586074355e+002	(-2.00001092227263e+001dB,1.79957625097196e+002°)
6.16595001861479e+002	(-2.00001092299014e+001dB,1.79956638058779e+002°)
6.30957344480190e+002	(-2.00001092374147e+001dB,1.79955628029273e+002°)
6.45654229034652e+002	(-2.00001092452821e+001dB,1.79954594473148e+002°)
6.60693448007592e+002	(-2.00001092535202e+001dB,1.79953536842397e+002°)
6.76082975391978e+002	(-2.00001092621466e+001dB,1.79952454576250e+002°)
6.91830970918933e+002	(-2.00001092711796e+001dB,1.79951347100872e+002°)
7.07945784384134e+002	(-2.00001092806382e+001dB,1.79950213829066e+002°)
7.24435960074986e+002	(-2.00001092905427e+001dB,1.79949054159954e+002°)
7.41310241300914e+002	(-2.00001093009139e+001dB,1.79947867478663e+002°)
7.58577575029180e+002	(-2.00001093117739e+001dB,1.79946653155997e+002°)
7.76247116628688e+002	(-2.00001093231457e+001dB,1.79945410548104e+002°)
7.94328234724277e+002	(-2.00001093350535e+001dB,1.79944138996137e+002°)
8.12830516164095e+002	(-2.00001093475224e+001dB,1.79942837825899e+002°)
8.31763771102666e+002	(-2.00001093605791e+001dB,1.79941506347491e+002°)
8.51138038202372e+002	(-2.00001093742510e+001dB,1.79940143854942e+002°)
8.70963589956076e+002	(-2.00001093885673e+001dB,1.79938749625841e+002°)
8.91250938133741e+002	(-2.00001094035583e+001dB,1.79937322920945e+002°)
9.12010839355905e+002	(-2.00001094192559e+001dB,1.79935862983793e+002°)
9.33254300796986e+002	(-2.00001094356932e+001dB,1.79934369040306e+002°)
9.54992586021431e+002	(-2.00001094529052e+001dB,1.79932840298372e+002°)
9.77237220955805e+002	(-2.00001094709284e+001dB,1.79931275947428e+002°)
9.99999999999994e+002	(-2.00001094898009e+001dB,1.79929675158032e+002°)
1.02329299228075e+003	(-2.00001095095630e+001dB,1.79928037081419e+002°)
1.04712854805089e+003	(-2.00001095302564e+001dB,1.79926360849058e+002°)
1.07151930523760e+003	(-2.00001095519251e+001dB,1.79924645572181e+002°)
1.09647819614318e+003	(-2.00001095746150e+001dB,1.79922890341324e+002°)
1.12201845430196e+003	(-2.00001095983742e+001dB,1.79921094225834e+002°)
1.14815362149688e+003	(-2.00001096232532e+001dB,1.79919256273382e+002°)
1.17489755493952e+003	(-2.00001096493047e+001dB,1.79917375509456e+002°)
1.20226443461741e+003	(-2.00001096765840e+001dB,1.79915450936845e+002°)
1.23026877081237e+003	(-2.00001097051490e+001dB,1.79913481535107e+002°)
1.25892541179416e+003	(-2.00001097350602e+001dB,1.79911466260034e+002°)
1.28824955169313e+003	(-2.00001097663811e+001dB,1.79909404043093e+002°)
1.31825673855640e+003	(-2.00001097991781e+001dB,1.79907293790862e+002°)
1.34896288259165e+003	(-2.00001098335209e+001dB,1.79905134384448e+002°)
1.38038426460288e+003	(-2.00001098694821e+001dB,1.79902924678897e+002°)
1.41253754462275e+003	(-2.00001099071383e+001dB,1.79900663502584e+002°)
1.44543977074592e+003	(-2.00001099465691e+001dB,1.79898349656595e+002°)
1.47910838816820e+003	(-2.00001099878583e+001dB,1.79895981914085e+002°)
1.51356124843620e+003	(-2.00001100310934e+001dB,1.79893559019635e+002°)
1.54881661891247e+003	(-2.00001100763662e+001dB,1.79891079688582e+002°)
1.58489319246110e+003	(-2.00001101237727e+001dB,1.79888542606338e+002°)
1.62181009735892e+003	(-2.00001101734134e+001dB,1.79885946427695e+002°)
1.65958690743755e+003	(-2.00001102253936e+001dB,1.79883289776108e+002°)
1.69824365246173e+003	(-2.00001102798237e+001dB,1.79880571242971e+002°)
1.73780082874936e+003	(-2.00001103368191e+001dB,1.79877789386862e+002°)
1.77827941003891e+003	(-2.00001103965006e+001dB,1.79874942732786e+002°)
1.81970085860997e+003	(-2.00001104589949e+001dB,1.79872029771389e+002°)
1.86208713666286e+003	(-2.00001105244346e+001dB,1.79869048958160e+002°)
1.90546071796323e+003	(-2.00001105929585e+001dB,1.79865998712607e+002°)
1.94984459975803e+003	(-2.00001106647119e+001dB,1.79862877417426e+002°)
1.99526231496887e+003	(-2.00001107398471e+001dB,1.79859683417638e+002°)
2.04173794466952e+003	(-2.00001108185234e+001dB,1.79856415019714e+002°)
2.08929613085403e+003	(-2.00001109009077e+001dB,1.79853070490675e+002°)
2.13796208950222e+003	(-2.00001109871749e+001dB,1.79849648057174e+002°)
2.18776162394954e+003	(-2.00001110775079e+001dB,1.79846145904558e+002°)
2.23872113856832e+003	(-2.00001111720983e+001dB,1.79842562175901e+002°)
2.29086765276776e+003	(-2.00001112711469e+001dB,1.79838894971023e+002°)
2.34422881531991e+003	(-2.00001113748637e+001dB,1.79835142345479e+002°)
2.39883291901947e+003	(-2.00001114834687e+001dB,1.79831302309531e+002°)
2.45470891568501e+003	(-2.00001115971925e+001dB,1.79827372827093e+002°)
2.51188643150956e+003	(-2.00001117162762e+001dB,1.79823351814648e+002°)
2.57039578276885e+003	(-2.00001118409724e+001dB,1.79819237140144e+002°)
2.63026799189536e+003	(-2.00001119715458e+001dB,1.79815026621866e+002°)
2.69153480392690e+003	(-2.00001121082733e+001dB,1.79810718027276e+002°)
2.75422870333815e+003	(-2.00001122514450e+001dB,1.79806309071830e+002°)
2.81838293126443e+003	(-2.00001124013647e+001dB,1.79801797417767e+002°)
2.88403150312659e+003	(-2.00001125583504e+001dB,1.79797180672867e+002°)
2.95120922666636e+003	(-2.00001127227351e+001dB,1.79792456389185e+002°)
3.01995172040199e+003	(-2.00001128948678e+001dB,1.79787622061752e+002°)
3.09029543251357e+003	(-2.00001130751134e+001dB,1.79782675127243e+002°)
3.16227766016836e+003	(-2.00001132638546e+001dB,1.79777612962623e+002°)
3.23593656929626e+003	(-2.00001134614916e+001dB,1.79772432883752e+002°)
3.31131121482589e+003	(-2.00001136684440e+001dB,1.79767132143962e+002°)
3.38844156139200e+003	(-2.00001138851506e+001dB,1.79761707932600e+002°)
3.46736850452529e+003	(-2.00001141120715e+001dB,1.79756157373537e+002°)
3.54813389233573e+003	(-2.00001143496880e+001dB,1.79750477523644e+002°)
3.63078054770099e+003	(-2.00001145985044e+001dB,1.79744665371230e+002°)
3.71535229097170e+003	(-2.00001148590485e+001dB,1.79738717834442e+002°)
3.80189396320558e+003	(-2.00001151318733e+001dB,1.79732631759633e+002°)
3.89045144994278e+003	(-2.00001154175577e+001dB,1.79726403919690e+002°)
3.98107170553494e+003	(-2.00001157167079e+001dB,1.79720031012316e+002°)
4.07380277804110e+003	(-2.00001160299586e+001dB,1.79713509658287e+002°)
4.16869383470332e+003	(-2.00001163579747e+001dB,1.79706836399651e+002°)
4.26579518801589e+003	(-2.00001167014523e+001dB,1.79700007697898e+002°)
4.36515832240162e+003	(-2.00001170611202e+001dB,1.79693019932081e+002°)
4.46683592150960e+003	(-2.00001174377417e+001dB,1.79685869396897e+002°)
4.57088189614871e+003	(-2.00001178321162e+001dB,1.79678552300716e+002°)
4.67735141287194e+003	(-2.00001182450806e+001dB,1.79671064763574e+002°)
4.78630092322634e+003	(-2.00001186775114e+001dB,1.79663402815114e+002°)
4.89778819368442e+003	(-2.00001191303265e+001dB,1.79655562392475e+002°)
5.01187233627268e+003	(-2.00001196044867e+001dB,1.79647539338140e+002°)
5.12861383991361e+003	(-2.00001201009988e+001dB,1.79639329397727e+002°)
5.24807460249768e+003	(-2.00001206209165e+001dB,1.79630928217733e+002°)
5.37031796370248e+003	(-2.00001211653434e+001dB,1.79622331343222e+002°)
5.49540873857620e+003	(-2.00001217354353e+001dB,1.79613534215462e+002°)
5.62341325190344e+003	(-2.00001223324025e+001dB,1.79604532169504e+002°)
5.75439937337152e+003	(-2.00001229575121e+001dB,1.79595320431705e+002°)
