Freq.	V(vo)
Step Information: 1=1  (Run: 1/11)
1.00000000000000e+001	(-44.8394970031885dB,-90.006338855397°)
1.02329299228075e+001	(-44.6394970041346dB,-90.0064865063067°)
1.04712854805090e+001	(-44.4394970051252dB,-90.0066375964479°)
1.07151930523761e+001	(-44.2394970061625dB,-90.0067922059305°)
1.09647819614319e+001	(-44.0394970072487dB,-90.0069504167306°)
1.12201845430196e+001	(-43.8394970083861dB,-90.0071123127337°)
1.14815362149688e+001	(-43.6394970095771dB,-90.007277979779°)
1.17489755493953e+001	(-43.4394970108243dB,-90.0074475057056°)
1.20226443461741e+001	(-43.2394970121302dB,-90.0076209803983°)
1.23026877081238e+001	(-43.0394970134976dB,-90.0077984958356°)
1.25892541179417e+001	(-42.8394970149295dB,-90.0079801461386°)
1.28824955169313e+001	(-42.6394970164289dB,-90.0081660276207°)
1.31825673855641e+001	(-42.439497017999dB,-90.0083562388387°)
1.34896288259165e+001	(-42.239497019643dB,-90.0085508806451°)
1.38038426460288e+001	(-42.0394970213645dB,-90.0087500562416°)
1.41253754462275e+001	(-41.8394970231672dB,-90.0089538712337°)
1.44543977074593e+001	(-41.6394970250548dB,-90.0091624336868°)
1.47910838816821e+001	(-41.4394970270314dB,-90.0093758541835°)
1.51356124843621e+001	(-41.2394970291011dB,-90.0095942458821°)
1.54881661891248e+001	(-41.0394970312684dB,-90.0098177245768°)
1.58489319246111e+001	(-40.8394970335378dB,-90.010046408759°)
1.62181009735893e+001	(-40.6394970359141dB,-90.0102804196801°)
1.65958690743756e+001	(-40.4394970384025dB,-90.0105198814157°)
1.69824365246174e+001	(-40.2394970410081dB,-90.0107649209316°)
1.73780082874937e+001	(-40.0394970437365dB,-90.011015668151°)
1.77827941003892e+001	(-39.8394970465936dB,-90.0112722560234°)
1.81970085860998e+001	(-39.6394970495852dB,-90.011534820595°)
1.86208713666287e+001	(-39.4394970527179dB,-90.0118035010812°)
1.90546071796325e+001	(-39.2394970559982dB,-90.0120784399398°)
1.94984459975804e+001	(-39.039497059433dB,-90.012359782947°)
1.99526231496888e+001	(-38.8394970630298dB,-90.0126476792746°)
2.04173794466953e+001	(-38.6394970667961dB,-90.0129422815691°)
2.08929613085404e+001	(-38.4394970707399dB,-90.0132437460325°)
2.13796208950223e+001	(-38.2394970748695dB,-90.0135522325051°)
2.18776162394955e+001	(-38.0394970791938dB,-90.0138679045508°)
2.23872113856834e+001	(-37.8394970837218dB,-90.0141909295428°)
2.29086765276777e+001	(-37.6394970884633dB,-90.0145214787534°)
2.34422881531992e+001	(-37.4394970934282dB,-90.014859727444°)
2.39883291901949e+001	(-37.2394970986271dB,-90.0152058549586°)
2.45470891568503e+001	(-37.0394971040711dB,-90.0155600448187°)
2.51188643150958e+001	(-36.8394971097716dB,-90.0159224848202°)
2.57039578276886e+001	(-36.6394971157407dB,-90.0162933671338°)
2.63026799189538e+001	(-36.4394971219912dB,-90.016672888406°)
2.69153480392691e+001	(-36.2394971285362dB,-90.0170612498642°)
2.75422870333816e+001	(-36.0394971353897dB,-90.0174586574225°)
2.81838293126445e+001	(-35.8394971425662dB,-90.0178653217919°)
2.88403150312660e+001	(-35.6394971500809dB,-90.018281458591°)
2.95120922666638e+001	(-35.4394971579498dB,-90.0187072884611°)
3.01995172040201e+001	(-35.2394971661895dB,-90.0191430371829°)
3.09029543251359e+001	(-35.0394971748176dB,-90.0195889357959°)
3.16227766016838e+001	(-34.8394971838522dB,-90.0200452207216°)
3.23593656929628e+001	(-34.6394971933127dB,-90.0205121338883°)
3.31131121482591e+001	(-34.439497203219dB,-90.0209899228594°)
3.38844156139202e+001	(-34.2394972135922dB,-90.0214788409649°)
3.46736850452531e+001	(-34.0394972244543dB,-90.0219791474356°)
3.54813389233575e+001	(-33.8394972358283dB,-90.0224911075407°)
3.63078054770101e+001	(-33.6394972477383dB,-90.0230149927282°)
3.71535229097172e+001	(-33.4394972602096dB,-90.0235510807687°)
3.80189396320561e+001	(-33.2394972732687dB,-90.0240996559033°)
3.89045144994280e+001	(-33.0394972869432dB,-90.0246610089937°)
3.98107170553497e+001	(-32.8394973012622dB,-90.0252354376767°)
4.07380277804112e+001	(-32.639497316256dB,-90.025823246522°)
4.16869383470335e+001	(-32.4394973319565dB,-90.0264247471934°)
4.26579518801592e+001	(-32.2394973483969dB,-90.0270402586146°)
4.36515832240165e+001	(-32.0394973656121dB,-90.0276701071378°)
4.46683592150962e+001	(-31.8394973836386dB,-90.0283146267168°)
4.57088189614874e+001	(-31.6394974025147dB,-90.0289741590846°)
4.67735141287197e+001	(-31.4394974222805dB,-90.0296490539337°)
4.78630092322638e+001	(-31.2394974429777dB,-90.0303396691023°)
4.89778819368445e+001	(-31.0394974646504dB,-90.0310463707635°)
5.01187233627271e+001	(-30.8394974873444dB,-90.0317695336198°)
5.12861383991364e+001	(-30.6394975111081dB,-90.0325095411017°)
5.24807460249772e+001	(-30.4394975359916dB,-90.0332667855708°)
5.37031796370252e+001	(-30.2394975620479dB,-90.0340416685279°)
5.49540873857624e+001	(-30.0394975893322dB,-90.0348346008262°)
5.62341325190348e+001	(-29.8394976179023dB,-90.0356460028886°)
5.75439937337156e+001	(-29.6394976478189dB,-90.0364763049312°)
5.88843655355588e+001	(-29.4394976791455dB,-90.0373259471909°)
6.02559586074357e+001	(-29.2394977119484dB,-90.0381953801591°)
6.16595001861481e+001	(-29.0394977462972dB,-90.0390850648204°)
6.30957344480192e+001	(-28.8394977822649dB,-90.0399954728973°)
6.45654229034654e+001	(-28.6394978199277dB,-90.0409270870998°)
6.60693448007595e+001	(-28.4394978593655dB,-90.041880401382°)
6.76082975391980e+001	(-28.2394979006619dB,-90.0428559212035°)
6.91830970918935e+001	(-28.0394979439046dB,-90.0438541637974°)
7.07945784384136e+001	(-27.8394979891852dB,-90.044875658445°)
7.24435960074988e+001	(-27.6394980365998dB,-90.0459209467558°)
7.41310241300916e+001	(-27.439498086249dB,-90.0469905829552°)
7.58577575029182e+001	(-27.2394981382382dB,-90.0480851341782°)
7.76247116628690e+001	(-27.0394981926774dB,-90.0492051807699°)
7.94328234724279e+001	(-26.8394982496824dB,-90.0503513165933°)
8.12830516164097e+001	(-26.6394983093739dB,-90.0515241493444°)
8.31763771102669e+001	(-26.4394983718785dB,-90.0527243008742°)
8.51138038202374e+001	(-26.2394984373289dB,-90.0539524075184°)
8.70963589956078e+001	(-26.0394985058639dB,-90.0552091204348°)
8.91250938133743e+001	(-25.8394985776289dB,-90.0564951059486°)
9.12010839355907e+001	(-25.639498652776dB,-90.0578110459058°)
9.33254300796988e+001	(-25.4394987314647dB,-90.0591576380343°)
9.54992586021433e+001	(-25.2394988138619dB,-90.0605355963146°)
9.77237220955808e+001	(-25.0394989001424dB,-90.0619456513574°)
9.99999999999997e+001	(-24.8394989904891dB,-90.0633885507918°)
1.02329299228075e+002	(-24.6394990850937dB,-90.0648650596612°)
1.04712854805090e+002	(-24.4394991841569dB,-90.0663759608293°)
1.07151930523760e+002	(-24.2394992878888dB,-90.0679220553948°)
1.09647819614318e+002	(-24.0394993965095dB,-90.0695041631163°)
1.12201845430196e+002	(-23.8394995102493dB,-90.0711231228472°)
1.14815362149688e+002	(-23.6394996293494dB,-90.0727797929799°)
1.17489755493953e+002	(-23.4394997540626dB,-90.0744750519017°)
1.20226443461741e+002	(-23.2394998846533dB,-90.0762097984596°)
1.23026877081238e+002	(-23.0395000213986dB,-90.0779849524378°)
1.25892541179416e+002	(-22.8395001645885dB,-90.0798014550446°)
1.28824955169313e+002	(-22.6395003145267dB,-90.0816602694121°)
1.31825673855640e+002	(-22.4395004715313dB,-90.0835623811061°)
1.34896288259165e+002	(-22.2395006359353dB,-90.0855087986495°)
1.38038426460288e+002	(-22.0395008080874dB,-90.0875005540563°)
1.41253754462275e+002	(-21.8395009883528dB,-90.0895387033793°)
1.44543977074592e+002	(-21.6395011771139dB,-90.0916243272696°)
1.47910838816820e+002	(-21.4395013747709dB,-90.0937585315498°)
1.51356124843620e+002	(-21.2395015817433dB,-90.0959424478004°)
1.54881661891248e+002	(-21.0395017984699dB,-90.0981772339596°)
1.58489319246111e+002	(-20.8395020254106dB,-90.1004640749371°)
1.62181009735892e+002	(-20.6395022630467dB,-90.1028041832428°)
1.65958690743755e+002	(-20.4395025118821dB,-90.105198799629°)
1.69824365246174e+002	(-20.2395027724449dB,-90.107649193749°)
1.73780082874937e+002	(-20.0395030452875dB,-90.1101566648297°)
1.77827941003892e+002	(-19.8395033309889dB,-90.1127225423607°)
1.81970085860998e+002	(-19.6395036301549dB,-90.1153481867991°)
1.86208713666286e+002	(-19.4395039434202dB,-90.1180349902909°)
1.90546071796324e+002	(-19.2395042714493dB,-90.120784377409°)
1.94984459975804e+002	(-19.0395046149378dB,-90.1235978059084°)
1.99526231496887e+002	(-18.8395049746145dB,-90.1264767674996°)
2.04173794466952e+002	(-18.6395053512422dB,-90.1294227886389°)
2.08929613085403e+002	(-18.4395057456198dB,-90.1324374313378°)
2.13796208950222e+002	(-18.2395061585838dB,-90.1355222939916°)
2.18776162394954e+002	(-18.0395065910102dB,-90.1386790122264°)
2.23872113856833e+002	(-17.8395070438163dB,-90.1419092597664°)
2.29086765276776e+002	(-17.6395075179624dB,-90.1452147493215°)
2.34422881531991e+002	(-17.4395080144543dB,-90.1485972334951°)
2.39883291901948e+002	(-17.2395085343452dB,-90.1520585057133°)
2.45470891568502e+002	(-17.0395090787378dB,-90.1556004011759°)
2.51188643150957e+002	(-16.8395096487867dB,-90.1592247978293°)
2.57039578276885e+002	(-16.6395102457012dB,-90.1629336173622°)
2.63026799189537e+002	(-16.4395108707475dB,-90.1667288262243°)
2.69153480392690e+002	(-16.2395115252512dB,-90.1706124366692°)
2.75422870333816e+002	(-16.0395122106007dB,-90.1745865078206°)
2.81838293126444e+002	(-15.8395129282497dB,-90.1786531467648°)
2.88403150312659e+002	(-15.6395136797204dB,-90.1828145096672°)
2.95120922666637e+002	(-15.4395144666069dB,-90.1870728029156°)
3.01995172040200e+002	(-15.2395152905781dB,-90.1914302842902°)
3.09029543251358e+002	(-15.0395161533818dB,-90.1958892641602°)
3.16227766016837e+002	(-14.8395170568482dB,-90.2004521067089°)
3.23593656929627e+002	(-14.6395180028936dB,-90.205121231187°)
3.31131121482590e+002	(-14.4395189935247dB,-90.2098991131954°)
3.38844156139201e+002	(-14.2395200308427dB,-90.2147882859974°)
3.46736850452530e+002	(-14.039521117048dB,-90.2197913418617°)
3.54813389233574e+002	(-13.8395222544445dB,-90.2249109334367°)
3.63078054770100e+002	(-13.6395234454448dB,-90.2301497751573°)
3.71535229097171e+002	(-13.4395246925751dB,-90.2355106446829°)
3.80189396320559e+002	(-13.2395259984808dB,-90.2409963843711°)
3.89045144994279e+002	(-13.0395273659318dB,-90.2466099027835°)
3.98107170553495e+002	(-12.8395287978287dB,-90.2523541762285°)
4.07380277804111e+002	(-12.6395302972087dB,-90.2582322503385°)
4.16869383470333e+002	(-12.4395318672521dB,-90.2642472416846°)
4.26579518801591e+002	(-12.2395335112894dB,-90.2704023394292°)
4.36515832240164e+002	(-12.0395352328075dB,-90.2767008070158°)
4.46683592150961e+002	(-11.8395370354581dB,-90.2831459838997°)
4.57088189614873e+002	(-11.6395389230649dB,-90.289741287318°)
4.67735141287196e+002	(-11.4395408996316dB,-90.296490214101°)
4.78630092322636e+002	(-11.2395429693509dB,-90.303396342526°)
4.89778819368444e+002	(-11.0395451366128dB,-90.310463334214°)
5.01187233627270e+002	(-10.8395474060143dB,-90.3176949360707°)
5.12861383991362e+002	(-10.6395497823691dB,-90.3250949822727°)
5.24807460249770e+002	(-10.4395522707178dB,-90.3326673962997°)
5.37031796370250e+002	(-10.2395548763384dB,-90.3404161930144°)
5.49540873857622e+002	(-10.0395576047578dB,-90.3483454807906°)
5.62341325190346e+002	(-9.83956046176317dB,-90.3564594636908°)
5.75439937337154e+002	(-9.63956345341462dB,-90.3647624436943°)
5.88843655355586e+002	(-9.43956658605779dB,-90.3732588229779°)
6.02559586074355e+002	(-9.23956986633733dB,-90.3819531062486°)
6.16595001861479e+002	(-9.0395733012111dB,-90.3908499031316°)
6.30957344480190e+002	(-8.83957689796484dB,-90.3999539306132°)
6.45654229034652e+002	(-8.63958066422765dB,-90.4092700155408°)
6.60693448007592e+002	(-8.43958460798819dB,-90.4188030971812°)
6.76082975391978e+002	(-8.23958873761159dB,-90.4285582298384°)
6.91830970918933e+002	(-8.0395930618572dB,-90.4385405855317°)
7.07945784384134e+002	(-7.83959758989721dB,-90.4487554567373°)
7.24435960074986e+002	(-7.63960233133605dB,-90.4592082591923°)
7.41310241300914e+002	(-7.43960729623079dB,-90.4699045347653°)
7.58577575029180e+002	(-7.23961249511247dB,-90.4808499543927°)
7.76247116628688e+002	(-7.03961793900842dB,-90.4920503210842°)
7.94328234724277e+002	(-6.83962363946565dB,-90.5035115729969°)
8.12830516164095e+002	(-6.63962960857538dB,-90.5152397865826°)
8.31763771102666e+002	(-6.43963585899864dB,-90.5272411798072°)
8.51138038202372e+002	(-6.23964240399314dB,-90.5395221154449°)
8.70963589956076e+002	(-6.03964925744138dB,-90.5520891044497°)
8.91250938133741e+002	(-5.83965643388012dB,-90.5649488094047°)
9.12010839355905e+002	(-5.63966394853118dB,-90.5781080480521°)
9.33254300796986e+002	(-5.43967181733375dB,-90.5915737969046°)
9.54992586021431e+002	(-5.23968005697818dB,-90.6053531949413°)
9.77237220955805e+002	(-5.03968868494138dB,-90.6194535473896°)
9.99999999999994e+002	(-4.83969771952388dB,-90.6338823295944°)
1.02329299228075e+003	(-4.63970717988868dB,-90.6486471909777°)
1.04712854805089e+003	(-4.43971708610184dB,-90.6637559590901°)
1.07151930523760e+003	(-4.23972745917509dB,-90.6792166437565°)
1.09647819614318e+003	(-4.03973832111033dB,-90.6950374413178°)
1.12201845430196e+003	(-3.83974969494637dB,-90.7112267389718°)
1.14815362149688e+003	(-3.6397616048077dB,-90.7277931192139°)
1.17489755493952e+003	(-3.43977407595577dB,-90.744745364382°)
1.20226443461741e+003	(-3.23978713484242dB,-90.7620924613062°)
1.23026877081237e+003	(-3.03980080916613dB,-90.7798436060666°)
1.25892541179416e+003	(-2.83981512793064dB,-90.7980082088622°)
1.28824955169313e+003	(-2.63983012150653dB,-90.8165958989915°)
1.31825673855640e+003	(-2.43984582169559dB,-90.8356165299498°)
1.34896288259165e+003	(-2.23986226179829dB,-90.8550801846444°)
1.38038426460288e+003	(-2.03987947668438dB,-90.8749971807307°)
1.41253754462275e+003	(-1.83989750286687dB,-90.895378076072°)
1.44543977074592e+003	(-1.6399163785794dB,-90.9162336743261°)
1.47910838816820e+003	(-1.43993614385739dB,-90.9375750306613°)
1.51356124843620e+003	(-1.23995684062287dB,-90.9594134576048°)
1.54881661891247e+003	(-1.03997851277345dB,-90.9817605310269°)
1.58489319246110e+003	(-0.840001206275344dB,-91.0046280962635°)
1.62181009735892e+003	(-0.640024969260887dB,-91.0280282743805°)
1.65958690743755e+003	(-0.440049852130567dB,-91.0519734685832°)
1.69824365246173e+003	(-0.240075907659923dB,-91.0764763707746°)
1.73780082874936e+003	(-0.040103191111443dB,-91.1015499682642°)
1.77827941003891e+003	(0.159868239648273dB,-91.1272075506334°)
1.81970085860997e+003	(0.359838324025793dB,-91.1534627167588°)
1.86208713666286e+003	(0.559806998572375dB,-91.1803293819982°)
1.90546071796323e+003	(0.75977419684946dB,-91.2078217855424°)
1.94984459975803e+003	(0.959739849287793dB,-91.2359544979371°)
1.99526231496887e+003	(1.15970388303989dB,-91.2647424287783°)
2.04173794466952e+003	(1.35966622182567dB,-91.2942008345856°)
2.08929613085403e+003	(1.55962678577063dB,-91.3243453268565°)
2.13796208950222e+003	(1.75958549123659dB,-91.3551918803073°)
2.18776162394954e+003	(1.95954225064434dB,-91.3867568413034°)
2.23872113856832e+003	(2.15949697228797dB,-91.4190569364838°)
2.29086765276776e+003	(2.35944956014048dB,-91.4521092815845°)
2.34422881531991e+003	(2.5593999136502dB,-91.4859313904647°)
2.39883291901947e+003	(2.75934792752767dB,-91.5205411843409°)
2.45470891568501e+003	(2.95929349152241dB,-91.5559570012328°)
2.51188643150956e+003	(3.15923649018926dB,-91.5921976056263°)
2.57039578276885e+003	(3.35917680264367dB,-91.6292821983592°)
2.63026799189536e+003	(3.55911430230549dB,-91.6672304267322°)
2.69153480392690e+003	(3.75904885663069dB,-91.7060623948526°)
2.75422870333815e+003	(3.95898032683044dB,-91.7457986742154°)
2.81838293126443e+003	(4.15890856757696dB,-91.7864603145249°)
2.88403150312659e+003	(4.35883342669561dB,-91.8280688547659°)
2.95120922666636e+003	(4.55875474484232dB,-91.8706463345262°)
3.01995172040199e+003	(4.75867235516603dB,-91.9142153055783°)
3.09029543251357e+003	(4.95858608295509dB,-91.9587988437249°)
3.16227766016836e+003	(5.15849574526709dB,-92.004420560915°)
3.23593656929626e+003	(5.35840115054126dB,-92.0511046176347°)
3.31131121482589e+003	(5.55830209819266dB,-92.0988757355804°)
3.38844156139200e+003	(5.75819837818722dB,-92.1477592106194°)
3.46736850452529e+003	(5.95808977059681dB,-92.1977809260446°)
3.54813389233573e+003	(6.15797604513343dB,-92.2489673661295°)
3.63078054770099e+003	(6.3578569606614dB,-92.3013456299892°)
3.71535229097170e+003	(6.55773226468669dB,-92.3549434457552°)
3.80189396320558e+003	(6.75760169282215dB,-92.4097891850695°)
3.89045144994278e+003	(6.95746496822772dB,-92.4659118779049°)
3.98107170553494e+003	(7.15732180102414dB,-92.5233412277189°)
4.07380277804110e+003	(7.35717188767927dB,-92.5821076269468°)
4.16869383470332e+003	(7.55701491036547dB,-92.6422421728432°)
4.26579518801589e+003	(7.75685053628678dB,-92.7037766836758°)
4.36515832240162e+003	(7.95667841697451dB,-92.7667437152826°)
4.46683592150960e+003	(8.15649818754968dB,-92.8311765779957°)
4.57088189614871e+003	(8.35630946595089dB,-92.8971093539426°)
4.67735141287194e+003	(8.55611185212583dB,-92.9645769147298°)
4.78630092322634e+003	(8.75590492718487dB,-93.0336149395184°)
4.89778819368442e+003	(8.95568825251485dB,-93.104259933497°)
5.01187233627268e+003	(9.15546136885135dB,-93.1765492467621°)
5.12861383991361e+003	(9.3552237953073dB,-93.2505210936115°)
5.24807460249768e+003	(9.55497502835605dB,-93.3262145722601°)
5.37031796370248e+003	(9.75471454076674dB,-93.4036696849848°)
5.49540873857620e+003	(9.95444178048968dB,-93.4829273587074°)
5.62341325190344e+003	(10.1541561694894dB,-93.5640294660224°)
5.75439937337152e+003	(10.3538571025232dB,-93.6470188466788°)
5.88843655355584e+003	(10.5535439458619dB,-93.7319393295228°)
6.02559586074353e+003	(10.7532160359514dB,-93.8188357549095°)
6.16595001861477e+003	(10.9528726780109dB,-93.9077539975927°)
6.30957344480188e+003	(11.1525131445656dB,-93.9987409900992°)
6.45654229034650e+003	(11.3521366739108dB,-94.091844746596°)
6.60693448007590e+003	(11.5517424685039dB,-94.1871143872592°)
6.76082975391976e+003	(11.7513296932813dB,-94.2846001631498°)
6.91830970918931e+003	(11.9508974738966dB,-94.3843534816078°)
7.07945784384132e+003	(12.1504448948759dB,-94.486426932168°)
7.24435960074984e+003	(12.3499709976875dB,-94.5908743130084°)
7.41310241300911e+003	(12.5494747787212dB,-94.6977506579354°)
7.58577575029177e+003	(12.7489551871725dB,-94.8071122639155°)
7.76247116628685e+003	(12.948411122829dB,-94.9190167191578°)
7.94328234724275e+003	(13.1478414337528dB,-95.033522931756°)
8.12830516164092e+003	(13.347244913855dB,-95.1506911588936°)
8.31763771102664e+003	(13.5466203003569dB,-95.270583036621°)
8.51138038202369e+003	(13.7459662711332dB,-95.3932616102077°)
8.70963589956073e+003	(13.9452814419307dB,-95.5187913650747°)
8.91250938133738e+003	(14.1445643634583dB,-95.6472382583136°)
9.12010839355902e+003	(14.3438135183412dB,-95.7786697507944°)
9.33254300796983e+003	(14.543027317933dB,-95.9131548398656°)
9.54992586021428e+003	(14.7422040989806dB,-96.0507640926507°)
9.77237220955802e+003	(14.9413421201333dB,-96.1915696799416°)
9.99999999999991e+003	(15.1404395582903dB,-96.335645410691°)
1.02329299228075e+004	(15.3394945047783dB,-96.4830667671036°)
1.04712854805089e+004	(15.5385049613528dB,-96.6339109403259°)
1.07151930523760e+004	(15.7374688360134dB,-96.7882568667332°)
1.09647819614318e+004	(15.9363839386257dB,-96.9461852648092°)
1.12201845430195e+004	(16.135247976341dB,-97.1077786726174°)
1.14815362149687e+004	(16.3340585488045dB,-97.2731214858552°)
1.17489755493952e+004	(16.5328131431415dB,-97.4422999964864°)
1.20226443461740e+004	(16.7315091287144dB,-97.6154024319426°)
1.23026877081237e+004	(16.930143751636dB,-97.7925189948826°)
1.25892541179416e+004	(17.1287141290323dB,-97.973741903499°)
1.28824955169312e+004	(17.3272172430411dB,-98.1591654323565°)
1.31825673855640e+004	(17.525649934535dB,-98.3488859537453°)
1.34896288259164e+004	(17.7240088965575dB,-98.5430019795319°)
1.38038426460287e+004	(17.9222906674584dB,-98.7416142034843°)
1.41253754462274e+004	(18.1204916237157dB,-98.9448255440473°)
1.44543977074591e+004	(18.3186079724306dB,-99.1527411875415°)
1.47910838816819e+004	(18.5166357434803dB,-99.3654686317536°)
