Freq.	V(vo)/V(n003)
Step Information: 1=1  (Run: 1/11)
1.00000000000000e+001	(-4.48394980685138e+001dB,-9.00034785290989e+001°)
1.02329299228075e+001	(-4.46394980676958e+001dB,-9.00035595544507e+001°)
1.04712854805090e+001	(-4.44394980668393e+001dB,-9.00036424671255e+001°)
1.07151930523761e+001	(-4.42394980659424e+001dB,-9.00037273110845e+001°)
1.09647819614319e+001	(-4.40394980650032e+001dB,-9.00038141313133e+001°)
1.12201845430196e+001	(-4.38394980640198e+001dB,-9.00039029738450e+001°)
1.14815362149688e+001	(-4.36394980629900e+001dB,-9.00039938857852e+001°)
1.17489755493953e+001	(-4.34394980619117e+001dB,-9.00040869153365e+001°)
1.20226443461741e+001	(-4.32394980607826e+001dB,-9.00041821118245e+001°)
1.23026877081238e+001	(-4.30394980596003e+001dB,-9.00042795257235e+001°)
1.25892541179417e+001	(-4.28394980583623e+001dB,-9.00043792086839e+001°)
1.28824955169313e+001	(-4.26394980570659e+001dB,-9.00044812135587e+001°)
1.31825673855641e+001	(-4.24394980557084e+001dB,-9.00045855944323e+001°)
1.34896288259165e+001	(-4.22394980542869e+001dB,-9.00046924066488e+001°)
1.38038426460288e+001	(-4.20394980527984e+001dB,-9.00048017068416e+001°)
1.41253754462275e+001	(-4.18394980512398e+001dB,-9.00049135529629e+001°)
1.44543977074593e+001	(-4.16394980496078e+001dB,-9.00050280043152e+001°)
1.47910838816821e+001	(-4.14394980478988e+001dB,-9.00051451215820e+001°)
1.51356124843621e+001	(-4.12394980461092e+001dB,-9.00052649668605e+001°)
1.54881661891248e+001	(-4.10394980442354e+001dB,-9.00053876036942e+001°)
1.58489319246111e+001	(-4.08394980422732e+001dB,-9.00055130971069e+001°)
1.62181009735893e+001	(-4.06394980402185e+001dB,-9.00056415136367e+001°)
1.65958690743756e+001	(-4.04394980380671e+001dB,-9.00057729213718e+001°)
1.69824365246174e+001	(-4.02394980358142e+001dB,-9.00059073899864e+001°)
1.73780082874937e+001	(-4.00394980334551e+001dB,-9.00060449907776e+001°)
1.77827941003892e+001	(-3.98394980309849e+001dB,-9.00061857967031e+001°)
1.81970085860998e+001	(-3.96394980283982e+001dB,-9.00063298824200e+001°)
1.86208713666287e+001	(-3.94394980256897e+001dB,-9.00064773243245e+001°)
1.90546071796325e+001	(-3.92394980228535e+001dB,-9.00066282005924e+001°)
1.94984459975804e+001	(-3.90394980198836e+001dB,-9.00067825912201e+001°)
1.99526231496888e+001	(-3.88394980167737e+001dB,-9.00069405780678e+001°)
2.04173794466953e+001	(-3.86394980135173e+001dB,-9.00071022449021e+001°)
2.08929613085404e+001	(-3.84394980101075e+001dB,-9.00072676774409e+001°)
2.13796208950223e+001	(-3.82394980065369e+001dB,-9.00074369633988e+001°)
2.18776162394955e+001	(-3.80394980027980e+001dB,-9.00076101925334e+001°)
2.23872113856834e+001	(-3.78394979988830e+001dB,-9.00077874566932e+001°)
2.29086765276777e+001	(-3.76394979947834e+001dB,-9.00079688498659e+001°)
2.34422881531992e+001	(-3.74394979904906e+001dB,-9.00081544682287e+001°)
2.39883291901949e+001	(-3.72394979859955e+001dB,-9.00083444101990e+001°)
2.45470891568503e+001	(-3.70394979812886e+001dB,-9.00085387764864e+001°)
2.51188643150958e+001	(-3.68394979763599e+001dB,-9.00087376701466e+001°)
2.57039578276886e+001	(-3.66394979711988e+001dB,-9.00089411966357e+001°)
2.63026799189538e+001	(-3.64394979657945e+001dB,-9.00091494638661e+001°)
2.69153480392691e+001	(-3.62394979601355e+001dB,-9.00093625822640e+001°)
2.75422870333816e+001	(-3.60394979542099e+001dB,-9.00095806648276e+001°)
2.81838293126445e+001	(-3.58394979480049e+001dB,-9.00098038271871e+001°)
2.88403150312660e+001	(-3.56394979415075e+001dB,-9.00100321876663e+001°)
2.95120922666638e+001	(-3.54394979347039e+001dB,-9.00102658673450e+001°)
3.01995172040201e+001	(-3.52394979275797e+001dB,-9.00105049901232e+001°)
3.09029543251359e+001	(-3.50394979201197e+001dB,-9.00107496827872e+001°)
3.16227766016838e+001	(-3.48394979123081e+001dB,-9.00110000750762e+001°)
3.23593656929628e+001	(-3.46394979041284e+001dB,-9.00112562997516e+001°)
3.31131121482591e+001	(-3.44394978955632e+001dB,-9.00115184926673e+001°)
3.38844156139202e+001	(-3.42394978865943e+001dB,-9.00117867928414e+001°)
3.46736850452531e+001	(-3.40394978772028e+001dB,-9.00120613425303e+001°)
3.54813389233575e+001	(-3.38394978673686e+001dB,-9.00123422873041e+001°)
3.63078054770101e+001	(-3.36394978570709e+001dB,-9.00126297761233e+001°)
3.71535229097172e+001	(-3.34394978462880e+001dB,-9.00129239614187e+001°)
3.80189396320561e+001	(-3.32394978349968e+001dB,-9.00132249991710e+001°)
3.89045144994280e+001	(-3.30394978231735e+001dB,-9.00135330489948e+001°)
3.98107170553497e+001	(-3.28394978107930e+001dB,-9.00138482742221e+001°)
4.07380277804112e+001	(-3.26394977978290e+001dB,-9.00141708419898e+001°)
4.16869383470335e+001	(-3.24394977842541e+001dB,-9.00145009233277e+001°)
4.26579518801592e+001	(-3.22394977700394e+001dB,-9.00148386932494e+001°)
4.36515832240165e+001	(-3.20394977551547e+001dB,-9.00151843308452e+001°)
4.46683592150962e+001	(-3.18394977395686e+001dB,-9.00155380193769e+001°)
4.57088189614874e+001	(-3.16394977232479e+001dB,-9.00158999463750e+001°)
4.67735141287197e+001	(-3.14394977061581e+001dB,-9.00162703037382e+001°)
4.78630092322638e+001	(-3.12394976882628e+001dB,-9.00166492878351e+001°)
4.89778819368445e+001	(-3.10394976695242e+001dB,-9.00170370996084e+001°)
5.01187233627271e+001	(-3.08394976499024e+001dB,-9.00174339446811e+001°)
5.12861383991364e+001	(-3.06394976293559e+001dB,-9.00178400334662e+001°)
5.24807460249772e+001	(-3.04394976078410e+001dB,-9.00182555812775e+001°)
5.37031796370252e+001	(-3.02394975853122e+001dB,-9.00186808084443e+001°)
5.49540873857624e+001	(-3.00394975617217e+001dB,-9.00191159404280e+001°)
5.62341325190348e+001	(-2.98394975370193e+001dB,-9.00195612079417e+001°)
5.75439937337156e+001	(-2.96394975111528e+001dB,-9.00200168470725e+001°)
5.88843655355588e+001	(-2.94394974840672e+001dB,-9.00204830994068e+001°)
6.02559586074357e+001	(-2.92394974557051e+001dB,-9.00209602121580e+001°)
6.16595001861481e+001	(-2.90394974260064e+001dB,-9.00214484382983e+001°)
6.30957344480192e+001	(-2.88394973949079e+001dB,-9.00219480366920e+001°)
6.45654229034654e+001	(-2.86394973623439e+001dB,-9.00224592722334e+001°)
6.60693448007595e+001	(-2.84394973282452e+001dB,-9.00229824159869e+001°)
6.76082975391980e+001	(-2.82394972925394e+001dB,-9.00235177453308e+001°)
6.91830970918935e+001	(-2.80394972551509e+001dB,-9.00240655441046e+001°)
7.07945784384136e+001	(-2.78394972160003e+001dB,-9.00246261027592e+001°)
7.24435960074988e+001	(-2.76394971750046e+001dB,-9.00251997185108e+001°)
7.41310241300916e+001	(-2.74394971320769e+001dB,-9.00257866954990e+001°)
7.58577575029182e+001	(-2.72394970871260e+001dB,-9.00263873449476e+001°)
7.76247116628690e+001	(-2.70394970400566e+001dB,-9.00270019853299e+001°)
7.94328234724279e+001	(-2.68394969907690e+001dB,-9.00276309425374e+001°)
8.12830516164097e+001	(-2.66394969391585e+001dB,-9.00282745500525e+001°)
8.31763771102669e+001	(-2.64394968851156e+001dB,-9.00289331491256e+001°)
8.51138038202374e+001	(-2.62394968285258e+001dB,-9.00296070889559e+001°)
8.70963589956078e+001	(-2.60394967692690e+001dB,-9.00302967268766e+001°)
8.91250938133743e+001	(-2.58394967072195e+001dB,-9.00310024285442e+001°)
9.12010839355907e+001	(-2.56394966422457e+001dB,-9.00317245681326e+001°)
9.33254300796988e+001	(-2.54394965742098e+001dB,-9.00324635285315e+001°)
9.54992586021433e+001	(-2.52394965029675e+001dB,-9.00332197015492e+001°)
9.77237220955808e+001	(-2.50394964283676e+001dB,-9.00339934881204e+001°)
9.99999999999997e+001	(-2.48394963502519e+001dB,-9.00347852985191e+001°)
1.02329299228075e+002	(-2.46394962684548e+001dB,-9.00355955525759e+001°)
1.04712854805090e+002	(-2.44394961828027e+001dB,-9.00364246799003e+001°)
1.07151930523760e+002	(-2.42394960931139e+001dB,-9.00372731201092e+001°)
1.09647819614318e+002	(-2.40394959991982e+001dB,-9.00381413230594e+001°)
1.12201845430196e+002	(-2.38394959008564e+001dB,-9.00390297490866e+001°)
1.14815362149688e+002	(-2.36394957978799e+001dB,-9.00399388692490e+001°)
1.17489755493953e+002	(-2.34394956900502e+001dB,-9.00408691655773e+001°)
1.20226443461741e+002	(-2.32394955771387e+001dB,-9.00418211313305e+001°)
1.23026877081238e+002	(-2.30394954589059e+001dB,-9.00427952712572e+001°)
1.25892541179416e+002	(-2.28394953351009e+001dB,-9.00437921018633e+001°)
1.28824955169313e+002	(-2.26394952054611e+001dB,-9.00448121516859e+001°)
1.31825673855640e+002	(-2.24394950697117e+001dB,-9.00458559615734e+001°)
1.34896288259165e+002	(-2.22394949275645e+001dB,-9.00469240849727e+001°)
1.38038426460288e+002	(-2.20394947787182e+001dB,-9.00480170882222e+001°)
1.41253754462275e+002	(-2.18394946228570e+001dB,-9.00491355508523e+001°)
1.44543977074592e+002	(-2.16394944596502e+001dB,-9.00502800658929e+001°)
1.47910838816820e+002	(-2.14394942887518e+001dB,-9.00514512401874e+001°)
1.51356124843620e+002	(-2.12394941097992e+001dB,-9.00526496947149e+001°)
1.54881661891248e+002	(-2.10394939224128e+001dB,-9.00538760649194e+001°)
1.58489319246111e+002	(-2.08394937261951e+001dB,-9.00551310010465e+001°)
1.62181009735892e+002	(-2.06394935207300e+001dB,-9.00564151684887e+001°)
1.65958690743755e+002	(-2.04394933055816e+001dB,-9.00577292481376e+001°)
1.69824365246174e+002	(-2.02394930802936e+001dB,-9.00590739367455e+001°)
1.73780082874937e+002	(-2.00394928443881e+001dB,-9.00604499472947e+001°)
1.77827941003892e+002	(-1.98394925973648e+001dB,-9.00618580093755e+001°)
1.81970085860998e+002	(-1.96394923386996e+001dB,-9.00632988695732e+001°)
1.86208713666286e+002	(-1.94394920678438e+001dB,-9.00647732918639e+001°)
1.90546071796324e+002	(-1.92394917842231e+001dB,-9.00662820580196e+001°)
1.94984459975804e+002	(-1.90394914872357e+001dB,-9.00678259680232e+001°)
1.99526231496887e+002	(-1.88394911762517e+001dB,-9.00694058404921e+001°)
2.04173794466952e+002	(-1.86394908506116e+001dB,-9.00710225131127e+001°)
2.08929613085403e+002	(-1.84394905096245e+001dB,-9.00726768430845e+001°)
2.13796208950222e+002	(-1.82394901525672e+001dB,-9.00743697075749e+001°)
2.18776162394954e+002	(-1.80394897786823e+001dB,-9.00761020041841e+001°)
2.23872113856833e+002	(-1.78394893871767e+001dB,-9.00778746514211e+001°)
2.29086765276776e+002	(-1.76394889772201e+001dB,-9.00796885891913e+001°)
2.34422881531991e+002	(-1.74394885479429e+001dB,-9.00815447792944e+001°)
2.39883291901948e+002	(-1.72394880984344e+001dB,-9.00834442059346e+001°)
2.45470891568502e+002	(-1.70394876277413e+001dB,-9.00853878762428e+001°)
2.51188643150957e+002	(-1.68394871348651e+001dB,-9.00873768208107e+001°)
2.57039578276885e+002	(-1.66394866187604e+001dB,-9.00894120942370e+001°)
2.63026799189537e+002	(-1.64394860783325e+001dB,-9.00914947756874e+001°)
2.69153480392690e+002	(-1.62394855124350e+001dB,-9.00936259694662e+001°)
2.75422870333816e+002	(-1.60394849198677e+001dB,-9.00958068056027e+001°)
2.81838293126444e+002	(-1.58394842993735e+001dB,-9.00980384404500e+001°)
2.88403150312659e+002	(-1.56394836496364e+001dB,-9.01003220572987e+001°)
2.95120922666637e+002	(-1.54394829692781e+001dB,-9.01026588670044e+001°)
3.01995172040200e+002	(-1.52394822568556e+001dB,-9.01050501086298e+001°)
3.09029543251358e+002	(-1.50394815108577e+001dB,-9.01074970501023e+001°)
3.16227766016837e+002	(-1.48394807297021e+001dB,-9.01100009888862e+001°)
3.23593656929627e+002	(-1.46394799117317e+001dB,-9.01125632526711e+001°)
3.31131121482590e+002	(-1.44394790552117e+001dB,-9.01151852000761e+001°)
3.38844156139201e+002	(-1.42394781583253e+001dB,-9.01178682213708e+001°)
3.46736850452530e+002	(-1.40394772191699e+001dB,-9.01206137392123e+001°)
3.54813389233574e+002	(-1.38394762357536e+001dB,-9.01234232094004e+001°)
3.63078054770100e+002	(-1.36394752059905e+001dB,-9.01262981216495e+001°)
3.71535229097171e+002	(-1.34394741276962e+001dB,-9.01292400003793e+001°)
3.80189396320559e+002	(-1.32394729985835e+001dB,-9.01322504055233e+001°)
3.89045144994279e+002	(-1.30394718162576e+001dB,-9.01353309333566e+001°)
3.98107170553495e+002	(-1.28394705782104e+001dB,-9.01384832173427e+001°)
4.07380277804111e+002	(-1.26394692818161e+001dB,-9.01417089290001e+001°)
4.16869383470333e+002	(-1.24394679243248e+001dB,-9.01450097787896e+001°)
4.26579518801591e+002	(-1.22394665028570e+001dB,-9.01483875170214e+001°)
4.36515832240164e+002	(-1.20394650143977e+001dB,-9.01518439347844e+001°)
4.46683592150961e+002	(-1.18394634557897e+001dB,-9.01553808648961e+001°)
4.57088189614873e+002	(-1.16394618237271e+001dB,-9.01590001828757e+001°)
4.67735141287196e+002	(-1.14394601147479e+001dB,-9.01627038079392e+001°)
4.78630092322636e+002	(-1.12394583252273e+001dB,-9.01664937040183e+001°)
4.89778819368444e+002	(-1.10394564513696e+001dB,-9.01703718808020e+001°)
5.01187233627270e+002	(-1.08394544891999e+001dB,-9.01743403948042e+001°)
5.12861383991362e+002	(-1.06394524345565e+001dB,-9.01784013504548e+001°)
5.24807460249770e+002	(-1.04394502830811e+001dB,-9.01825569012168e+001°)
5.37031796370250e+002	(-1.02394480302103e+001dB,-9.01868092507296e+001°)
5.49540873857622e+002	(-1.00394456711654e+001dB,-9.01911606539790e+001°)
5.62341325190346e+002	(-9.83944320094271e+000dB,-9.01956134184939e+001°)
5.75439937337154e+002	(-9.63944061430262e+000dB,-9.02001699055723e+001°)
5.88843655355586e+002	(-9.43943790575860e+000dB,-9.02048325315344e+001°)
6.02559586074355e+002	(-9.23943506956556e+000dB,-9.02096037690060e+001°)
6.16595001861479e+002	(-9.03943209970765e+000dB,-9.02144861482318e+001°)
6.30957344480190e+002	(-8.83942898988552e+000dB,-9.02194822584188e+001°)
6.45654229034652e+002	(-8.63942573350294e+000dB,-9.02245947491119e+001°)
6.60693448007592e+002	(-8.43942232365283e+000dB,-9.02298263316013e+001°)
6.76082975391978e+002	(-8.23941875310258e+000dB,-9.02351797803626e+001°)
6.91830970918933e+002	(-8.03941501427874e+000dB,-9.02406579345309e+001°)
7.07945784384134e+002	(-7.83941109925094e+000dB,-9.02462636994094e+001°)
7.24435960074986e+002	(-7.63940699971507e+000dB,-9.02520000480133e+001°)
7.41310241300914e+002	(-7.43940270697570e+000dB,-9.02578700226496e+001°)
7.58577575029180e+002	(-7.23939821192757e+000dB,-9.02638767365343e+001°)
7.76247116628688e+002	(-7.03939350503633e+000dB,-9.02700233754469e+001°)
7.94328234724277e+002	(-6.83938857631834e+000dB,-9.02763131994245e+001°)
8.12830516164095e+002	(-6.63938341531942e+000dB,-9.02827495444947e+001°)
8.31763771102666e+002	(-6.43937801109275e+000dB,-9.02893358244499e+001°)
8.51138038202372e+002	(-6.23937235217560e+000dB,-9.02960755326626e+001°)
8.70963589956076e+002	(-6.03936642656506e+000dB,-9.03029722439437e+001°)
8.91250938133741e+002	(-5.83936022169257e+000dB,-9.03100296164443e+001°)
9.12010839355905e+002	(-5.63935372439725e+000dB,-9.03172513936019e+001°)
9.33254300796986e+002	(-5.43934692089799e+000dB,-9.03246414061326e+001°)
9.54992586021431e+002	(-5.23933979676427e+000dB,-9.03322035740701e+001°)
9.77237220955805e+002	(-5.03933233688548e+000dB,-9.03399419088523e+001°)
9.99999999999994e+002	(-4.83932452543893e+000dB,-9.03478605154575e+001°)
1.02329299228075e+003	(-4.63931634585626e+000dB,-9.03559635945902e+001°)
1.04712854805089e+003	(-4.43930778078834e+000dB,-9.03642554449187e+001°)
1.07151930523760e+003	(-4.23929881206845e+000dB,-9.03727404653654e+001°)
1.09647819614318e+003	(-4.03928942067376e+000dB,-9.03814231574512e+001°)
1.12201845430196e+003	(-3.83927958668498e+000dB,-9.03903081276945e+001°)
1.14815362149688e+003	(-3.63926928924412e+000dB,-9.03994000900674e+001°)
1.17489755493952e+003	(-3.43925850651031e+000dB,-9.04087038685097e+001°)
1.20226443461741e+003	(-3.23924721561338e+000dB,-9.04182243995022e+001°)
1.23026877081237e+003	(-3.03923539260546e+000dB,-9.04279667347005e+001°)
1.25892541179416e+003	(-2.83922301241014e+000dB,-9.04379360436317e+001°)
1.28824955169313e+003	(-2.63921004876933e+000dB,-9.04481376164542e+001°)
1.31825673855640e+003	(-2.43919647418753e+000dB,-9.04585768667834e+001°)
1.34896288259165e+003	(-2.23918225987360e+000dB,-9.04692593345838e+001°)
1.38038426460288e+003	(-2.03916737567965e+000dB,-9.04801906891302e+001°)
1.41253754462275e+003	(-1.83915179003711e+000dB,-9.04913767320388e+001°)
1.44543977074592e+003	(-1.63913546988985e+000dB,-9.05028234003699e+001°)
1.47910838816820e+003	(-1.43911838062406e+000dB,-9.05145367698058e+001°)
1.51356124843620e+003	(-1.23910048599482e+000dB,-9.05265230579021e+001°)
1.54881661891247e+003	(-1.03908174804930e+000dB,-9.05387886274187e+001°)
1.58489319246110e+003	(-8.39062127046284e-001dB,-9.05513399897281e+001°)
1.62181009735892e+003	(-6.39041581371912e-001dB,-9.05641838083071e+001°)
1.65958690743755e+003	(-4.39020067451419e-001dB,-9.05773269023098e+001°)
1.69824365246173e+003	(-2.38997539656805e-001dB,-9.05907762502279e+001°)
1.73780082874936e+003	(-3.89739502100592e-002dB,-9.06045389936372e+001°)
1.77827941003891e+003	(1.61050750918097e-001dB,-9.06186224410350e+001°)
1.81970085860997e+003	(3.61076616114303e-001dB,-9.06330340717690e+001°)
1.86208713666286e+003	(5.61103700233559e-001dB,-9.06477815400609e+001°)
1.90546071796323e+003	(7.61132060715570e-001dB,-9.06628726791267e+001°)
1.94984459975803e+003	(9.61161757706477e-001dB,-9.06783155053962e+001°)
1.99526231496887e+003	(1.16119285418631e+000dB,-9.06941182228352e+001°)
2.04173794466952e+003	(1.36122541610258e+000dB,-9.07102892273711e+001°)
2.08929613085403e+003	(1.56125951250991e+000dB,-9.07268371114266e+001°)
2.13796208950222e+003	(1.76129521571655e+000dB,-9.07437706685629e+001°)
2.18776162394954e+003	(1.96133260143753e+000dB,-9.07610988982362e+001°)
2.23872113856832e+003	(2.16137174895514e+000dB,-9.07788310106699e+001°)
2.29086765276776e+003	(2.36141274128697e+000dB,-9.07969764318458e+001°)
2.34422881531991e+003	(2.56145566536182e+000dB,-9.08155448086173e+001°)
2.39883291901947e+003	(2.76150061220388e+000dB,-9.08345460139483e+001°)
2.45470891568501e+003	(2.96154767712567e+000dB,-9.08539901522801e+001°)
2.51188643150956e+003	(3.16159695992993e+000dB,-9.08738875650316e+001°)
2.57039578276885e+003	(3.36164856512109e+000dB,-9.08942488362347e+001°)
2.63026799189536e+003	(3.56170260212670e+000dB,-9.09150847983087e+001°)
2.69153480392690e+003	(3.76175918552921e+000dB,-9.09364065379796e+001°)
2.75422870333815e+003	(3.96181843530874e+000dB,-9.09582254023452e+001°)
2.81838293126443e+003	(4.16188047709719e+000dB,-9.09805530050923e+001°)
2.88403150312659e+003	(4.36194544244435e+000dB,-9.10034012328702e+001°)
2.95120922666636e+003	(4.56201346909655e+000dB,-9.10267822518232e+001°)
3.01995172040199e+003	(4.76208470128832e+000dB,-9.10507085142885e+001°)
3.09029543251357e+003	(4.96215929004787e+000dB,-9.10751927656639e+001°)
3.16227766016836e+003	(5.16223739351688e+000dB,-9.11002480514487e+001°)
3.23593656929626e+003	(5.36231917728532e+000dB,-9.11258877244651e+001°)
3.31131121482589e+003	(5.56240481474206e+000dB,-9.11521254522639e+001°)
3.38844156139200e+003	(5.76249448744186e+000dB,-9.11789752247206e+001°)
3.46736850452529e+003	(5.96258838548975e+000dB,-9.12064513618269e+001°)
3.54813389233573e+003	(6.16268670794332e+000dB,-9.12345685216848e+001°)
3.63078054770099e+003	(6.36278966323402e+000dB,-9.12633417087084e+001°)
3.71535229097170e+003	(6.56289746960825e+000dB,-9.12927862820394e+001°)
3.80189396320558e+003	(6.76301035558905e+000dB,-9.13229179641853e+001°)
3.89045144994278e+003	(6.96312856045963e+000dB,-9.13537528498840e+001°)
3.98107170553494e+003	(7.16325233476950e+000dB,-9.13853074152045e+001°)
4.07380277804110e+003	(7.36338194086440e+000dB,-9.14175985268903e+001°)
4.16869383470332e+003	(7.56351765344108e+000dB,-9.14506434519538e+001°)
4.26579518801589e+003	(7.76365976012815e+000dB,-9.14844598675286e+001°)
4.36515832240162e+003	(7.96380856209415e+000dB,-9.15190658709906e+001°)
4.46683592150960e+003	(8.16396437468416e+000dB,-9.15544799903544e+001°)
4.57088189614871e+003	(8.36412752808625e+000dB,-9.15907211949565e+001°)
4.67735141287194e+003	(8.56429836802922e+000dB,-9.16278089064331e+001°)
4.78630092322634e+003	(8.76447725651298e+000dB,-9.16657630100049e+001°)
4.89778819368442e+003	(8.96466457257319e+000dB,-9.17046038660770e+001°)
5.01187233627268e+003	(9.16486071308179e+000dB,-9.17443523221684e+001°)
5.12861383991361e+003	(9.36506609358487e+000dB,-9.17850297251793e+001°)
5.24807460249768e+003	(9.56528114917992e+000dB,-9.18266579340119e+001°)
