Freq.	V(n002)/-I(C1)
Step Information: 1=1  (Run: 1/11)
1.00000000000000e+001	(1.18928537657073e+002dB,-8.99999954724664e+001°)
1.02329299228075e+001	(1.18728537655547e+002dB,-8.99999953670067e+001°)
1.04712854805090e+001	(1.18528537653948e+002dB,-8.99999952590904e+001°)
1.07151930523761e+001	(1.18328537652274e+002dB,-8.99999951486606e+001°)
1.09647819614319e+001	(1.18128537650522e+002dB,-8.99999950356584e+001°)
1.12201845430196e+001	(1.17928537648687e+002dB,-8.99999949200241e+001°)
1.14815362149688e+001	(1.17728537646765e+002dB,-8.99999948016964e+001°)
1.17489755493953e+001	(1.17528537644753e+002dB,-8.99999946806124e+001°)
1.20226443461741e+001	(1.17328537642645e+002dB,-8.99999945567081e+001°)
1.23026877081238e+001	(1.17128537640439e+002dB,-8.99999944299176e+001°)
1.25892541179417e+001	(1.16928537638129e+002dB,-8.99999943001739e+001°)
1.28824955169313e+001	(1.16728537635709e+002dB,-8.99999941674080e+001°)
1.31825673855641e+001	(1.16528537633176e+002dB,-8.99999940315496e+001°)
1.34896288259165e+001	(1.16328537630523e+002dB,-8.99999938925267e+001°)
1.38038426460288e+001	(1.16128537627745e+002dB,-8.99999937502655e+001°)
1.41253754462275e+001	(1.15928537624837e+002dB,-8.99999936046906e+001°)
1.44543977074593e+001	(1.15728537621791e+002dB,-8.99999934557249e+001°)
1.47910838816821e+001	(1.15528537618602e+002dB,-8.99999933032893e+001°)
1.51356124843621e+001	(1.15328537615262e+002dB,-8.99999931473031e+001°)
1.54881661891248e+001	(1.15128537611765e+002dB,-8.99999929876835e+001°)
1.58489319246111e+001	(1.14928537608103e+002dB,-8.99999928243459e+001°)
1.62181009735893e+001	(1.14728537604269e+002dB,-8.99999926572037e+001°)
1.65958690743756e+001	(1.14528537600254e+002dB,-8.99999924861683e+001°)
1.69824365246174e+001	(1.14328537596050e+002dB,-8.99999923111489e+001°)
1.73780082874937e+001	(1.14128537591647e+002dB,-8.99999921320529e+001°)
1.77827941003892e+001	(1.13928537587037e+002dB,-8.99999919487852e+001°)
1.81970085860998e+001	(1.13728537582210e+002dB,-8.99999917612487e+001°)
1.86208713666287e+001	(1.13528537577155e+002dB,-8.99999915693439e+001°)
1.90546071796325e+001	(1.13328537571862e+002dB,-8.99999913729691e+001°)
1.94984459975804e+001	(1.13128537566320e+002dB,-8.99999911720201e+001°)
1.99526231496888e+001	(1.12928537560517e+002dB,-8.99999909663905e+001°)
2.04173794466953e+001	(1.12728537554439e+002dB,-8.99999907559712e+001°)
2.08929613085404e+001	(1.12528537548076e+002dB,-8.99999905406507e+001°)
2.13796208950223e+001	(1.12328537541413e+002dB,-8.99999903203147e+001°)
2.18776162394955e+001	(1.12128537534435e+002dB,-8.99999900948464e+001°)
2.23872113856834e+001	(1.11928537527129e+002dB,-8.99999898641264e+001°)
2.29086765276777e+001	(1.11728537519478e+002dB,-8.99999896280323e+001°)
2.34422881531992e+001	(1.11528537511467e+002dB,-8.99999893864389e+001°)
2.39883291901949e+001	(1.11328537503079e+002dB,-8.99999891392181e+001°)
2.45470891568503e+001	(1.11128537494295e+002dB,-8.99999888862388e+001°)
2.51188643150958e+001	(1.10928537485097e+002dB,-8.99999886273670e+001°)
2.57039578276886e+001	(1.10728537475465e+002dB,-8.99999883624653e+001°)
2.63026799189538e+001	(1.10528537465380e+002dB,-8.99999880913934e+001°)
2.69153480392691e+001	(1.10328537454819e+002dB,-8.99999878140075e+001°)
2.75422870333816e+001	(1.10128537443761e+002dB,-8.99999875301604e+001°)
2.81838293126445e+001	(1.09928537432181e+002dB,-8.99999872397019e+001°)
2.88403150312660e+001	(1.09728537420056e+002dB,-8.99999869424777e+001°)
2.95120922666638e+001	(1.09528537407359e+002dB,-8.99999866383305e+001°)
3.01995172040201e+001	(1.09328537394064e+002dB,-8.99999863270988e+001°)
3.09029543251359e+001	(1.09128537380142e+002dB,-8.99999860086177e+001°)
3.16227766016838e+001	(1.08928537365564e+002dB,-8.99999856827184e+001°)
3.23593656929628e+001	(1.08728537350299e+002dB,-8.99999853492280e+001°)
3.31131121482591e+001	(1.08528537334315e+002dB,-8.99999850079698e+001°)
3.38844156139202e+001	(1.08328537317577e+002dB,-8.99999846587628e+001°)
3.46736850452531e+001	(1.08128537300051e+002dB,-8.99999843014219e+001°)
3.54813389233575e+001	(1.07928537281698e+002dB,-8.99999839357577e+001°)
3.63078054770101e+001	(1.07728537262481e+002dB,-8.99999835615762e+001°)
3.71535229097172e+001	(1.07528537242358e+002dB,-8.99999831786791e+001°)
3.80189396320561e+001	(1.07328537221287e+002dB,-8.99999827868634e+001°)
3.89045144994280e+001	(1.07128537199222e+002dB,-8.99999823859213e+001°)
3.98107170553497e+001	(1.06928537176118e+002dB,-8.99999819756404e+001°)
4.07380277804112e+001	(1.06728537151925e+002dB,-8.99999815558031e+001°)
4.16869383470335e+001	(1.06528537126591e+002dB,-8.99999811261867e+001°)
4.26579518801592e+001	(1.06328537100064e+002dB,-8.99999806865637e+001°)
4.36515832240165e+001	(1.06128537072286e+002dB,-8.99999802367008e+001°)
4.46683592150962e+001	(1.05928537043200e+002dB,-8.99999797763596e+001°)
4.57088189614874e+001	(1.05728537012742e+002dB,-8.99999793052960e+001°)
4.67735141287197e+001	(1.05528536980849e+002dB,-8.99999788232604e+001°)
4.78630092322638e+001	(1.05328536947454e+002dB,-8.99999783299971e+001°)
4.89778819368445e+001	(1.05128536912484e+002dB,-8.99999778252447e+001°)
5.01187233627271e+001	(1.04928536875866e+002dB,-8.99999773087357e+001°)
5.12861383991364e+001	(1.04728536837522e+002dB,-8.99999767801960e+001°)
5.24807460249772e+001	(1.04528536797371e+002dB,-8.99999762393457e+001°)
5.37031796370252e+001	(1.04328536755328e+002dB,-8.99999756858980e+001°)
5.49540873857624e+001	(1.04128536711304e+002dB,-8.99999751195594e+001°)
5.62341325190348e+001	(1.03928536665205e+002dB,-8.99999745400299e+001°)
5.75439937337156e+001	(1.03728536616933e+002dB,-8.99999739470020e+001°)
5.88843655355588e+001	(1.03528536566386e+002dB,-8.99999733401616e+001°)
6.02559586074357e+001	(1.03328536513457e+002dB,-8.99999727191869e+001°)
6.16595001861481e+001	(1.03128536458034e+002dB,-8.99999720837488e+001°)
6.30957344480192e+001	(1.02928536399998e+002dB,-8.99999714335103e+001°)
6.45654229034654e+001	(1.02728536339228e+002dB,-8.99999707681270e+001°)
6.60693448007595e+001	(1.02528536275593e+002dB,-8.99999700872459e+001°)
6.76082975391980e+001	(1.02328536208959e+002dB,-8.99999693905063e+001°)
6.91830970918935e+001	(1.02128536139185e+002dB,-8.99999686775389e+001°)
7.07945784384136e+001	(1.01928536066123e+002dB,-8.99999679479656e+001°)
7.24435960074988e+001	(1.01728535989617e+002dB,-8.99999672013999e+001°)
7.41310241300916e+001	(1.01528535909506e+002dB,-8.99999664374460e+001°)
7.58577575029182e+001	(1.01328535825619e+002dB,-8.99999656556991e+001°)
7.76247116628690e+001	(1.01128535737779e+002dB,-8.99999648557447e+001°)
7.94328234724279e+001	(1.00928535645799e+002dB,-8.99999640371590e+001°)
8.12830516164097e+001	(1.00728535549484e+002dB,-8.99999631995080e+001°)
8.31763771102669e+001	(1.00528535448630e+002dB,-8.99999623423479e+001°)
8.51138038202374e+001	(1.00328535343023e+002dB,-8.99999614652243e+001°)
8.70963589956078e+001	(1.00128535232438e+002dB,-8.99999605676724e+001°)
8.91250938133743e+001	(9.99285351166424e+001dB,-8.99999596492167e+001°)
9.12010839355907e+001	(9.97285349953890e+001dB,-8.99999587093702e+001°)
9.33254300796988e+001	(9.95285348684212e+001dB,-8.99999577476352e+001°)
9.54992586021433e+001	(9.93285347354696e+001dB,-8.99999567635017e+001°)
9.77237220955808e+001	(9.91285345962521e+001dB,-8.99999557564485e+001°)
9.99999999999997e+001	(9.89285344504736e+001dB,-8.99999547259419e+001°)
1.02329299228075e+002	(9.87285342978247e+001dB,-8.99999536714359e+001°)
1.04712854805090e+002	(9.85285341379817e+001dB,-8.99999525923717e+001°)
1.07151930523760e+002	(9.83285339706054e+001dB,-8.99999514881777e+001°)
1.09647819614318e+002	(9.81285337953410e+001dB,-8.99999503582687e+001°)
1.12201845430196e+002	(9.79285336118167e+001dB,-8.99999492020464e+001°)
1.14815362149688e+002	(9.77285334196431e+001dB,-8.99999480188979e+001°)
1.17489755493953e+002	(9.75285332184126e+001dB,-8.99999468081967e+001°)
1.20226443461741e+002	(9.73285330076985e+001dB,-8.99999455693014e+001°)
1.23026877081238e+002	(9.71285327870536e+001dB,-8.99999443015558e+001°)
1.25892541179416e+002	(9.69285325560101e+001dB,-8.99999430042883e+001°)
1.28824955169313e+002	(9.67285323140778e+001dB,-8.99999416768118e+001°)
1.31825673855640e+002	(9.65285320607437e+001dB,-8.99999403184233e+001°)
1.34896288259165e+002	(9.63285317954702e+001dB,-8.99999389284034e+001°)
1.38038426460288e+002	(9.61285315176948e+001dB,-8.99999375060160e+001°)
1.41253754462275e+002	(9.59285312268282e+001dB,-8.99999360505079e+001°)
1.44543977074592e+002	(9.57285309222535e+001dB,-8.99999345611083e+001°)
1.47910838816820e+002	(9.55285306033246e+001dB,-8.99999330370287e+001°)
1.51356124843620e+002	(9.53285302693650e+001dB,-8.99999314774621e+001°)
1.54881661891248e+002	(9.51285299196664e+001dB,-8.99999298815830e+001°)
1.58489319246111e+002	(9.49285295534870e+001dB,-8.99999282485466e+001°)
1.62181009735892e+002	(9.47285291700500e+001dB,-8.99999265774884e+001°)
1.65958690743755e+002	(9.45285287685422e+001dB,-8.99999248675239e+001°)
1.69824365246174e+002	(9.43285283481120e+001dB,-8.99999231177483e+001°)
1.73780082874937e+002	(9.41285279078674e+001dB,-8.99999213272355e+001°)
1.77827941003892e+002	(9.39285274468747e+001dB,-8.99999194950381e+001°)
1.81970085860998e+002	(9.37285269641561e+001dB,-8.99999176201867e+001°)
1.86208713666286e+002	(9.35285264586876e+001dB,-8.99999157016894e+001°)
1.90546071796324e+002	(9.33285259293971e+001dB,-8.99999137385314e+001°)
1.94984459975804e+002	(9.31285253751619e+001dB,-8.99999117296744e+001°)
1.99526231496887e+002	(9.29285247948063e+001dB,-8.99999096740559e+001°)
2.04173794466952e+002	(9.27285241870993e+001dB,-8.99999075705888e+001°)
2.08929613085403e+002	(9.25285235507520e+001dB,-8.99999054181611e+001°)
2.13796208950222e+002	(9.23285228844145e+001dB,-8.99999032156348e+001°)
2.18776162394954e+002	(9.21285221866734e+001dB,-8.99999009618457e+001°)
2.23872113856833e+002	(9.19285214560487e+001dB,-8.99998986556026e+001°)
2.29086765276776e+002	(9.17285206909907e+001dB,-8.99998962956868e+001°)
2.34422881531991e+002	(9.15285198898765e+001dB,-8.99998938808514e+001°)
2.39883291901948e+002	(9.13285190510070e+001dB,-8.99998914098209e+001°)
2.45470891568502e+002	(9.11285181726026e+001dB,-8.99998888812900e+001°)
2.51188643150957e+002	(9.09285172528001e+001dB,-8.99998862939235e+001°)
2.57039578276885e+002	(9.07285162896487e+001dB,-8.99998836463553e+001°)
2.63026799189537e+002	(9.05285152811051e+001dB,-8.99998809371880e+001°)
2.69153480392690e+002	(9.03285142250303e+001dB,-8.99998781649916e+001°)
2.75422870333816e+002	(9.01285131191840e+001dB,-8.99998753283035e+001°)
2.81838293126444e+002	(8.99285119612207e+001dB,-8.99998724256272e+001°)
2.88403150312659e+002	(8.97285107486840e+001dB,-8.99998694554320e+001°)
2.95120922666637e+002	(8.95285094790021e+001dB,-8.99998664161517e+001°)
3.01995172040200e+002	(8.93285081494817e+001dB,-8.99998633061843e+001°)
3.09029543251358e+002	(8.91285067573027e+001dB,-8.99998601238908e+001°)
3.16227766016837e+002	(8.89285052995120e+001dB,-8.99998568675949e+001°)
3.23593656929627e+002	(8.87285037730176e+001dB,-8.99998535355814e+001°)
3.31131121482590e+002	(8.85285021745813e+001dB,-8.99998501260962e+001°)
3.38844156139201e+002	(8.83285005008128e+001dB,-8.99998466373447e+001°)
3.46736850452530e+002	(8.81284987481617e+001dB,-8.99998430674915e+001°)
3.54813389233574e+002	(8.79284969129102e+001dB,-8.99998394146588e+001°)
3.63078054770100e+002	(8.77284949911656e+001dB,-8.99998356769264e+001°)
3.71535229097171e+002	(8.75284929788515e+001dB,-8.99998318523298e+001°)
3.80189396320559e+002	(8.73284908716994e+001dB,-8.99998279388601e+001°)
3.89045144994279e+002	(8.71284886652397e+001dB,-8.99998239344623e+001°)
3.98107170553495e+002	(8.69284863547921e+001dB,-8.99998198370347e+001°)
4.07380277804111e+002	(8.67284839354559e+001dB,-8.99998156444280e+001°)
4.16869383470333e+002	(8.65284814020990e+001dB,-8.99998113544438e+001°)
4.26579518801591e+002	(8.63284787493480e+001dB,-8.99998069648341e+001°)
4.36515832240164e+002	(8.61284759715757e+001dB,-8.99998024732998e+001°)
4.46683592150961e+002	(8.59284730628900e+001dB,-8.99997978774897e+001°)
4.57088189614873e+002	(8.57284700171212e+001dB,-8.99997931749999e+001°)
4.67735141287196e+002	(8.55284668278085e+001dB,-8.99997883633718e+001°)
4.78630092322636e+002	(8.53284634881868e+001dB,-8.99997834400916e+001°)
4.89778819368444e+002	(8.51284599911722e+001dB,-8.99997784025892e+001°)
5.01187233627270e+002	(8.49284563293468e+001dB,-8.99997732482364e+001°)
5.12861383991362e+002	(8.47284524949431e+001dB,-8.99997679743464e+001°)
5.24807460249770e+002	(8.45284484798277e+001dB,-8.99997625781722e+001°)
5.37031796370250e+002	(8.43284442754837e+001dB,-8.99997570569056e+001°)
5.49540873857622e+002	(8.41284398729928e+001dB,-8.99997514076758e+001°)
5.62341325190346e+002	(8.39284352630164e+001dB,-8.99997456275480e+001°)
5.75439937337154e+002	(8.37284304357758e+001dB,-8.99997397135227e+001°)
5.88843655355586e+002	(8.35284253810314e+001dB,-8.99997336625338e+001°)
6.02559586074355e+002	(8.33284200880609e+001dB,-8.99997274714476e+001°)
6.16595001861479e+002	(8.31284145456368e+001dB,-8.99997211370615e+001°)
6.30957344480190e+002	(8.29284087420024e+001dB,-8.99997146561027e+001°)
6.45654229034652e+002	(8.27284026648469e+001dB,-8.99997080252268e+001°)
6.60693448007592e+002	(8.25283963012791e+001dB,-8.99997012410162e+001°)
6.76082975391978e+002	(8.23283896378004e+001dB,-8.99996942999795e+001°)
6.91830970918933e+002	(8.21283826602759e+001dB,-8.99996871985494e+001°)
7.07945784384134e+002	(8.19283753539046e+001dB,-8.99996799330816e+001°)
7.24435960074986e+002	(8.17283677031878e+001dB,-8.99996724998537e+001°)
7.41310241300914e+002	(8.15283596918964e+001dB,-8.99996648950634e+001°)
7.58577575029180e+002	(8.13283513030362e+001dB,-8.99996571148276e+001°)
7.76247116628688e+002	(8.11283425188122e+001dB,-8.99996491551806e+001°)
7.94328234724277e+002	(8.09283333205907e+001dB,-8.99996410120733e+001°)
8.12830516164095e+002	(8.07283236888594e+001dB,-8.99996326813712e+001°)
8.31763771102666e+002	(8.05283136031868e+001dB,-8.99996241588536e+001°)
8.51138038202372e+002	(8.03283030421781e+001dB,-8.99996154402123e+001°)
8.70963589956076e+002	(8.01282919834301e+001dB,-8.99996065210499e+001°)
8.91250938133741e+002	(7.99282804034837e+001dB,-8.99995973968789e+001°)
9.12010839355905e+002	(7.97282682777741e+001dB,-8.99995880631205e+001°)
9.33254300796986e+002	(7.95282555805786e+001dB,-8.99995785151031e+001°)
9.54992586021431e+002	(7.93282422849621e+001dB,-8.99995687480615e+001°)
9.77237220955805e+002	(7.91282283627199e+001dB,-8.99995587571355e+001°)
9.99999999999994e+002	(7.89282137843178e+001dB,-8.99995485373691e+001°)
1.02329299228075e+003	(7.87281985188296e+001dB,-8.99995380837092e+001°)
1.04712854805089e+003	(7.85281825338713e+001dB,-8.99995273910050e+001°)
1.07151930523760e+003	(7.83281657955325e+001dB,-8.99995164540069e+001°)
1.09647819614318e+003	(7.81281482683042e+001dB,-8.99995052673659e+001°)
1.12201845430196e+003	(7.79281299150037e+001dB,-8.99994938256327e+001°)
1.14815362149688e+003	(7.77281106966958e+001dB,-8.99994821232573e+001°)
1.17489755493952e+003	(7.75280905726097e+001dB,-8.99994701545883e+001°)
1.20226443461741e+003	(7.73280695000528e+001dB,-8.99994579138730e+001°)
1.23026877081237e+003	(7.71280474343201e+001dB,-8.99994453952566e+001°)
1.25892541179416e+003	(7.69280243285992e+001dB,-8.99994325927825e+001°)
1.28824955169313e+003	(7.67280001338709e+001dB,-8.99994195003924e+001°)
1.31825673855640e+003	(7.65279747988052e+001dB,-8.99994061119263e+001°)
1.34896288259165e+003	(7.63279482696527e+001dB,-8.99993924211233e+001°)
1.38038426460288e+003	(7.61279204901296e+001dB,-8.99993784216222e+001°)
1.41253754462275e+003	(7.59278914012992e+001dB,-8.99993641069620e+001°)
1.44543977074592e+003	(7.57278609414463e+001dB,-8.99993494705837e+001°)
1.47910838816820e+003	(7.55278290459460e+001dB,-8.99993345058314e+001°)
1.51356124843620e+003	(7.53277956471269e+001dB,-8.99993192059541e+001°)
1.54881661891247e+003	(7.51277606741273e+001dB,-8.99993035641077e+001°)
1.58489319246110e+003	(7.49277240527445e+001dB,-8.99992875733577e+001°)
1.62181009735892e+003	(7.47276857052776e+001dB,-8.99992712266816e+001°)
1.65958690743755e+003	(7.45276455503621e+001dB,-8.99992545169725e+001°)
1.69824365246173e+003	(7.43276035027975e+001dB,-8.99992374370426e+001°)
1.73780082874936e+003	(7.41275594733660e+001dB,-8.99992199796273e+001°)
1.77827941003891e+003	(7.39275133686434e+001dB,-8.99992021373904e+001°)
1.81970085860997e+003	(7.37274650908002e+001dB,-8.99991839029285e+001°)
1.86208713666286e+003	(7.35274145373941e+001dB,-8.99991652687777e+001°)
1.90546071796323e+003	(7.33273616011525e+001dB,-8.99991462274199e+001°)
1.94984459975803e+003	(7.31273061697442e+001dB,-8.99991267712902e+001°)
1.99526231496887e+003	(7.29272481255411e+001dB,-8.99991068927844e+001°)
2.04173794466952e+003	(7.27271873453679e+001dB,-8.99990865842690e+001°)
2.08929613085403e+003	(7.25271237002409e+001dB,-8.99990658380900e+001°)
2.13796208950222e+003	(7.23270570550932e+001dB,-8.99990446465845e+001°)
2.18776162394954e+003	(7.21269872684882e+001dB,-8.99990230020919e+001°)
2.23872113856832e+003	(7.19269141923189e+001dB,-8.99990008969677e+001°)
2.29086765276776e+003	(7.17268376714926e+001dB,-8.99989783235970e+001°)
2.34422881531991e+003	(7.15267575436019e+001dB,-8.99989552744108e+001°)
2.39883291901947e+003	(7.13266736385787e+001dB,-8.99989317419022e+001°)
2.45470891568501e+003	(7.11265857783329e+001dB,-8.99989077186460e+001°)
2.51188643150956e+003	(7.09264937763738e+001dB,-8.99988831973179e+001°)
2.57039578276885e+003	(7.07263974374131e+001dB,-8.99988581707171e+001°)
2.63026799189536e+003	(7.05262965569497e+001dB,-8.99988326317903e+001°)
2.69153480392690e+003	(7.03261909208347e+001dB,-8.99988065736572e+001°)
2.75422870333815e+003	(7.01260803048155e+001dB,-8.99987799896392e+001°)
2.81838293126443e+003	(6.99259644740586e+001dB,-8.99987528732897e+001°)
2.88403150312659e+003	(6.97258431826499e+001dB,-8.99987252184274e+001°)
2.95120922666636e+003	(6.95257161730712e+001dB,-8.99986970191723e+001°)
3.01995172040199e+003	(6.93255831756518e+001dB,-8.99986682699846e+001°)
3.09029543251357e+003	(6.91254439079944e+001dB,-8.99986389657067e+001°)
3.16227766016836e+003	(6.89252980743732e+001dB,-8.99986091016088e+001°)
3.23593656929626e+003	(6.87251453651046e+001dB,-8.99985786734383e+001°)
3.31131121482589e+003	(6.85249854558866e+001dB,-8.99985476774726e+001°)
3.38844156139200e+003	(6.83248180071082e+001dB,-8.99985161105772e+001°)
3.46736850452529e+003	(6.81246426631250e+001dB,-8.99984839702671e+001°)
3.54813389233573e+003	(6.79244590515013e+001dB,-8.99984512547742e+001°)
3.63078054770099e+003	(6.77242667822155e+001dB,-8.99984179631194e+001°)
3.71535229097170e+003	(6.75240654468284e+001dB,-8.99983840951903e+001°)
3.80189396320558e+003	(6.73238546176111e+001dB,-8.99983496518258e+001°)
3.89045144994278e+003	(6.71236338466329e+001dB,-8.99983146349060e+001°)
3.98107170553494e+003	(6.69234026648038e+001dB,-8.99982790474502e+001°)
4.07380277804110e+003	(6.67231605808738e+001dB,-8.99982428937219e+001°)
4.16869383470332e+003	(6.65229070803826e+001dB,-8.99982061793420e+001°)
4.26579518801589e+003	(6.63226416245605e+001dB,-8.99981689114111e+001°)
4.36515832240162e+003	(6.61223636491764e+001dB,-8.99981310986400e+001°)
4.46683592150960e+003	(6.59220725633311e+001dB,-8.99980927514918e+001°)
4.57088189614871e+003	(6.57217677481934e+001dB,-8.99980538823337e+001°)
4.67735141287194e+003	(6.55214485556750e+001dB,-8.99980145056004e+001°)
4.78630092322634e+003	(6.53211143070430e+001dB,-8.99979746379706e+001°)
4.89778819368442e+003	(6.51207642914663e+001dB,-8.99979342985558e+001°)
5.01187233627268e+003	(6.49203977644913e+001dB,-8.99978935091047e+001°)
5.12861383991361e+003	(6.47200139464465e+001dB,-8.99978522942214e+001°)
5.24807460249768e+003	(6.45196120207691e+001dB,-8.99978106816016e+001°)
5.37031796370248e+003	(6.43191911322525e+001dB,-8.99977687022851e+001°)
5.49540873857620e+003	(6.41187503852098e+001dB,-8.99977263909287e+001°)
5.62341325190344e+003	(6.39182888415485e+001dB,-8.99976837860982e+001°)
5.75439937337152e+003	(6.37178055187537e+001dB,-8.99976409305830e+001°)
