Freq.	V(vo)/V(n002)
Step Information: 1=1  (Run: 1/11)
1.00000000000000e+001	(-4.48394970037667e+001dB,-9.00063388556202e+001°)
1.02329299228075e+001	(-4.46394970047127e+001dB,-9.00064865065351e+001°)
1.04712854805090e+001	(-4.44394970057034e+001dB,-9.00066375966816e+001°)
1.07151930523761e+001	(-4.42394970067407e+001dB,-9.00067922061697e+001°)
1.09647819614319e+001	(-4.40394970078269e+001dB,-9.00069504169754e+001°)
1.12201845430196e+001	(-4.38394970089642e+001dB,-9.00071123129841e+001°)
1.14815362149688e+001	(-4.36394970101552e+001dB,-9.00072779800353e+001°)
1.17489755493953e+001	(-4.34394970114024e+001dB,-9.00074475059679e+001°)
1.20226443461741e+001	(-4.32394970127083e+001dB,-9.00076209806666e+001°)
1.23026877081238e+001	(-4.30394970140757e+001dB,-9.00077984961102e+001°)
1.25892541179417e+001	(-4.28394970155076e+001dB,-9.00079801464196e+001°)
1.28824955169313e+001	(-4.26394970170070e+001dB,-9.00081660279083e+001°)
1.31825673855641e+001	(-4.24394970185770e+001dB,-9.00083562391330e+001°)
1.34896288259165e+001	(-4.22394970202210e+001dB,-9.00085508809462e+001°)
1.38038426460288e+001	(-4.20394970219425e+001dB,-9.00087500565497e+001°)
1.41253754462275e+001	(-4.18394970237452e+001dB,-9.00089538715490e+001°)
1.44543977074593e+001	(-4.16394970256328e+001dB,-9.00091624340094e+001°)
1.47910838816821e+001	(-4.14394970276093e+001dB,-9.00093758545136e+001°)
1.51356124843621e+001	(-4.12394970296790e+001dB,-9.00095942462199e+001°)
1.54881661891248e+001	(-4.10394970318463e+001dB,-9.00098177249225e+001°)
1.58489319246111e+001	(-4.08394970341157e+001dB,-9.00100464091128e+001°)
1.62181009735893e+001	(-4.06394970364920e+001dB,-9.00102804200421e+001°)
1.65958690743756e+001	(-4.04394970389803e+001dB,-9.00105198817861e+001°)
1.69824365246174e+001	(-4.02394970415859e+001dB,-9.00107649213106e+001°)
1.73780082874937e+001	(-4.00394970443143e+001dB,-9.00110156685389e+001°)
1.77827941003892e+001	(-3.98394970471713e+001dB,-9.00112722564203e+001°)
1.81970085860998e+001	(-3.96394970501630e+001dB,-9.00115348210012e+001°)
1.86208713666287e+001	(-3.94394970532956e+001dB,-9.00118035014968e+001°)
1.90546071796325e+001	(-3.92394970565759e+001dB,-9.00120784403651e+001°)
1.94984459975804e+001	(-3.90394970600107e+001dB,-9.00123597833822e+001°)
1.99526231496888e+001	(-3.88394970636074e+001dB,-9.00126476797200e+001°)
2.04173794466953e+001	(-3.86394970673737e+001dB,-9.00129422820248e+001°)
2.08929613085404e+001	(-3.84394970713174e+001dB,-9.00132437464988e+001°)
2.13796208950223e+001	(-3.82394970754470e+001dB,-9.00135522329823e+001°)
2.18776162394955e+001	(-3.80394970797713e+001dB,-9.00138679050391e+001°)
2.23872113856834e+001	(-3.78394970842993e+001dB,-9.00141909300425e+001°)
2.29086765276777e+001	(-3.76394970890407e+001dB,-9.00145214792647e+001°)
2.34422881531992e+001	(-3.74394970940056e+001dB,-9.00148597279672e+001°)
2.39883291901949e+001	(-3.72394970992045e+001dB,-9.00152058554941e+001°)
2.45470891568503e+001	(-3.70394971046483e+001dB,-9.00155600453666e+001°)
2.51188643150958e+001	(-3.68394971103488e+001dB,-9.00159224853809e+001°)
2.57039578276886e+001	(-3.66394971163179e+001dB,-9.00162933677075e+001°)
2.63026799189538e+001	(-3.64394971225683e+001dB,-9.00166728889931e+001°)
2.69153480392691e+001	(-3.62394971291133e+001dB,-9.00170612504649e+001°)
2.75422870333816e+001	(-3.60394971359667e+001dB,-9.00174586580373e+001°)
2.81838293126445e+001	(-3.58394971431432e+001dB,-9.00178653224209e+001°)
2.88403150312660e+001	(-3.56394971506578e+001dB,-9.00182814592347e+001°)
2.95120922666638e+001	(-3.54394971585266e+001dB,-9.00187072891198e+001°)
3.01995172040201e+001	(-3.52394971667663e+001dB,-9.00191430378569e+001°)
3.09029543251359e+001	(-3.50394971753942e+001dB,-9.00195889364857e+001°)
3.16227766016838e+001	(-3.48394971844288e+001dB,-9.00200452214275e+001°)
3.23593656929628e+001	(-3.46394971938892e+001dB,-9.00205121346106e+001°)
3.31131121482591e+001	(-3.44394972037955e+001dB,-9.00209899235985e+001°)
3.38844156139202e+001	(-3.42394972141686e+001dB,-9.00214788417212e+001°)
3.46736850452531e+001	(-3.40394972250305e+001dB,-9.00219791482096e+001°)
3.54813389233575e+001	(-3.38394972364044e+001dB,-9.00224911083327e+001°)
3.63078054770101e+001	(-3.36394972483143e+001dB,-9.00230149935386e+001°)
3.71535229097172e+001	(-3.34394972607855e+001dB,-9.00235510815980e+001°)
3.80189396320561e+001	(-3.32394972738445e+001dB,-9.00240996567519e+001°)
3.89045144994280e+001	(-3.30394972875189e+001dB,-9.00246610098621e+001°)
3.98107170553497e+001	(-3.28394973018378e+001dB,-9.00252354385653e+001°)
4.07380277804112e+001	(-3.26394973168315e+001dB,-9.00258232474313e+001°)
4.16869383470335e+001	(-3.24394973325318e+001dB,-9.00264247481239e+001°)
4.26579518801592e+001	(-3.22394973489721e+001dB,-9.00270402595667e+001°)
4.36515832240165e+001	(-3.20394973661871e+001dB,-9.00276701081121e+001°)
4.46683592150962e+001	(-3.18394973842135e+001dB,-9.00283146277139e+001°)
4.57088189614874e+001	(-3.16394974030895e+001dB,-9.00289741601049e+001°)
4.67735141287197e+001	(-3.14394974228550e+001dB,-9.00296490549777e+001°)
4.78630092322638e+001	(-3.12394974435521e+001dB,-9.00303396701706e+001°)
4.89778819368445e+001	(-3.10394974652246e+001dB,-9.00310463718567e+001°)
5.01187233627271e+001	(-3.08394974879184e+001dB,-9.00317695347385e+001°)
5.12861383991364e+001	(-3.06394975116818e+001dB,-9.00325095422465e+001°)
5.24807460249772e+001	(-3.04394975365652e+001dB,-9.00332667867422e+001°)
5.37031796370252e+001	(-3.02394975626212e+001dB,-9.00340416697266e+001°)
5.49540873857624e+001	(-3.00394975899053e+001dB,-9.00348346020528e+001°)
5.62341325190348e+001	(-2.98394976184752e+001dB,-9.00356460041438e+001°)
5.75439937337156e+001	(-2.96394976483915e+001dB,-9.00364763062156e+001°)
5.88843655355588e+001	(-2.94394976797178e+001dB,-9.00373259485053e+001°)
6.02559586074357e+001	(-2.92394977125204e+001dB,-9.00381953815040e+001°)
6.16595001861481e+001	(-2.90394977468690e+001dB,-9.00390850661967e+001°)
6.30957344480192e+001	(-2.88394977828364e+001dB,-9.00399954743056e+001°)
6.45654229034654e+001	(-2.86394978204989e+001dB,-9.00409270885410e+001°)
6.60693448007595e+001	(-2.84394978599363e+001dB,-9.00418804028568e+001°)
6.76082975391980e+001	(-2.82394979012324e+001dB,-9.00428559227126e+001°)
6.91830970918935e+001	(-2.80394979444747e+001dB,-9.00438541653417e+001°)
7.07945784384136e+001	(-2.78394979897549e+001dB,-9.00448756600252e+001°)
7.24435960074988e+001	(-2.76394980371691e+001dB,-9.00459209483728e+001°)
7.41310241300916e+001	(-2.74394980868179e+001dB,-9.00469905846099e+001°)
7.58577575029182e+001	(-2.72394981388066e+001dB,-9.00480851358714e+001°)
7.76247116628690e+001	(-2.70394981932454e+001dB,-9.00492051825025e+001°)
7.94328234724279e+001	(-2.68394982502498e+001dB,-9.00503513183663e+001°)
8.12830516164097e+001	(-2.66394983099408e+001dB,-9.00515241511588e+001°)
8.31763771102669e+001	(-2.64394983724449e+001dB,-9.00527243027308e+001°)
8.51138038202374e+001	(-2.62394984378948e+001dB,-9.00539524094183e+001°)
8.70963589956078e+001	(-2.60394985064292e+001dB,-9.00552091223789e+001°)
8.91250938133743e+001	(-2.58394985781935e+001dB,-9.00564951079380e+001°)
9.12010839355907e+001	(-2.56394986533400e+001dB,-9.00578110479415e+001°)
9.33254300796988e+001	(-2.54394987320281e+001dB,-9.00591576401175e+001°)
9.54992586021433e+001	(-2.52394988144245e+001dB,-9.00605355984463e+001°)
9.77237220955808e+001	(-2.50394989007042e+001dB,-9.00619456535387e+001°)
9.99999999999997e+001	(-2.48394989910502e+001dB,-9.00633885530240e+001°)
1.02329299228075e+002	(-2.46394990856540e+001dB,-9.00648650619454e+001°)
1.04712854805090e+002	(-2.44394991847164e+001dB,-9.00663759631667e+001°)
1.07151930523760e+002	(-2.42394992884474e+001dB,-9.00679220577866e+001°)
1.09647819614318e+002	(-2.40394993970671e+001dB,-9.00695041655639e+001°)
1.12201845430196e+002	(-2.38394995108059e+001dB,-9.00711231253517e+001°)
1.14815362149688e+002	(-2.36394996299051e+001dB,-9.00727797955428e+001°)
1.17489755493953e+002	(-2.34394997546172e+001dB,-9.00744750545243e+001°)
1.20226443461741e+002	(-2.32394998852068e+001dB,-9.00762098011433e+001°)
1.23026877081238e+002	(-2.30395000219509e+001dB,-9.00779849551840e+001°)
1.25892541179416e+002	(-2.28395001651396e+001dB,-9.00798014578549e+001°)
1.28824955169313e+002	(-2.26395003150765e+001dB,-9.00816602722878e+001°)
1.31825673855640e+002	(-2.24395004720798e+001dB,-9.00835623840488e+001°)
1.34896288259165e+002	(-2.22395006364823e+001dB,-9.00855088016607e+001°)
1.38038426460288e+002	(-2.20395008086330e+001dB,-9.00875005571377e+001°)
1.41253754462275e+002	(-2.18395009888968e+001dB,-9.00895387065325e+001°)
1.44543977074592e+002	(-2.16395011776562e+001dB,-9.00916243304962e+001°)
1.47910838816820e+002	(-2.14395013753116e+001dB,-9.00937585348516e+001°)
1.51356124843620e+002	(-2.12395015822822e+001dB,-9.00959424511792e+001°)
1.54881661891248e+002	(-2.10395017990070e+001dB,-9.00981772374171e+001°)
1.58489319246111e+002	(-2.08395020259457e+001dB,-9.01004640784752e+001°)
1.62181009735892e+002	(-2.06395022635797e+001dB,-9.01028041868632e+001°)
1.65958690743755e+002	(-2.04395025124131e+001dB,-9.01051988033338e+001°)
1.69824365246174e+002	(-2.02395027729736e+001dB,-9.01076491975401e+001°)
1.73780082874937e+002	(-2.00395030458139e+001dB,-9.01101566687092e+001°)
1.77827941003892e+002	(-1.98395033315128e+001dB,-9.01127225463306e+001°)
1.81970085860998e+002	(-1.96395036306763e+001dB,-9.01153481908615e+001°)
1.86208713666286e+002	(-1.94395039439389e+001dB,-9.01180349944480e+001°)
1.90546071796324e+002	(-1.92395042719651e+001dB,-9.01207843816629e+001°)
1.94984459975804e+002	(-1.90395046154507e+001dB,-9.01235978102615e+001°)
1.99526231496887e+002	(-1.88395049751243e+001dB,-9.01264767719541e+001°)
2.04173794466952e+002	(-1.86395053517488e+001dB,-9.01294227931971e+001°)
2.08929613085403e+002	(-1.84395057461230e+001dB,-9.01324374360023e+001°)
2.13796208950222e+002	(-1.82395061590835e+001dB,-9.01355222987648e+001°)
2.18776162394954e+002	(-1.80395065915062e+001dB,-9.01386790171108e+001°)
2.23872113856833e+002	(-1.78395070443084e+001dB,-9.01419092647647e+001°)
2.29086765276776e+002	(-1.76395075184504e+001dB,-9.01452147544363e+001°)
2.34422881531991e+002	(-1.74395080149381e+001dB,-9.01485972387291e+001°)
2.39883291901948e+002	(-1.72395085348245e+001dB,-9.01520585110692e+001°)
2.45470891568502e+002	(-1.70395090792124e+001dB,-9.01556004066567e+001°)
2.51188643150957e+002	(-1.68395096492565e+001dB,-9.01592248034378e+001°)
2.57039578276885e+002	(-1.66395102461659e+001dB,-9.01629336231015e+001°)
2.63026799189537e+002	(-1.64395108712067e+001dB,-9.01667288320974e+001°)
2.69153480392690e+002	(-1.62395115257048e+001dB,-9.01706124426791e+001°)
2.75422870333816e+002	(-1.60395122110485e+001dB,-9.01745865139707e+001°)
2.81838293126444e+002	(-1.58395129286913e+001dB,-9.01786531530582e+001°)
2.88403150312659e+002	(-1.56395136801556e+001dB,-9.01828145161073e+001°)
2.95120922666637e+002	(-1.54395144670353e+001dB,-9.01870728095059e+001°)
3.01995172040200e+002	(-1.52395152909995e+001dB,-9.01914302910341e+001°)
3.09029543251358e+002	(-1.50395161537958e+001dB,-9.01958892710613e+001°)
3.16227766016837e+002	(-1.48395170572545e+001dB,-9.02004521137710e+001°)
3.23593656929627e+002	(-1.46395180032917e+001dB,-9.02051212384138e+001°)
3.31131121482590e+002	(-1.44395189939143e+001dB,-9.02098991205908e+001°)
3.38844156139201e+002	(-1.42395200312235e+001dB,-9.02147882935652e+001°)
3.46736850452530e+002	(-1.40395211174195e+001dB,-9.02197913496059e+001°)
3.54813389233574e+002	(-1.38395222548062e+001dB,-9.02249109413617e+001°)
3.63078054770100e+002	(-1.36395234457963e+001dB,-9.02301497832670e+001°)
3.71535229097171e+002	(-1.34395246929159e+001dB,-9.02355106529818e+001°)
3.80189396320559e+002	(-1.32395259988104e+001dB,-9.02409963928636e+001°)
3.89045144994279e+002	(-1.30395273662497e+001dB,-9.02466099114742e+001°)
3.98107170553495e+002	(-1.28395287981343e+001dB,-9.02523541851219e+001°)
4.07380277804111e+002	(-1.26395302975014e+001dB,-9.02582322594394e+001°)
4.16869383470333e+002	(-1.24395318675314e+001dB,-9.02642472509980e+001°)
4.26579518801591e+002	(-1.22395335115546e+001dB,-9.02704023489598e+001°)
4.36515832240164e+002	(-1.20395352330580e+001dB,-9.02767008167689e+001°)
4.46683592150961e+002	(-1.18395370356931e+001dB,-9.02831459938805e+001°)
4.57088189614873e+002	(-1.16395389232837e+001dB,-9.02897412975318e+001°)
4.67735141287196e+002	(-1.14395408998335e+001dB,-9.02964902245533e+001°)
4.78630092322636e+002	(-1.12395429695350e+001dB,-9.03033963532223e+001°)
4.89778819368444e+002	(-1.10395451367783e+001dB,-9.03104633451601e+001°)
5.01187233627270e+002	(-1.08395474061604e+001dB,-9.03176949472724e+001°)
5.12861383991362e+002	(-1.06395497824949e+001dB,-9.03250949937360e+001°)
5.24807460249770e+002	(-1.04395522708222e+001dB,-9.03326674080308e+001°)
5.37031796370250e+002	(-1.02395548764205e+001dB,-9.03404162050196e+001°)
5.49540873857622e+002	(-1.00395576048165e+001dB,-9.03483454930763e+001°)
5.62341325190346e+002	(-9.83956046179737e+000dB,-9.03564594762636e+001°)
5.75439937337154e+002	(-9.63956345342318e+000dB,-9.03647624565611e+001°)
5.88843655355586e+002	(-9.43956658603949e+000dB,-9.03732588361454e+001°)
6.02559586074355e+002	(-9.23956986629092e+000dB,-9.03819531197240e+001°)
6.16595001861479e+002	(-9.03957330113525e+000dB,-9.03908499169221e+001°)
6.30957344480190e+002	(-8.83957689785816e+000dB,-9.03999539447262e+001°)
6.45654229034652e+002	(-8.63958066408869e+000dB,-9.04092700299840e+001°)
6.60693448007592e+002	(-8.43958460781543e+000dB,-9.04188031119624e+001°)
6.76082975391978e+002	(-8.23958873740343e+000dB,-9.04285582449656e+001°)
6.91830970918933e+002	(-8.03959306161197e+000dB,-9.04385406010130e+001°)
7.07945784384134e+002	(-7.83959758961317e+000dB,-9.04487554725810e+001°)
7.24435960074986e+002	(-7.63960233101138e+000dB,-9.04592082754071e+001°)
7.41310241300914e+002	(-7.43960729586357e+000dB,-9.04699045513600e+001°)
7.58577575029180e+002	(-7.23961249470068e+000dB,-9.04808499713763e+001°)
7.76247116628688e+002	(-7.03961793854996e+000dB,-9.04920503384658e+001°)
7.94328234724277e+002	(-6.83962363895834e+000dB,-9.05035115907861e+001°)
8.12830516164095e+002	(-6.63962960801691e+000dB,-9.05152398047890e+001°)
8.31763771102666e+002	(-6.43963585838660e+000dB,-9.05272411984408e+001°)
8.51138038202372e+002	(-6.23964240332500e+000dB,-9.05395221345158e+001°)
8.70963589956076e+002	(-6.03964925671450e+000dB,-9.05520891239683e+001°)
8.91250938133741e+002	(-5.83965643309173e+000dB,-9.05649488293818e+001°)
9.12010839355905e+002	(-5.63966394767838e+000dB,-9.05781080684986e+001°)
9.33254300796986e+002	(-5.43967181641351e+000dB,-9.05915738178316e+001°)
9.54992586021431e+002	(-5.23968005598732e+000dB,-9.06053532163605e+001°)
9.77237220955805e+002	(-5.03968868387657e+000dB,-9.06194535693126e+001°)
9.99999999999994e+002	(-4.83969771838164e+000dB,-9.06338823520334e+001°)
1.02329299228075e+003	(-4.63970717866536e+000dB,-9.06486472139451e+001°)
1.04712854805089e+003	(-4.43971708479362e+000dB,-9.06637559825986e+001°)
1.07151930523760e+003	(-4.23972745777796e+000dB,-9.06792166678191e+001°)
1.09647819614318e+003	(-4.03973831962012e+000dB,-9.06950374659480e+001°)
1.12201845430196e+003	(-3.83974969335867e+000dB,-9.07112267641832e+001°)
1.14815362149688e+003	(-3.63976160311794e+000dB,-9.07277931450207e+001°)
1.17489755493952e+003	(-3.43977407415912e+000dB,-9.07447453907985e+001°)
1.20226443461741e+003	(-3.23978713293386e+000dB,-9.07620924883473e+001°)
1.23026877081237e+003	(-3.03980080714038e+000dB,-9.07798436337475e+001°)
1.25892541179416e+003	(-2.83981512578218e+000dB,-9.07980082371985e+001°)
1.28824955169313e+003	(-2.63983011922957e+000dB,-9.08165959279992e+001°)
1.31825673855640e+003	(-2.43984581928408e+000dB,-9.08356165596454e+001°)
1.34896288259165e+003	(-2.23986225924590e+000dB,-9.08550802150448e+001°)
1.38038426460288e+003	(-2.03987947398447e+000dB,-9.08749972118533e+001°)
1.41253754462275e+003	(-1.83989750001248e+000dB,-9.08953781079345e+001°)
1.44543977074592e+003	(-1.63991637556326e+000dB,-9.09162337069469e+001°)
1.47910838816820e+003	(-1.43993614067187e+000dB,-9.09375750640591e+001°)
1.51356124843620e+003	(-1.23995683726000e+000dB,-9.09594134917991e+001°)
1.54881661891247e+003	(-1.03997850922488e+000dB,-9.09817605660375e+001°)
1.58489319246110e+003	(-8.40001202532311e-001dB,-9.10046281321108e+001°)
1.62181009735892e+003	(-6.40024965314236e-001dB,-9.10280283110855e+001°)
1.65958690743755e+003	(-4.40049847970706e-001dB,-9.10519735061676e+001°)
1.69824365246173e+003	(-2.40075903276808e-001dB,-9.10764764092605e+001°)
1.73780082874936e+003	(-4.01031864945536e-002dB,-9.11015500076746e+001°)
1.77827941003891e+003	(1.59868244509944e-001dB,-9.11272075909917e+001°)
1.81970085860997e+003	(3.59838329143775e-001dB,-9.11534627580893e+001°)
1.86208713666286e+003	(5.59807003958748e-001dB,-9.11803294243259e+001°)
1.90546071796323e+003	(7.59774202516861e-001dB,-9.12078218288929e+001°)
1.94984459975803e+003	(9.59739855249459e-001dB,-9.12359545423369e+001°)
1.99526231496887e+003	(1.15970388930969e+000dB,-9.12647424742547e+001°)
2.04173794466952e+003	(1.35966622841810e+000dB,-9.12942008811666e+001°)
2.08929613085403e+003	(1.55962679270089e+000dB,-9.13243453745711e+001°)
2.13796208950222e+003	(1.75958549852060e+000dB,-9.13551919291854e+001°)
2.18776162394954e+003	(1.95954225829875e+000dB,-9.13867568913758e+001°)
2.23872113856832e+003	(2.15949698033023e+000dB,-9.14190569877824e+001°)
2.29086765276776e+003	(2.35944956858885e+000dB,-9.14521093341421e+001°)
2.34422881531991e+003	(2.55939992252381e+000dB,-9.14859314443152e+001°)
2.39883291901947e+003	(2.75934793684654e+000dB,-9.15205412395193e+001°)
2.45470891568501e+003	(2.95929350130750e+000dB,-9.15559570577752e+001°)
2.51188643150956e+003	(3.15923650046252e+000dB,-9.15921976635703e+001°)
2.57039578276885e+003	(3.35917681342809e+000dB,-9.16292822577434e+001°)
2.63026799189536e+003	(3.55911431362515e+000dB,-9.16672304875966e+001°)
2.69153480392690e+003	(3.75904886851077e+000dB,-9.17060624572387e+001°)
2.75422870333815e+003	(3.95898033929731e+000dB,-9.17457987381659e+001°)
2.81838293126443e+003	(4.15890858065827e+000dB,-9.17864603800844e+001°)
2.88403150312659e+003	(4.35883344042025e+000dB,-9.18280689219803e+001°)
2.95120922666636e+003	(4.55875475924060e+000dB,-9.18706464034432e+001°)
3.01995172040199e+003	(4.75867237026964e+000dB,-9.19142153762472e+001°)
3.09029543251357e+003	(4.95858609879722e+000dB,-9.19587989161972e+001°)
3.16227766016836e+003	(5.15849576188250e+000dB,-9.20044206352439e+001°)
3.23593656929626e+003	(5.35840116796633e+000dB,-9.20511046938755e+001°)
3.31131121482589e+003	(5.55830211646549e+000dB,-9.20988758137905e+001°)
3.38844156139200e+003	(5.75819839734770e+000dB,-9.21477592908585e+001°)
3.46736850452529e+003	(5.95808979068669e+000dB,-9.21977810083748e+001°)
3.54813389233573e+003	(6.15797606619643e+000dB,-9.22489674506153e+001°)
3.63078054770099e+003	(6.35785698274330e+000dB,-9.23013457166979e+001°)
3.71535229097170e+003	(6.55773228783540e+000dB,-9.23549435347568e+001°)
3.80189396320558e+003	(6.75760171708784e+000dB,-9.24097892764369e+001°)
3.89045144994278e+003	(6.95746499366290e+000dB,-9.24659119717141e+001°)
3.98107170553494e+003	(7.15732182768381e+000dB,-9.25233413240492e+001°)
4.07380277804110e+003	(7.35717191562099e+000dB,-9.25821077258810e+001°)
4.16869383470332e+003	(7.55701493964951e+000dB,-9.26422422744675e+001°)
4.26579518801589e+003	(7.75685056697622e+000dB,-9.27037767880806e+001°)
4.36515832240162e+003	(7.95667844913540e+000dB,-9.27667438225621e+001°)
4.46683592150960e+003	(8.15649822125116e+000dB,-9.28311766882485e+001°)
4.57088189614871e+003	(8.35630950126534e+000dB,-9.28971094672718e+001°)
4.67735141287194e+003	(8.55611188912901e+000dB,-9.29645770312435e+001°)
4.78630092322634e+003	(8.75590496595609e+000dB,-9.30336150593295e+001°)
4.89778819368442e+003	(8.95568829313714e+000dB,-9.31042600567241e+001°)
5.01187233627268e+003	(9.15546141141162e+000dB,-9.31765493735294e+001°)
5.12861383991361e+003	(9.35522383989652e+000dB,-9.32505212240493e+001°)
5.24807460249768e+003	(9.55497507506945e+000dB,-9.33262147065051e+001°)
