Freq.	V(vo)
Step Information: 1=1  (Run: 1/11)
1.00000000000000e+001	(-4.48394970031885e+001dB,-9.00063388553970e+001°)
1.02329299228075e+001	(-4.46394970041346e+001dB,-9.00064865063067e+001°)
1.04712854805090e+001	(-4.44394970051252e+001dB,-9.00066375964479e+001°)
1.07151930523761e+001	(-4.42394970061625e+001dB,-9.00067922059305e+001°)
1.09647819614319e+001	(-4.40394970072487e+001dB,-9.00069504167306e+001°)
1.12201845430196e+001	(-4.38394970083861e+001dB,-9.00071123127337e+001°)
1.14815362149688e+001	(-4.36394970095771e+001dB,-9.00072779797790e+001°)
1.17489755493953e+001	(-4.34394970108243e+001dB,-9.00074475057056e+001°)
1.20226443461741e+001	(-4.32394970121302e+001dB,-9.00076209803983e+001°)
1.23026877081238e+001	(-4.30394970134976e+001dB,-9.00077984958356e+001°)
1.25892541179417e+001	(-4.28394970149295e+001dB,-9.00079801461386e+001°)
1.28824955169313e+001	(-4.26394970164289e+001dB,-9.00081660276207e+001°)
1.31825673855641e+001	(-4.24394970179990e+001dB,-9.00083562388387e+001°)
1.34896288259165e+001	(-4.22394970196430e+001dB,-9.00085508806451e+001°)
1.38038426460288e+001	(-4.20394970213645e+001dB,-9.00087500562416e+001°)
1.41253754462275e+001	(-4.18394970231672e+001dB,-9.00089538712337e+001°)
1.44543977074593e+001	(-4.16394970250548e+001dB,-9.00091624336868e+001°)
1.47910838816821e+001	(-4.14394970270314e+001dB,-9.00093758541835e+001°)
1.51356124843621e+001	(-4.12394970291011e+001dB,-9.00095942458821e+001°)
1.54881661891248e+001	(-4.10394970312684e+001dB,-9.00098177245768e+001°)
1.58489319246111e+001	(-4.08394970335378e+001dB,-9.00100464087590e+001°)
1.62181009735893e+001	(-4.06394970359141e+001dB,-9.00102804196801e+001°)
1.65958690743756e+001	(-4.04394970384025e+001dB,-9.00105198814157e+001°)
1.69824365246174e+001	(-4.02394970410081e+001dB,-9.00107649209316e+001°)
1.73780082874937e+001	(-4.00394970437365e+001dB,-9.00110156681510e+001°)
1.77827941003892e+001	(-3.98394970465936e+001dB,-9.00112722560234e+001°)
1.81970085860998e+001	(-3.96394970495852e+001dB,-9.00115348205950e+001°)
1.86208713666287e+001	(-3.94394970527179e+001dB,-9.00118035010812e+001°)
1.90546071796325e+001	(-3.92394970559982e+001dB,-9.00120784399398e+001°)
1.94984459975804e+001	(-3.90394970594330e+001dB,-9.00123597829470e+001°)
1.99526231496888e+001	(-3.88394970630298e+001dB,-9.00126476792746e+001°)
2.04173794466953e+001	(-3.86394970667961e+001dB,-9.00129422815691e+001°)
2.08929613085404e+001	(-3.84394970707399e+001dB,-9.00132437460325e+001°)
2.13796208950223e+001	(-3.82394970748695e+001dB,-9.00135522325051e+001°)
2.18776162394955e+001	(-3.80394970791938e+001dB,-9.00138679045508e+001°)
2.23872113856834e+001	(-3.78394970837218e+001dB,-9.00141909295428e+001°)
2.29086765276777e+001	(-3.76394970884633e+001dB,-9.00145214787534e+001°)
2.34422881531992e+001	(-3.74394970934282e+001dB,-9.00148597274440e+001°)
2.39883291901949e+001	(-3.72394970986271e+001dB,-9.00152058549586e+001°)
2.45470891568503e+001	(-3.70394971040711e+001dB,-9.00155600448187e+001°)
2.51188643150958e+001	(-3.68394971097716e+001dB,-9.00159224848202e+001°)
2.57039578276886e+001	(-3.66394971157407e+001dB,-9.00162933671338e+001°)
2.63026799189538e+001	(-3.64394971219912e+001dB,-9.00166728884060e+001°)
2.69153480392691e+001	(-3.62394971285362e+001dB,-9.00170612498642e+001°)
2.75422870333816e+001	(-3.60394971353897e+001dB,-9.00174586574225e+001°)
2.81838293126445e+001	(-3.58394971425662e+001dB,-9.00178653217919e+001°)
2.88403150312660e+001	(-3.56394971500809e+001dB,-9.00182814585910e+001°)
2.95120922666638e+001	(-3.54394971579498e+001dB,-9.00187072884611e+001°)
3.01995172040201e+001	(-3.52394971661895e+001dB,-9.00191430371829e+001°)
3.09029543251359e+001	(-3.50394971748176e+001dB,-9.00195889357959e+001°)
3.16227766016838e+001	(-3.48394971838522e+001dB,-9.00200452207216e+001°)
3.23593656929628e+001	(-3.46394971933127e+001dB,-9.00205121338883e+001°)
3.31131121482591e+001	(-3.44394972032190e+001dB,-9.00209899228594e+001°)
3.38844156139202e+001	(-3.42394972135922e+001dB,-9.00214788409649e+001°)
3.46736850452531e+001	(-3.40394972244543e+001dB,-9.00219791474356e+001°)
3.54813389233575e+001	(-3.38394972358283e+001dB,-9.00224911075407e+001°)
3.63078054770101e+001	(-3.36394972477383e+001dB,-9.00230149927282e+001°)
3.71535229097172e+001	(-3.34394972602096e+001dB,-9.00235510807687e+001°)
3.80189396320561e+001	(-3.32394972732687e+001dB,-9.00240996559033e+001°)
3.89045144994280e+001	(-3.30394972869432e+001dB,-9.00246610089937e+001°)
3.98107170553497e+001	(-3.28394973012622e+001dB,-9.00252354376767e+001°)
4.07380277804112e+001	(-3.26394973162560e+001dB,-9.00258232465220e+001°)
4.16869383470335e+001	(-3.24394973319565e+001dB,-9.00264247471934e+001°)
4.26579518801592e+001	(-3.22394973483969e+001dB,-9.00270402586146e+001°)
4.36515832240165e+001	(-3.20394973656121e+001dB,-9.00276701071378e+001°)
4.46683592150962e+001	(-3.18394973836386e+001dB,-9.00283146267168e+001°)
4.57088189614874e+001	(-3.16394974025147e+001dB,-9.00289741590846e+001°)
4.67735141287197e+001	(-3.14394974222805e+001dB,-9.00296490539337e+001°)
4.78630092322638e+001	(-3.12394974429777e+001dB,-9.00303396691023e+001°)
4.89778819368445e+001	(-3.10394974646504e+001dB,-9.00310463707635e+001°)
5.01187233627271e+001	(-3.08394974873444e+001dB,-9.00317695336198e+001°)
5.12861383991364e+001	(-3.06394975111081e+001dB,-9.00325095411017e+001°)
5.24807460249772e+001	(-3.04394975359916e+001dB,-9.00332667855708e+001°)
5.37031796370252e+001	(-3.02394975620479e+001dB,-9.00340416685279e+001°)
5.49540873857624e+001	(-3.00394975893322e+001dB,-9.00348346008262e+001°)
5.62341325190348e+001	(-2.98394976179023e+001dB,-9.00356460028886e+001°)
5.75439937337156e+001	(-2.96394976478189e+001dB,-9.00364763049312e+001°)
5.88843655355588e+001	(-2.94394976791455e+001dB,-9.00373259471909e+001°)
6.02559586074357e+001	(-2.92394977119484e+001dB,-9.00381953801591e+001°)
6.16595001861481e+001	(-2.90394977462972e+001dB,-9.00390850648204e+001°)
6.30957344480192e+001	(-2.88394977822649e+001dB,-9.00399954728973e+001°)
6.45654229034654e+001	(-2.86394978199277e+001dB,-9.00409270870998e+001°)
6.60693448007595e+001	(-2.84394978593655e+001dB,-9.00418804013820e+001°)
6.76082975391980e+001	(-2.82394979006619e+001dB,-9.00428559212035e+001°)
6.91830970918935e+001	(-2.80394979439046e+001dB,-9.00438541637974e+001°)
7.07945784384136e+001	(-2.78394979891852e+001dB,-9.00448756584450e+001°)
7.24435960074988e+001	(-2.76394980365998e+001dB,-9.00459209467558e+001°)
7.41310241300916e+001	(-2.74394980862490e+001dB,-9.00469905829552e+001°)
7.58577575029182e+001	(-2.72394981382382e+001dB,-9.00480851341782e+001°)
7.76247116628690e+001	(-2.70394981926774e+001dB,-9.00492051807699e+001°)
7.94328234724279e+001	(-2.68394982496824e+001dB,-9.00503513165933e+001°)
8.12830516164097e+001	(-2.66394983093739e+001dB,-9.00515241493444e+001°)
8.31763771102669e+001	(-2.64394983718785e+001dB,-9.00527243008742e+001°)
8.51138038202374e+001	(-2.62394984373289e+001dB,-9.00539524075184e+001°)
8.70963589956078e+001	(-2.60394985058639e+001dB,-9.00552091204348e+001°)
8.91250938133743e+001	(-2.58394985776289e+001dB,-9.00564951059486e+001°)
9.12010839355907e+001	(-2.56394986527760e+001dB,-9.00578110459058e+001°)
9.33254300796988e+001	(-2.54394987314647e+001dB,-9.00591576380343e+001°)
9.54992586021433e+001	(-2.52394988138619e+001dB,-9.00605355963146e+001°)
9.77237220955808e+001	(-2.50394989001424e+001dB,-9.00619456513574e+001°)
9.99999999999997e+001	(-2.48394989904891e+001dB,-9.00633885507918e+001°)
1.02329299228075e+002	(-2.46394990850937e+001dB,-9.00648650596612e+001°)
1.04712854805090e+002	(-2.44394991841569e+001dB,-9.00663759608293e+001°)
1.07151930523760e+002	(-2.42394992878888e+001dB,-9.00679220553948e+001°)
1.09647819614318e+002	(-2.40394993965095e+001dB,-9.00695041631163e+001°)
1.12201845430196e+002	(-2.38394995102493e+001dB,-9.00711231228472e+001°)
1.14815362149688e+002	(-2.36394996293494e+001dB,-9.00727797929799e+001°)
1.17489755493953e+002	(-2.34394997540626e+001dB,-9.00744750519017e+001°)
1.20226443461741e+002	(-2.32394998846533e+001dB,-9.00762097984596e+001°)
1.23026877081238e+002	(-2.30395000213986e+001dB,-9.00779849524378e+001°)
1.25892541179416e+002	(-2.28395001645885e+001dB,-9.00798014550446e+001°)
1.28824955169313e+002	(-2.26395003145267e+001dB,-9.00816602694121e+001°)
1.31825673855640e+002	(-2.24395004715313e+001dB,-9.00835623811061e+001°)
1.34896288259165e+002	(-2.22395006359353e+001dB,-9.00855087986495e+001°)
1.38038426460288e+002	(-2.20395008080874e+001dB,-9.00875005540563e+001°)
1.41253754462275e+002	(-2.18395009883528e+001dB,-9.00895387033793e+001°)
1.44543977074592e+002	(-2.16395011771139e+001dB,-9.00916243272696e+001°)
1.47910838816820e+002	(-2.14395013747709e+001dB,-9.00937585315498e+001°)
1.51356124843620e+002	(-2.12395015817433e+001dB,-9.00959424478004e+001°)
1.54881661891248e+002	(-2.10395017984699e+001dB,-9.00981772339596e+001°)
1.58489319246111e+002	(-2.08395020254106e+001dB,-9.01004640749371e+001°)
1.62181009735892e+002	(-2.06395022630467e+001dB,-9.01028041832428e+001°)
1.65958690743755e+002	(-2.04395025118821e+001dB,-9.01051987996290e+001°)
1.69824365246174e+002	(-2.02395027724449e+001dB,-9.01076491937490e+001°)
1.73780082874937e+002	(-2.00395030452875e+001dB,-9.01101566648297e+001°)
1.77827941003892e+002	(-1.98395033309889e+001dB,-9.01127225423607e+001°)
1.81970085860998e+002	(-1.96395036301549e+001dB,-9.01153481867991e+001°)
1.86208713666286e+002	(-1.94395039434202e+001dB,-9.01180349902909e+001°)
1.90546071796324e+002	(-1.92395042714493e+001dB,-9.01207843774090e+001°)
1.94984459975804e+002	(-1.90395046149378e+001dB,-9.01235978059084e+001°)
1.99526231496887e+002	(-1.88395049746145e+001dB,-9.01264767674996e+001°)
2.04173794466952e+002	(-1.86395053512422e+001dB,-9.01294227886389e+001°)
2.08929613085403e+002	(-1.84395057456198e+001dB,-9.01324374313378e+001°)
2.13796208950222e+002	(-1.82395061585838e+001dB,-9.01355222939916e+001°)
2.18776162394954e+002	(-1.80395065910102e+001dB,-9.01386790122264e+001°)
2.23872113856833e+002	(-1.78395070438163e+001dB,-9.01419092597664e+001°)
2.29086765276776e+002	(-1.76395075179624e+001dB,-9.01452147493215e+001°)
2.34422881531991e+002	(-1.74395080144543e+001dB,-9.01485972334951e+001°)
2.39883291901948e+002	(-1.72395085343452e+001dB,-9.01520585057133e+001°)
2.45470891568502e+002	(-1.70395090787378e+001dB,-9.01556004011759e+001°)
2.51188643150957e+002	(-1.68395096487867e+001dB,-9.01592247978293e+001°)
2.57039578276885e+002	(-1.66395102457012e+001dB,-9.01629336173622e+001°)
2.63026799189537e+002	(-1.64395108707475e+001dB,-9.01667288262243e+001°)
2.69153480392690e+002	(-1.62395115252512e+001dB,-9.01706124366692e+001°)
2.75422870333816e+002	(-1.60395122106007e+001dB,-9.01745865078206e+001°)
2.81838293126444e+002	(-1.58395129282497e+001dB,-9.01786531467648e+001°)
2.88403150312659e+002	(-1.56395136797204e+001dB,-9.01828145096672e+001°)
2.95120922666637e+002	(-1.54395144666069e+001dB,-9.01870728029156e+001°)
3.01995172040200e+002	(-1.52395152905781e+001dB,-9.01914302842902e+001°)
3.09029543251358e+002	(-1.50395161533818e+001dB,-9.01958892641602e+001°)
3.16227766016837e+002	(-1.48395170568482e+001dB,-9.02004521067089e+001°)
3.23593656929627e+002	(-1.46395180028936e+001dB,-9.02051212311870e+001°)
3.31131121482590e+002	(-1.44395189935247e+001dB,-9.02098991131954e+001°)
3.38844156139201e+002	(-1.42395200308427e+001dB,-9.02147882859974e+001°)
3.46736850452530e+002	(-1.40395211170480e+001dB,-9.02197913418617e+001°)
3.54813389233574e+002	(-1.38395222544445e+001dB,-9.02249109334367e+001°)
3.63078054770100e+002	(-1.36395234454448e+001dB,-9.02301497751573e+001°)
3.71535229097171e+002	(-1.34395246925751e+001dB,-9.02355106446829e+001°)
3.80189396320559e+002	(-1.32395259984808e+001dB,-9.02409963843711e+001°)
3.89045144994279e+002	(-1.30395273659318e+001dB,-9.02466099027835e+001°)
3.98107170553495e+002	(-1.28395287978287e+001dB,-9.02523541762285e+001°)
4.07380277804111e+002	(-1.26395302972087e+001dB,-9.02582322503385e+001°)
4.16869383470333e+002	(-1.24395318672521e+001dB,-9.02642472416846e+001°)
4.26579518801591e+002	(-1.22395335112894e+001dB,-9.02704023394292e+001°)
4.36515832240164e+002	(-1.20395352328075e+001dB,-9.02767008070158e+001°)
4.46683592150961e+002	(-1.18395370354581e+001dB,-9.02831459838997e+001°)
4.57088189614873e+002	(-1.16395389230649e+001dB,-9.02897412873180e+001°)
4.67735141287196e+002	(-1.14395408996316e+001dB,-9.02964902141010e+001°)
4.78630092322636e+002	(-1.12395429693509e+001dB,-9.03033963425260e+001°)
4.89778819368444e+002	(-1.10395451366128e+001dB,-9.03104633342140e+001°)
5.01187233627270e+002	(-1.08395474060143e+001dB,-9.03176949360707e+001°)
5.12861383991362e+002	(-1.06395497823691e+001dB,-9.03250949822727e+001°)
5.24807460249770e+002	(-1.04395522707178e+001dB,-9.03326673962997e+001°)
5.37031796370250e+002	(-1.02395548763384e+001dB,-9.03404161930144e+001°)
5.49540873857622e+002	(-1.00395576047578e+001dB,-9.03483454807906e+001°)
5.62341325190346e+002	(-9.83956046176317e+000dB,-9.03564594636908e+001°)
5.75439937337154e+002	(-9.63956345341462e+000dB,-9.03647624436943e+001°)
5.88843655355586e+002	(-9.43956658605779e+000dB,-9.03732588229779e+001°)
6.02559586074355e+002	(-9.23956986633733e+000dB,-9.03819531062486e+001°)
6.16595001861479e+002	(-9.03957330121110e+000dB,-9.03908499031316e+001°)
6.30957344480190e+002	(-8.83957689796484e+000dB,-9.03999539306132e+001°)
6.45654229034652e+002	(-8.63958066422765e+000dB,-9.04092700155408e+001°)
6.60693448007592e+002	(-8.43958460798819e+000dB,-9.04188030971812e+001°)
6.76082975391978e+002	(-8.23958873761159e+000dB,-9.04285582298384e+001°)
6.91830970918933e+002	(-8.03959306185720e+000dB,-9.04385405855317e+001°)
7.07945784384134e+002	(-7.83959758989721e+000dB,-9.04487554567373e+001°)
7.24435960074986e+002	(-7.63960233133605e+000dB,-9.04592082591923e+001°)
7.41310241300914e+002	(-7.43960729623079e+000dB,-9.04699045347653e+001°)
7.58577575029180e+002	(-7.23961249511247e+000dB,-9.04808499543927e+001°)
7.76247116628688e+002	(-7.03961793900842e+000dB,-9.04920503210842e+001°)
7.94328234724277e+002	(-6.83962363946565e+000dB,-9.05035115729969e+001°)
8.12830516164095e+002	(-6.63962960857538e+000dB,-9.05152397865826e+001°)
8.31763771102666e+002	(-6.43963585899864e+000dB,-9.05272411798072e+001°)
8.51138038202372e+002	(-6.23964240399314e+000dB,-9.05395221154449e+001°)
8.70963589956076e+002	(-6.03964925744138e+000dB,-9.05520891044497e+001°)
8.91250938133741e+002	(-5.83965643388012e+000dB,-9.05649488094047e+001°)
9.12010839355905e+002	(-5.63966394853118e+000dB,-9.05781080480521e+001°)
9.33254300796986e+002	(-5.43967181733375e+000dB,-9.05915737969046e+001°)
9.54992586021431e+002	(-5.23968005697818e+000dB,-9.06053531949413e+001°)
9.77237220955805e+002	(-5.03968868494138e+000dB,-9.06194535473896e+001°)
9.99999999999994e+002	(-4.83969771952388e+000dB,-9.06338823295944e+001°)
1.02329299228075e+003	(-4.63970717988868e+000dB,-9.06486471909777e+001°)
1.04712854805089e+003	(-4.43971708610184e+000dB,-9.06637559590901e+001°)
1.07151930523760e+003	(-4.23972745917509e+000dB,-9.06792166437565e+001°)
1.09647819614318e+003	(-4.03973832111033e+000dB,-9.06950374413178e+001°)
1.12201845430196e+003	(-3.83974969494637e+000dB,-9.07112267389718e+001°)
1.14815362149688e+003	(-3.63976160480770e+000dB,-9.07277931192139e+001°)
1.17489755493952e+003	(-3.43977407595577e+000dB,-9.07447453643820e+001°)
1.20226443461741e+003	(-3.23978713484242e+000dB,-9.07620924613062e+001°)
1.23026877081237e+003	(-3.03980080916613e+000dB,-9.07798436060666e+001°)
1.25892541179416e+003	(-2.83981512793064e+000dB,-9.07980082088622e+001°)
1.28824955169313e+003	(-2.63983012150653e+000dB,-9.08165958989915e+001°)
1.31825673855640e+003	(-2.43984582169559e+000dB,-9.08356165299498e+001°)
1.34896288259165e+003	(-2.23986226179829e+000dB,-9.08550801846444e+001°)
1.38038426460288e+003	(-2.03987947668438e+000dB,-9.08749971807307e+001°)
1.41253754462275e+003	(-1.83989750286687e+000dB,-9.08953780760720e+001°)
1.44543977074592e+003	(-1.63991637857940e+000dB,-9.09162336743261e+001°)
1.47910838816820e+003	(-1.43993614385739e+000dB,-9.09375750306613e+001°)
1.51356124843620e+003	(-1.23995684062287e+000dB,-9.09594134576048e+001°)
1.54881661891247e+003	(-1.03997851277345e+000dB,-9.09817605310269e+001°)
1.58489319246110e+003	(-8.40001206275344e-001dB,-9.10046280962635e+001°)
1.62181009735892e+003	(-6.40024969260887e-001dB,-9.10280282743805e+001°)
1.65958690743755e+003	(-4.40049852130567e-001dB,-9.10519734685832e+001°)
1.69824365246173e+003	(-2.40075907659923e-001dB,-9.10764763707746e+001°)
1.73780082874936e+003	(-4.01031911114430e-002dB,-9.11015499682642e+001°)
1.77827941003891e+003	(1.59868239648273e-001dB,-9.11272075506334e+001°)
1.81970085860997e+003	(3.59838324025793e-001dB,-9.11534627167588e+001°)
1.86208713666286e+003	(5.59806998572375e-001dB,-9.11803293819982e+001°)
1.90546071796323e+003	(7.59774196849460e-001dB,-9.12078217855424e+001°)
1.94984459975803e+003	(9.59739849287793e-001dB,-9.12359544979371e+001°)
1.99526231496887e+003	(1.15970388303989e+000dB,-9.12647424287783e+001°)
2.04173794466952e+003	(1.35966622182567e+000dB,-9.12942008345856e+001°)
2.08929613085403e+003	(1.55962678577063e+000dB,-9.13243453268565e+001°)
2.13796208950222e+003	(1.75958549123659e+000dB,-9.13551918803073e+001°)
2.18776162394954e+003	(1.95954225064434e+000dB,-9.13867568413034e+001°)
2.23872113856832e+003	(2.15949697228797e+000dB,-9.14190569364838e+001°)
2.29086765276776e+003	(2.35944956014048e+000dB,-9.14521092815845e+001°)
2.34422881531991e+003	(2.55939991365020e+000dB,-9.14859313904647e+001°)
2.39883291901947e+003	(2.75934792752767e+000dB,-9.15205411843409e+001°)
2.45470891568501e+003	(2.95929349152241e+000dB,-9.15559570012328e+001°)
2.51188643150956e+003	(3.15923649018926e+000dB,-9.15921976056263e+001°)
2.57039578276885e+003	(3.35917680264367e+000dB,-9.16292821983592e+001°)
2.63026799189536e+003	(3.55911430230549e+000dB,-9.16672304267322e+001°)
2.69153480392690e+003	(3.75904885663069e+000dB,-9.17060623948526e+001°)
2.75422870333815e+003	(3.95898032683044e+000dB,-9.17457986742154e+001°)
2.81838293126443e+003	(4.15890856757696e+000dB,-9.17864603145249e+001°)
2.88403150312659e+003	(4.35883342669561e+000dB,-9.18280688547659e+001°)
2.95120922666636e+003	(4.55875474484232e+000dB,-9.18706463345262e+001°)
3.01995172040199e+003	(4.75867235516603e+000dB,-9.19142153055783e+001°)
3.09029543251357e+003	(4.95858608295509e+000dB,-9.19587988437249e+001°)
3.16227766016836e+003	(5.15849574526709e+000dB,-9.20044205609150e+001°)
3.23593656929626e+003	(5.35840115054126e+000dB,-9.20511046176347e+001°)
3.31131121482589e+003	(5.55830209819266e+000dB,-9.20988757355804e+001°)
3.38844156139200e+003	(5.75819837818722e+000dB,-9.21477592106194e+001°)
3.46736850452529e+003	(5.95808977059681e+000dB,-9.21977809260446e+001°)
3.54813389233573e+003	(6.15797604513343e+000dB,-9.22489673661295e+001°)
3.63078054770099e+003	(6.35785696066140e+000dB,-9.23013456299892e+001°)
3.71535229097170e+003	(6.55773226468669e+000dB,-9.23549434457552e+001°)
3.80189396320558e+003	(6.75760169282215e+000dB,-9.24097891850695e+001°)
3.89045144994278e+003	(6.95746496822772e+000dB,-9.24659118779049e+001°)
3.98107170553494e+003	(7.15732180102414e+000dB,-9.25233412277189e+001°)
4.07380277804110e+003	(7.35717188767927e+000dB,-9.25821076269468e+001°)
4.16869383470332e+003	(7.55701491036547e+000dB,-9.26422421728432e+001°)
4.26579518801589e+003	(7.75685053628678e+000dB,-9.27037766836758e+001°)
4.36515832240162e+003	(7.95667841697451e+000dB,-9.27667437152826e+001°)
4.46683592150960e+003	(8.15649818754968e+000dB,-9.28311765779957e+001°)
4.57088189614871e+003	(8.35630946595089e+000dB,-9.28971093539426e+001°)
4.67735141287194e+003	(8.55611185212583e+000dB,-9.29645769147298e+001°)
4.78630092322634e+003	(8.75590492718487e+000dB,-9.30336149395184e+001°)
4.89778819368442e+003	(8.95568825251485e+000dB,-9.31042599334970e+001°)
5.01187233627268e+003	(9.15546136885135e+000dB,-9.31765492467621e+001°)
5.12861383991361e+003	(9.35522379530730e+000dB,-9.32505210936115e+001°)
5.24807460249768e+003	(9.55497502835605e+000dB,-9.33262145722601e+001°)
5.37031796370248e+003	(9.75471454076674e+000dB,-9.34036696849848e+001°)
