Freq.	V(n002)/-I(C1)
1.00000000000000e+001	(1.18015802684027e+002dB,-8.99999950338461e+001°)
1.02329299228075e+001	(1.17815802682352e+002dB,-8.99999949181696e+001°)
1.04712854805090e+001	(1.17615802680599e+002dB,-8.99999947997986e+001°)
1.07151930523761e+001	(1.17415802678763e+002dB,-8.99999946786704e+001°)
1.09647819614319e+001	(1.17215802676840e+002dB,-8.99999945547208e+001°)
1.12201845430196e+001	(1.17015802674827e+002dB,-8.99999944278841e+001°)
1.14815362149688e+001	(1.16815802672719e+002dB,-8.99999942980929e+001°)
1.17489755493953e+001	(1.16615802670511e+002dB,-8.99999941652785e+001°)
1.20226443461741e+001	(1.16415802668200e+002dB,-8.99999940293705e+001°)
1.23026877081238e+001	(1.16215802665779e+002dB,-8.99999938902968e+001°)
1.25892541179417e+001	(1.16015802663245e+002dB,-8.99999937479837e+001°)
1.28824955169313e+001	(1.15815802660591e+002dB,-8.99999936023557e+001°)
1.31825673855641e+001	(1.15615802657812e+002dB,-8.99999934533355e+001°)
1.34896288259165e+001	(1.15415802654902e+002dB,-8.99999933008443e+001°)
1.38038426460288e+001	(1.15215802651855e+002dB,-8.99999931448011e+001°)
1.41253754462275e+001	(1.15015802648664e+002dB,-8.99999929851231e+001°)
1.44543977074593e+001	(1.14815802645323e+002dB,-8.99999928217259e+001°)
1.47910838816821e+001	(1.14615802641824e+002dB,-8.99999926545226e+001°)
1.51356124843621e+001	(1.14415802638161e+002dB,-8.99999924834246e+001°)
1.54881661891248e+001	(1.14215802634324e+002dB,-8.99999923083414e+001°)
1.58489319246111e+001	(1.14015802630307e+002dB,-8.99999921291799e+001°)
1.62181009735893e+001	(1.13815802626101e+002dB,-8.99999919458452e+001°)
1.65958690743756e+001	(1.13615802621697e+002dB,-8.99999917582401e+001°)
1.69824365246174e+001	(1.13415802617085e+002dB,-8.99999915662652e+001°)
1.73780082874937e+001	(1.13215802612255e+002dB,-8.99999913698186e+001°)
1.77827941003892e+001	(1.13015802607198e+002dB,-8.99999911687962e+001°)
1.81970085860998e+001	(1.12815802601903e+002dB,-8.99999909630914e+001°)
1.86208713666287e+001	(1.12615802596358e+002dB,-8.99999907525952e+001°)
1.90546071796325e+001	(1.12415802590552e+002dB,-8.99999905371959e+001°)
1.94984459975804e+001	(1.12215802584472e+002dB,-8.99999903167793e+001°)
1.99526231496888e+001	(1.12015802578105e+002dB,-8.99999900912287e+001°)
2.04173794466953e+001	(1.11815802571439e+002dB,-8.99999898604243e+001°)
2.08929613085404e+001	(1.11615802564458e+002dB,-8.99999896242438e+001°)
2.13796208950223e+001	(1.11415802557149e+002dB,-8.99999893825620e+001°)
2.18776162394955e+001	(1.11215802549495e+002dB,-8.99999891352508e+001°)
2.23872113856834e+001	(1.11015802541480e+002dB,-8.99999888821790e+001°)
2.29086765276777e+001	(1.10815802533087e+002dB,-8.99999886232124e+001°)
2.34422881531992e+001	(1.10615802524299e+002dB,-8.99999883582138e+001°)
2.39883291901949e+001	(1.10415802515097e+002dB,-8.99999880870427e+001°)
2.45470891568503e+001	(1.10215802505461e+002dB,-8.99999878095552e+001°)
2.51188643150958e+001	(1.10015802495371e+002dB,-8.99999875256042e+001°)
2.57039578276886e+001	(1.09815802484805e+002dB,-8.99999872350393e+001°)
2.63026799189538e+001	(1.09615802473742e+002dB,-8.99999869377063e+001°)
2.69153480392691e+001	(1.09415802462157e+002dB,-8.99999866334477e+001°)
2.75422870333816e+001	(1.09215802450026e+002dB,-8.99999863221020e+001°)
2.81838293126445e+001	(1.09015802437323e+002dB,-8.99999860035042e+001°)
2.88403150312660e+001	(1.08815802424022e+002dB,-8.99999856774855e+001°)
2.95120922666638e+001	(1.08615802410093e+002dB,-8.99999853438729e+001°)
3.01995172040201e+001	(1.08415802395509e+002dB,-8.99999850024896e+001°)
3.09029543251359e+001	(1.08215802380237e+002dB,-8.99999846531546e+001°)
3.16227766016838e+001	(1.08015802364245e+002dB,-8.99999842956827e+001°)
3.23593656929628e+001	(1.07815802347500e+002dB,-8.99999839298843e+001°)
3.31131121482591e+001	(1.07615802329965e+002dB,-8.99999835555655e+001°)
3.38844156139202e+001	(1.07415802311604e+002dB,-8.99999831725279e+001°)
3.46736850452531e+001	(1.07215802292378e+002dB,-8.99999827805684e+001°)
3.54813389233575e+001	(1.07015802272245e+002dB,-8.99999823794792e+001°)
3.63078054770101e+001	(1.06815802251164e+002dB,-8.99999819690475e+001°)
3.71535229097172e+001	(1.06615802229090e+002dB,-8.99999815490560e+001°)
3.80189396320561e+001	(1.06415802205974e+002dB,-8.99999811192818e+001°)
3.89045144994280e+001	(1.06215802181770e+002dB,-8.99999806794971e+001°)
3.98107170553497e+001	(1.06015802156425e+002dB,-8.99999802294688e+001°)
4.07380277804112e+001	(1.05815802129885e+002dB,-8.99999797689582e+001°)
4.16869383470335e+001	(1.05615802102095e+002dB,-8.99999792977214e+001°)
4.26579518801592e+001	(1.05415802072995e+002dB,-8.99999788155083e+001°)
4.36515832240165e+001	(1.05215802042523e+002dB,-8.99999783220634e+001°)
4.46683592150962e+001	(1.05015802010615e+002dB,-8.99999778171250e+001°)
4.57088189614874e+001	(1.04815801977204e+002dB,-8.99999773004256e+001°)
4.67735141287197e+001	(1.04615801942218e+002dB,-8.99999767716911e+001°)
4.78630092322638e+001	(1.04415801905583e+002dB,-8.99999762306413e+001°)
4.89778819368445e+001	(1.04215801867221e+002dB,-8.99999756769892e+001°)
5.01187233627271e+001	(1.04015801827052e+002dB,-8.99999751104415e+001°)
5.12861383991364e+001	(1.03815801784989e+002dB,-8.99999745306978e+001°)
5.24807460249772e+001	(1.03615801740945e+002dB,-8.99999739374508e+001°)
5.37031796370252e+001	(1.03415801694824e+002dB,-8.99999733303859e+001°)
5.49540873857624e+001	(1.03215801646530e+002dB,-8.99999727091813e+001°)
5.62341325190348e+001	(1.03015801595959e+002dB,-8.99999720735078e+001°)
5.75439937337156e+001	(1.02815801543006e+002dB,-8.99999714230284e+001°)
5.88843655355588e+001	(1.02615801487557e+002dB,-8.99999707573982e+001°)
6.02559586074357e+001	(1.02415801429494e+002dB,-8.99999700762644e+001°)
6.16595001861481e+001	(1.02215801368695e+002dB,-8.99999693792660e+001°)
6.30957344480192e+001	(1.02015801305031e+002dB,-8.99999686660335e+001°)
6.45654229034654e+001	(1.01815801238367e+002dB,-8.99999679361888e+001°)
6.60693448007595e+001	(1.01615801168560e+002dB,-8.99999671893450e+001°)
6.76082975391980e+001	(1.01415801095464e+002dB,-8.99999664251064e+001°)
6.91830970918935e+001	(1.01215801018923e+002dB,-8.99999656430677e+001°)
7.07945784384136e+001	(1.01015800938774e+002dB,-8.99999648428145e+001°)
7.24435960074988e+001	(1.00815800854848e+002dB,-8.99999640239227e+001°)
7.41310241300916e+001	(1.00615800766967e+002dB,-8.99999631859581e+001°)
7.58577575029182e+001	(1.00415800674945e+002dB,-8.99999623284767e+001°)
7.76247116628690e+001	(1.00215800578585e+002dB,-8.99999614510240e+001°)
7.94328234724279e+001	(1.00015800477684e+002dB,-8.99999605531349e+001°)
8.12830516164097e+001	(9.98158003720277e+001dB,-8.99999596343335e+001°)
8.31763771102669e+001	(9.96158002613920e+001dB,-8.99999586941330e+001°)
8.51138038202374e+001	(9.94158001455422e+001dB,-8.99999577320350e+001°)
8.70963589956078e+001	(9.92158000242325e+001dB,-8.99999567475297e+001°)
8.91250938133743e+001	(9.90157998972057e+001dB,-8.99999557400953e+001°)
9.12010839355907e+001	(9.88157997641923e+001dB,-8.99999547091979e+001°)
9.33254300796988e+001	(9.86157996249102e+001dB,-8.99999536542914e+001°)
9.54992586021433e+001	(9.84157994790639e+001dB,-8.99999525748166e+001°)
9.77237220955808e+001	(9.82157993263441e+001dB,-8.99999514702016e+001°)
9.99999999999997e+001	(9.80157991664268e+001dB,-8.99999503398610e+001°)
1.02329299228075e+002	(9.78157989989729e+001dB,-8.99999491831959e+001°)
1.04712854805090e+002	(9.76157988236270e+001dB,-8.99999479995936e+001°)
1.07151930523760e+002	(9.74157986400174e+001dB,-8.99999467884269e+001°)
1.09647819614318e+002	(9.72157984477545e+001dB,-8.99999455490540e+001°)
1.12201845430196e+002	(9.70157982464306e+001dB,-8.99999442808184e+001°)
1.14815362149688e+002	(9.68157980356185e+001dB,-8.99999429830483e+001°)
1.17489755493953e+002	(9.66157978148712e+001dB,-8.99999416550561e+001°)
1.20226443461741e+002	(9.64157975837203e+001dB,-8.99999402961384e+001°)
1.23026877081238e+002	(9.62157973416757e+001dB,-8.99999389055753e+001°)
1.25892541179416e+002	(9.60157970882238e+001dB,-8.99999374826304e+001°)
1.28824955169313e+002	(9.58157968228271e+001dB,-8.99999360265499e+001°)
1.31825673855640e+002	(9.56157965449226e+001dB,-8.99999345365626e+001°)
1.34896288259165e+002	(9.54157962539209e+001dB,-8.99999330118795e+001°)
1.38038426460288e+002	(9.52157959492047e+001dB,-8.99999314516932e+001°)
1.41253754462275e+002	(9.50157956301276e+001dB,-8.99999298551774e+001°)
1.44543977074592e+002	(9.48157952960129e+001dB,-8.99999282214868e+001°)
1.47910838816820e+002	(9.46157949461519e+001dB,-8.99999265497564e+001°)
1.51356124843620e+002	(9.44157945798023e+001dB,-8.99999248391011e+001°)
1.54881661891248e+002	(9.42157941961873e+001dB,-8.99999230886154e+001°)
1.58489319246111e+002	(9.40157937944930e+001dB,-8.99999212973725e+001°)
1.62181009735892e+002	(9.38157933738674e+001dB,-8.99999194644243e+001°)
1.65958690743755e+002	(9.36157929334183e+001dB,-8.99999175888007e+001°)
1.69824365246174e+002	(9.34157924722115e+001dB,-8.99999156695091e+001°)
1.73780082874937e+002	(9.32157919892686e+001dB,-8.99999137055336e+001°)
1.77827941003892e+002	(9.30157914835653e+001dB,-8.99999116958352e+001°)
1.81970085860998e+002	(9.28157909540288e+001dB,-8.99999096393505e+001°)
1.86208713666286e+002	(9.26157903995361e+001dB,-8.99999075349916e+001°)
1.90546071796324e+002	(9.24157898189109e+001dB,-8.99999053816452e+001°)
1.94984459975804e+002	(9.22157892109217e+001dB,-8.99999031781725e+001°)
1.99526231496887e+002	(9.20157885742787e+001dB,-8.99999009234080e+001°)
2.04173794466952e+002	(9.18157879076317e+001dB,-8.99998986161595e+001°)
2.08929613085403e+002	(9.16157872095664e+001dB,-8.99998962552070e+001°)
2.13796208950222e+002	(9.14157864786023e+001dB,-8.99998938393023e+001°)
2.18776162394954e+002	(9.12157857131889e+001dB,-8.99998913671685e+001°)
2.23872113856833e+002	(9.10157849117026e+001dB,-8.99998888374990e+001°)
2.29086765276776e+002	(9.08157840724433e+001dB,-8.99998862489570e+001°)
2.34422881531991e+002	(9.06157831936308e+001dB,-8.99998836001748e+001°)
2.39883291901948e+002	(9.04157822734010e+001dB,-8.99998808897532e+001°)
2.45470891568502e+002	(9.02157813098022e+001dB,-8.99998781162607e+001°)
2.51188643150957e+002	(9.00157803007901e+001dB,-8.99998752782325e+001°)
2.57039578276885e+002	(8.98157792442246e+001dB,-8.99998723741703e+001°)
2.63026799189537e+002	(8.96157781378646e+001dB,-8.99998694025411e+001°)
2.69153480392690e+002	(8.94157769793633e+001dB,-8.99998663617766e+001°)
2.75422870333816e+002	(8.92157757662634e+001dB,-8.99998632502723e+001°)
2.81838293126444e+002	(8.90157744959916e+001dB,-8.99998600663870e+001°)
2.88403150312659e+002	(8.88157731658536e+001dB,-8.99998568084413e+001°)
2.95120922666637e+002	(8.86157717730278e+001dB,-8.99998534747176e+001°)
3.01995172040200e+002	(8.84157703145600e+001dB,-8.99998500634584e+001°)
3.09029543251358e+002	(8.82157687873564e+001dB,-8.99998465728662e+001°)
3.16227766016837e+002	(8.80157671881776e+001dB,-8.99998430011020e+001°)
3.23593656929627e+002	(8.78157655136315e+001dB,-8.99998393462847e+001°)
3.31131121482590e+002	(8.76157637601661e+001dB,-8.99998356064900e+001°)
3.38844156139201e+002	(8.74157619240621e+001dB,-8.99998317797496e+001°)
3.46736850452530e+002	(8.72157600014247e+001dB,-8.99998278640500e+001°)
3.54813389233574e+002	(8.70157579881757e+001dB,-8.99998238573319e+001°)
3.63078054770100e+002	(8.68157558800448e+001dB,-8.99998197574887e+001°)
3.71535229097171e+002	(8.66157536725601e+001dB,-8.99998155623657e+001°)
3.80189396320559e+002	(8.64157513610392e+001dB,-8.99998112697593e+001°)
3.89045144994279e+002	(8.62157489405790e+001dB,-8.99998068774154e+001°)
3.98107170553495e+002	(8.60157464060453e+001dB,-8.99998023830287e+001°)
4.07380277804111e+002	(8.58157437520619e+001dB,-8.99997977842415e+001°)
4.16869383470333e+002	(8.56157409729993e+001dB,-8.99997930786426e+001°)
4.26579518801591e+002	(8.54157380629624e+001dB,-8.99997882637660e+001°)
4.36515832240164e+002	(8.52157350157786e+001dB,-8.99997833370899e+001°)
4.46683592150961e+002	(8.50157318249844e+001dB,-8.99997782960355e+001°)
4.57088189614873e+002	(8.48157284838113e+001dB,-8.99997731379655e+001°)
4.67735141287196e+002	(8.46157249851722e+001dB,-8.99997678601834e+001°)
4.78630092322636e+002	(8.44157213216457e+001dB,-8.99997624599318e+001°)
4.89778819368444e+002	(8.42157174854608e+001dB,-8.99997569343913e+001°)
5.01187233627270e+002	(8.40157134684802e+001dB,-8.99997512806794e+001°)
5.12861383991362e+002	(8.38157092621831e+001dB,-8.99997454958487e+001°)
5.24807460249770e+002	(8.36157048576471e+001dB,-8.99997395768861e+001°)
5.37031796370250e+002	(8.34157002455292e+001dB,-8.99997335207112e+001°)
5.49540873857622e+002	(8.32156954160461e+001dB,-8.99997273241749e+001°)
5.62341325190346e+002	(8.30156903589536e+001dB,-8.99997209840583e+001°)
5.75439937337154e+002	(8.28156850635244e+001dB,-8.99997144970710e+001°)
5.88843655355586e+002	(8.26156795185257e+001dB,-8.99997078598497e+001°)
6.02559586074355e+002	(8.24156737121954e+001dB,-8.99997010689573e+001°)
6.16595001861479e+002	(8.22156676322168e+001dB,-8.99996941208806e+001°)
6.30957344480190e+002	(8.20156612656930e+001dB,-8.99996870120296e+001°)
6.45654229034652e+002	(8.18156545991190e+001dB,-8.99996797387358e+001°)
6.60693448007592e+002	(8.16156476183533e+001dB,-8.99996722972505e+001°)
6.76082975391978e+002	(8.14156403085881e+001dB,-8.99996646837438e+001°)
6.91830970918933e+002	(8.12156326543175e+001dB,-8.99996568943026e+001°)
7.07945784384134e+002	(8.10156246393047e+001dB,-8.99996489249295e+001°)
7.24435960074986e+002	(8.08156162465478e+001dB,-8.99996407715411e+001°)
7.41310241300914e+002	(8.06156074582435e+001dB,-8.99996324299669e+001°)
7.58577575029180e+002	(8.04155982557493e+001dB,-8.99996238959470e+001°)
7.76247116628688e+002	(8.02155886195441e+001dB,-8.99996151651316e+001°)
7.94328234724277e+002	(8.00155785291868e+001dB,-8.99996062330788e+001°)
8.12830516164095e+002	(7.98155679632725e+001dB,-8.99995970952536e+001°)
8.31763771102666e+002	(7.96155568993878e+001dB,-8.99995877470260e+001°)
8.51138038202372e+002	(7.94155453140627e+001dB,-8.99995781836700e+001°)
8.70963589956076e+002	(7.92155331827209e+001dB,-8.99995684003620e+001°)
8.91250938133741e+002	(7.90155204796278e+001dB,-8.99995583921795e+001°)
9.12010839355905e+002	(7.88155071778358e+001dB,-8.99995481540996e+001°)
9.33254300796986e+002	(7.86154932491271e+001dB,-8.99995376809979e+001°)
9.54992586021431e+002	(7.84154786639539e+001dB,-8.99995269676469e+001°)
9.77237220955805e+002	(7.82154633913754e+001dB,-8.99995160087154e+001°)
9.99999999999994e+002	(7.80154473989928e+001dB,-8.99995047987665e+001°)
1.02329299228075e+003	(7.78154306528798e+001dB,-8.99994933322573e+001°)
1.04712854805089e+003	(7.76154131175111e+001dB,-8.99994816035373e+001°)
1.07151930523760e+003	(7.74153947556866e+001dB,-8.99994696068478e+001°)
1.09647819614318e+003	(7.72153755284530e+001dB,-8.99994573363210e+001°)
1.12201845430196e+003	(7.70153553950207e+001dB,-8.99994447859790e+001°)
1.14815362149688e+003	(7.68153343126773e+001dB,-8.99994319497333e+001°)
1.17489755493952e+003	(7.66153122366969e+001dB,-8.99994188213844e+001°)
1.20226443461741e+003	(7.64152891202455e+001dB,-8.99994053946213e+001°)
1.23026877081237e+003	(7.62152649142812e+001dB,-8.99993916630213e+001°)
1.25892541179416e+003	(7.60152395674502e+001dB,-8.99993776200497e+001°)
1.28824955169313e+003	(7.58152130259779e+001dB,-8.99993632590602e+001°)
1.31825673855640e+003	(7.56151852335547e+001dB,-8.99993485732952e+001°)
1.34896288259165e+003	(7.54151561312164e+001dB,-8.99993335558858e+001°)
1.38038426460288e+003	(7.52151256572192e+001dB,-8.99993181998534e+001°)
1.41253754462275e+003	(7.50150937469083e+001dB,-8.99993024981098e+001°)
1.44543977074592e+003	(7.48150603325810e+001dB,-8.99992864434592e+001°)
1.47910838816820e+003	(7.46150253433426e+001dB,-8.99992700285993e+001°)
1.51356124843620e+003	(7.44149887049559e+001dB,-8.99992532461234e+001°)
1.54881661891247e+003	(7.42149503396842e+001dB,-8.99992360885228e+001°)
1.58489319246110e+003	(7.40149101661252e+001dB,-8.99992185481891e+001°)
1.62181009735892e+003	(7.38148680990388e+001dB,-8.99992006174178e+001°)
1.65958690743755e+003	(7.36148240491661e+001dB,-8.99991822884110e+001°)
1.69824365246173e+003	(7.34147779230394e+001dB,-8.99991635532826e+001°)
1.73780082874936e+003	(7.32147296227840e+001dB,-8.99991444040617e+001°)
1.77827941003891e+003	(7.30146790459102e+001dB,-8.99991248326986e+001°)
1.81970085860997e+003	(7.28146260850955e+001dB,-8.99991048310702e+001°)
1.86208713666286e+003	(7.26145706279568e+001dB,-8.99990843909864e+001°)
1.90546071796323e+003	(7.24145125568115e+001dB,-8.99990635041977e+001°)
1.94984459975803e+003	(7.22144517484273e+001dB,-8.99990421624026e+001°)
1.99526231496887e+003	(7.20143880737608e+001dB,-8.99990203572570e+001°)
2.04173794466952e+003	(7.18143213976826e+001dB,-8.99989980803838e+001°)
2.08929613085403e+003	(7.16142515786907e+001dB,-8.99989753233834e+001°)
2.13796208950222e+003	(7.14141784686095e+001dB,-8.99989520778461e+001°)
2.18776162394954e+003	(7.12141019122746e+001dB,-8.99989283353645e+001°)
2.23872113856832e+003	(7.10140217472034e+001dB,-8.99989040875483e+001°)
2.29086765276776e+003	(7.08139378032492e+001dB,-8.99988793260397e+001°)
2.34422881531991e+003	(7.06138499022398e+001dB,-8.99988540425305e+001°)
2.39883291901947e+003	(7.04137578575980e+001dB,-8.99988282287806e+001°)
2.45470891568501e+003	(7.02136614739455e+001dB,-8.99988018766388e+001°)
2.51188643150956e+003	(7.00135605466866e+001dB,-8.99987749780642e+001°)
2.57039578276885e+003	(6.98134548615736e+001dB,-8.99987475251512e+001°)
2.63026799189536e+003	(6.96133441942502e+001dB,-8.99987195101549e+001°)
2.69153480392690e+003	(6.94132283097747e+001dB,-8.99986909255202e+001°)
2.75422870333815e+003	(6.92131069621196e+001dB,-8.99986617639124e+001°)
2.81838293126443e+003	(6.90129798936477e+001dB,-8.99986320182506e+001°)
2.88403150312659e+003	(6.88128468345642e+001dB,-8.99986016817447e+001°)
2.95120922666636e+003	(6.86127075023415e+001dB,-8.99985707479339e+001°)
3.01995172040199e+003	(6.84125616011176e+001dB,-8.99985392107301e+001°)
3.09029543251357e+003	(6.82124088210662e+001dB,-8.99985070644637e+001°)
3.16227766016836e+003	(6.80122488377362e+001dB,-8.99984743039335e+001°)
3.23593656929626e+003	(6.78120813113600e+001dB,-8.99984409244609e+001°)
3.31131121482589e+003	(6.76119058861299e+001dB,-8.99984069219478e+001°)
3.38844156139200e+003	(6.74117221894389e+001dB,-8.99983722929402e+001°)
3.46736850452529e+003	(6.72115298310863e+001dB,-8.99983370346954e+001°)
3.54813389233573e+003	(6.70113284024451e+001dB,-8.99983011452564e+001°)
3.63078054770099e+003	(6.68111174755903e+001dB,-8.99982646235300e+001°)
3.71535229097170e+003	(6.66108966023853e+001dB,-8.99982274693732e+001°)
3.80189396320558e+003	(6.64106653135256e+001dB,-8.99981896836845e+001°)
3.89045144994278e+003	(6.62104231175357e+001dB,-8.99981512685037e+001°)
3.98107170553494e+003	(6.60101694997198e+001dB,-8.99981122271189e+001°)
4.07380277804110e+003	(6.58099039210618e+001dB,-8.99980725641812e+001°)
4.16869383470332e+003	(6.56096258170726e+001dB,-8.99980322858295e+001°)
4.26579518801589e+003	(6.54093345965830e+001dB,-8.99979913998238e+001°)
4.36515832240162e+003	(6.52090296404791e+001dB,-8.99979499156894e+001°)
4.46683592150960e+003	(6.50087103003771e+001dB,-8.99979078448716e+001°)
4.57088189614871e+003	(6.48083758972349e+001dB,-8.99978652009027e+001°)
4.67735141287194e+003	(6.46080257198974e+001dB,-8.99978219995812e+001°)
4.78630092322634e+003	(6.44076590235726e+001dB,-8.99977782591650e+001°)
4.89778819368442e+003	(6.42072750282346e+001dB,-8.99977340005792e+001°)
5.01187233627268e+003	(6.40068729169498e+001dB,-8.99976892476392e+001°)
5.12861383991361e+003	(6.38064518341238e+001dB,-8.99976440272910e+001°)
5.24807460249768e+003	(6.36060108836640e+001dB,-8.99975983698697e+001°)
5.37031796370248e+003	(6.34055491270535e+001dB,-8.99975523093771e+001°)
5.49540873857620e+003	(6.32050655813334e+001dB,-8.99975058837800e+001°)
5.62341325190344e+003	(6.30045592169881e+001dB,-8.99974591353315e+001°)
5.75439937337152e+003	(6.28040289557283e+001dB,-8.99974121109160e+001°)
