Freq.	V(vo)
Step Information: Run=1  (Run: 1/20)
1.00000000000000e+001	(-4.48394969508387e+001dB,-9.00003989843874e+001°)
1.02329299228075e+001	(-4.46394969493175e+001dB,-9.00004082779276e+001°)
1.04712854805090e+001	(-4.44394969477247e+001dB,-9.00004177879422e+001°)
1.07151930523761e+001	(-4.42394969460568e+001dB,-9.00004275194735e+001°)
1.09647819614319e+001	(-4.40394969443103e+001dB,-9.00004374776813e+001°)
1.12201845430196e+001	(-4.38394969424815e+001dB,-9.00004476678456e+001°)
1.14815362149688e+001	(-4.36394969405665e+001dB,-9.00004580953693e+001°)
1.17489755493953e+001	(-4.34394969385613e+001dB,-9.00004687657812e+001°)
1.20226443461741e+001	(-4.32394969364616e+001dB,-9.00004796847389e+001°)
1.23026877081238e+001	(-4.30394969342629e+001dB,-9.00004908580318e+001°)
1.25892541179417e+001	(-4.28394969319606e+001dB,-9.00005022915842e+001°)
1.28824955169313e+001	(-4.26394969295497e+001dB,-9.00005139914582e+001°)
1.31825673855641e+001	(-4.24394969270253e+001dB,-9.00005259638573e+001°)
1.34896288259165e+001	(-4.22394969243819e+001dB,-9.00005382151293e+001°)
1.38038426460288e+001	(-4.20394969216139e+001dB,-9.00005507517702e+001°)
1.41253754462275e+001	(-4.18394969187154e+001dB,-9.00005635804269e+001°)
1.44543977074593e+001	(-4.16394969156804e+001dB,-9.00005767079014e+001°)
1.47910838816821e+001	(-4.14394969125023e+001dB,-9.00005901411541e+001°)
1.51356124843621e+001	(-4.12394969091744e+001dB,-9.00006038873075e+001°)
1.54881661891248e+001	(-4.10394969056897e+001dB,-9.00006179536499e+001°)
1.58489319246111e+001	(-4.08394969020408e+001dB,-9.00006323476395e+001°)
1.62181009735893e+001	(-4.06394968982199e+001dB,-9.00006470769082e+001°)
1.65958690743756e+001	(-4.04394968942189e+001dB,-9.00006621492656e+001°)
1.69824365246174e+001	(-4.02394968900294e+001dB,-9.00006775727034e+001°)
1.73780082874937e+001	(-4.00394968856424e+001dB,-9.00006933553991e+001°)
1.77827941003892e+001	(-3.98394968810487e+001dB,-9.00007095057211e+001°)
1.81970085860998e+001	(-3.96394968762384e+001dB,-9.00007260322324e+001°)
1.86208713666287e+001	(-3.94394968712015e+001dB,-9.00007429436956e+001°)
1.90546071796325e+001	(-3.92394968659272e+001dB,-9.00007602490774e+001°)
1.94984459975804e+001	(-3.90394968604043e+001dB,-9.00007779575533e+001°)
1.99526231496888e+001	(-3.88394968546211e+001dB,-9.00007960785126e+001°)
2.04173794466953e+001	(-3.86394968485654e+001dB,-9.00008146215632e+001°)
2.08929613085404e+001	(-3.84394968422243e+001dB,-9.00008335965370e+001°)
2.13796208950223e+001	(-3.82394968355844e+001dB,-9.00008530134947e+001°)
2.18776162394955e+001	(-3.80394968286315e+001dB,-9.00008728827315e+001°)
2.23872113856834e+001	(-3.78394968213509e+001dB,-9.00008932147823e+001°)
2.29086765276777e+001	(-3.76394968137272e+001dB,-9.00009140204273e+001°)
2.34422881531992e+001	(-3.74394968057442e+001dB,-9.00009353106981e+001°)
2.39883291901949e+001	(-3.72394967973850e+001dB,-9.00009570968830e+001°)
2.45470891568503e+001	(-3.70394967886318e+001dB,-9.00009793905333e+001°)
2.51188643150958e+001	(-3.68394967794661e+001dB,-9.00010022034695e+001°)
2.57039578276886e+001	(-3.66394967698684e+001dB,-9.00010255477872e+001°)
2.63026799189538e+001	(-3.64394967598184e+001dB,-9.00010494358639e+001°)
2.69153480392691e+001	(-3.62394967492948e+001dB,-9.00010738803654e+001°)
2.75422870333816e+001	(-3.60394967382752e+001dB,-9.00010988942525e+001°)
2.81838293126445e+001	(-3.58394967267363e+001dB,-9.00011244907879e+001°)
2.88403150312660e+001	(-3.56394967146535e+001dB,-9.00011506835431e+001°)
2.95120922666638e+001	(-3.54394967020013e+001dB,-9.00011774864061e+001°)
3.01995172040201e+001	(-3.52394966887529e+001dB,-9.00012049135879e+001°)
3.09029543251359e+001	(-3.50394966748800e+001dB,-9.00012329796308e+001°)
3.16227766016838e+001	(-3.48394966603534e+001dB,-9.00012616994159e+001°)
3.23593656929628e+001	(-3.46394966451421e+001dB,-9.00012910881707e+001°)
3.31131121482591e+001	(-3.44394966292139e+001dB,-9.00013211614776e+001°)
3.38844156139202e+001	(-3.42394966125351e+001dB,-9.00013519352817e+001°)
3.46736850452531e+001	(-3.40394965950702e+001dB,-9.00013834258999e+001°)
3.54813389233575e+001	(-3.38394965767822e+001dB,-9.00014156500287e+001°)
3.63078054770101e+001	(-3.36394965576323e+001dB,-9.00014486247540e+001°)
3.71535229097172e+001	(-3.34394965375800e+001dB,-9.00014823675593e+001°)
3.80189396320561e+001	(-3.32394965165826e+001dB,-9.00015168963355e+001°)
3.89045144994280e+001	(-3.30394964945956e+001dB,-9.00015522293902e+001°)
3.98107170553497e+001	(-3.28394964715724e+001dB,-9.00015883854575e+001°)
4.07380277804112e+001	(-3.26394964474641e+001dB,-9.00016253837078e+001°)
4.16869383470335e+001	(-3.24394964222197e+001dB,-9.00016632437581e+001°)
4.26579518801592e+001	(-3.22394963957855e+001dB,-9.00017019856823e+001°)
4.36515832240165e+001	(-3.20394963681055e+001dB,-9.00017416300218e+001°)
4.46683592150962e+001	(-3.18394963391210e+001dB,-9.00017821977966e+001°)
4.57088189614874e+001	(-3.16394963087706e+001dB,-9.00018237105162e+001°)
4.67735141287197e+001	(-3.14394962769897e+001dB,-9.00018661901914e+001°)
4.78630092322638e+001	(-3.12394962437110e+001dB,-9.00019096593452e+001°)
4.89778819368445e+001	(-3.10394962088640e+001dB,-9.00019541410258e+001°)
5.01187233627271e+001	(-3.08394961723747e+001dB,-9.00019996588179e+001°)
5.12861383991364e+001	(-3.06394961341657e+001dB,-9.00020462368555e+001°)
5.24807460249772e+001	(-3.04394960941559e+001dB,-9.00020938998350e+001°)
5.37031796370252e+001	(-3.02394960522606e+001dB,-9.00021426730279e+001°)
5.49540873857624e+001	(-3.00394960083908e+001dB,-9.00021925822945e+001°)
5.62341325190348e+001	(-2.98394959624535e+001dB,-9.00022436540972e+001°)
5.75439937337156e+001	(-2.96394959143512e+001dB,-9.00022959155151e+001°)
5.88843655355588e+001	(-2.94394958639819e+001dB,-9.00023493942578e+001°)
6.02559586074357e+001	(-2.92394958112388e+001dB,-9.00024041186805e+001°)
6.16595001861481e+001	(-2.90394957560100e+001dB,-9.00024601177987e+001°)
6.30957344480192e+001	(-2.88394956981783e+001dB,-9.00025174213040e+001°)
6.45654229034654e+001	(-2.86394956376211e+001dB,-9.00025760595794e+001°)
6.60693448007595e+001	(-2.84394955742099e+001dB,-9.00026360637158e+001°)
6.76082975391980e+001	(-2.82394955078103e+001dB,-9.00026974655280e+001°)
6.91830970918935e+001	(-2.80394954382813e+001dB,-9.00027602975723e+001°)
7.07945784384136e+001	(-2.78394953654755e+001dB,-9.00028245931629e+001°)
7.24435960074988e+001	(-2.76394952892385e+001dB,-9.00028903863902e+001°)
7.41310241300916e+001	(-2.74394952094086e+001dB,-9.00029577121388e+001°)
7.58577575029182e+001	(-2.72394951258164e+001dB,-9.00030266061055e+001°)
7.76247116628690e+001	(-2.70394950382846e+001dB,-9.00030971048189e+001°)
7.94328234724279e+001	(-2.68394949466276e+001dB,-9.00031692456583e+001°)
8.12830516164097e+001	(-2.66394948506509e+001dB,-9.00032430668738e+001°)
8.31763771102669e+001	(-2.64394947501509e+001dB,-9.00033186076064e+001°)
8.51138038202374e+001	(-2.62394946449146e+001dB,-9.00033959079087e+001°)
8.70963589956078e+001	(-2.60394945347186e+001dB,-9.00034750087665e+001°)
8.91250938133743e+001	(-2.58394944193292e+001dB,-9.00035559521200e+001°)
9.12010839355907e+001	(-2.56394942985017e+001dB,-9.00036387808864e+001°)
9.33254300796988e+001	(-2.54394941719797e+001dB,-9.00037235389828e+001°)
9.54992586021433e+001	(-2.52394940394950e+001dB,-9.00038102713490e+001°)
9.77237220955808e+001	(-2.50394939007664e+001dB,-9.00038990239716e+001°)
9.99999999999997e+001	(-2.48394937554998e+001dB,-9.00039898439085e+001°)
1.02329299228075e+002	(-2.46394936033870e+001dB,-9.00040827793135e+001°)
1.04712854805090e+002	(-2.44394934441053e+001dB,-9.00041778794624e+001°)
1.07151930523760e+002	(-2.42394932773168e+001dB,-9.00042751947784e+001°)
1.09647819614318e+002	(-2.40394931026679e+001dB,-9.00043747768595e+001°)
1.12201845430196e+002	(-2.38394929197881e+001dB,-9.00044766785053e+001°)
1.14815362149688e+002	(-2.36394927282893e+001dB,-9.00045809537456e+001°)
1.17489755493953e+002	(-2.34394925277655e+001dB,-9.00046876578684e+001°)
1.20226443461741e+002	(-2.32394923177913e+001dB,-9.00047968474497e+001°)
1.23026877081238e+002	(-2.30394920979213e+001dB,-9.00049085803833e+001°)
1.25892541179416e+002	(-2.28394918676892e+001dB,-9.00050229159114e+001°)
1.28824955169313e+002	(-2.26394916266065e+001dB,-9.00051399146564e+001°)
1.31825673855640e+002	(-2.24394913741620e+001dB,-9.00052596386524e+001°)
1.34896288259165e+002	(-2.22394911098201e+001dB,-9.00053821513789e+001°)
1.38038426460288e+002	(-2.20394908330201e+001dB,-9.00055075177935e+001°)
1.41253754462275e+002	(-2.18394905431750e+001dB,-9.00056358043674e+001°)
1.44543977074592e+002	(-2.16394902396698e+001dB,-9.00057670791199e+001°)
1.47910838816820e+002	(-2.14394899218609e+001dB,-9.00059014116544e+001°)
1.51356124843620e+002	(-2.12394895890741e+001dB,-9.00060388731961e+001°)
1.54881661891248e+002	(-2.10394892406036e+001dB,-9.00061795366287e+001°)
1.58489319246111e+002	(-2.08394888757101e+001dB,-9.00063234765340e+001°)
1.62181009735892e+002	(-2.06394884936197e+001dB,-9.00064707692309e+001°)
1.65958690743755e+002	(-2.04394880935219e+001dB,-9.00066214928159e+001°)
1.69824365246174e+002	(-2.02394876745680e+001dB,-9.00067757272047e+001°)
1.73780082874937e+002	(-2.00394872358695e+001dB,-9.00069335541745e+001°)
1.77827941003892e+002	(-1.98394867764957e+001dB,-9.00070950574073e+001°)
1.81970085860998e+002	(-1.96394862954722e+001dB,-9.00072603225343e+001°)
1.86208713666286e+002	(-1.94394857917788e+001dB,-9.00074294371813e+001°)
1.90546071796324e+002	(-1.92394852643470e+001dB,-9.00076024910152e+001°)
1.94984459975804e+002	(-1.90394847120581e+001dB,-9.00077795757914e+001°)
1.99526231496887e+002	(-1.88394841337406e+001dB,-9.00079607854029e+001°)
2.04173794466952e+002	(-1.86394835281678e+001dB,-9.00081462159294e+001°)
2.08929613085403e+002	(-1.84394828940551e+001dB,-9.00083359656886e+001°)
2.13796208950222e+002	(-1.82394822300576e+001dB,-9.00085301352886e+001°)
2.18776162394954e+002	(-1.80394815347668e+001dB,-9.00087288276806e+001°)
2.23872113856833e+002	(-1.78394808067078e+001dB,-9.00089321482142e+001°)
2.29086765276776e+002	(-1.76394800443365e+001dB,-9.00091402046927e+001°)
2.34422881531991e+002	(-1.74394792460356e+001dB,-9.00093531074305e+001°)
2.39883291901948e+002	(-1.72394784101119e+001dB,-9.00095709693116e+001°)
2.45470891568502e+002	(-1.70394775347922e+001dB,-9.00097939058493e+001°)
2.51188643150957e+002	(-1.68394766182199e+001dB,-9.00100220352478e+001°)
2.57039578276885e+002	(-1.66394756584507e+001dB,-9.00102554784644e+001°)
2.63026799189537e+002	(-1.64394746534489e+001dB,-9.00104943592740e+001°)
2.69153480392690e+002	(-1.62394736010827e+001dB,-9.00107388043345e+001°)
2.75422870333816e+002	(-1.60394724991199e+001dB,-9.00109889432541e+001°)
2.81838293126444e+002	(-1.58394713452230e+001dB,-9.00112449086601e+001°)
2.88403150312659e+002	(-1.56394701369444e+001dB,-9.00115068362688e+001°)
2.95120922666637e+002	(-1.54394688717212e+001dB,-9.00117748649579e+001°)
3.01995172040200e+002	(-1.52394675468697e+001dB,-9.00120491368402e+001°)
3.09029543251358e+002	(-1.50394661595797e+001dB,-9.00123297973385e+001°)
3.16227766016837e+002	(-1.48394647069084e+001dB,-9.00126169952629e+001°)
3.23593656929627e+002	(-1.46394631857745e+001dB,-9.00129108828900e+001°)
3.31131121482590e+002	(-1.44394615929516e+001dB,-9.00132116160431e+001°)
3.38844156139201e+002	(-1.42394599250609e+001dB,-9.00135193541753e+001°)
3.46736850452530e+002	(-1.40394581785645e+001dB,-9.00138342604539e+001°)
3.54813389233574e+002	(-1.38394563497579e+001dB,-9.00141565018468e+001°)
3.63078054770100e+002	(-1.36394544347619e+001dB,-9.00144862492110e+001°)
3.71535229097171e+002	(-1.34394524295145e+001dB,-9.00148236773834e+001°)
3.80189396320559e+002	(-1.32394503297621e+001dB,-9.00151689652735e+001°)
3.89045144994279e+002	(-1.30394481310509e+001dB,-9.00155222959580e+001°)
3.98107170553495e+002	(-1.28394458287170e+001dB,-9.00158838567781e+001°)
4.07380277804111e+002	(-1.26394434178767e+001dB,-9.00162538394387e+001°)
4.16869383470333e+002	(-1.24394408934163e+001dB,-9.00166324401103e+001°)
4.26579518801591e+002	(-1.22394382499809e+001dB,-9.00170198595326e+001°)
4.36515832240164e+002	(-1.20394354819634e+001dB,-9.00174163031213e+001°)
4.46683592150961e+002	(-1.18394325834922e+001dB,-9.00178219810769e+001°)
4.57088189614873e+002	(-1.16394295484192e+001dB,-9.00182371084961e+001°)
4.67735141287196e+002	(-1.14394263703064e+001dB,-9.00186619054860e+001°)
4.78630092322636e+002	(-1.12394230424125e+001dB,-9.00190965972804e+001°)
4.89778819368444e+002	(-1.10394195576784e+001dB,-9.00195414143599e+001°)
5.01187233627270e+002	(-1.08394159087122e+001dB,-9.00199965925736e+001°)
5.12861383991362e+002	(-1.06394120877739e+001dB,-9.00204623732642e+001°)
5.24807460249770e+002	(-1.04394080867584e+001dB,-9.00209390033961e+001°)
5.37031796370250e+002	(-1.02394038971787e+001dB,-9.00214267356864e+001°)
5.49540873857622e+002	(-1.00393995101480e+001dB,-9.00219258287387e+001°)
5.62341325190346e+002	(-9.83939491636047e+000dB,-9.00224365471805e+001°)
5.75439937337154e+002	(-9.63939010607166e+000dB,-9.00229591618032e+001°)
5.88843655355586e+002	(-9.43938506907794e+000dB,-9.00234939497060e+001°)
6.02559586074355e+002	(-9.23937979469476e+000dB,-9.00240411944423e+001°)
6.16595001861479e+002	(-9.03937427173398e+000dB,-9.00246011861710e+001°)
6.30957344480190e+002	(-8.83936848848015e+000dB,-9.00251742218093e+001°)
6.45654229034652e+002	(-8.63936243266565e+000dB,-9.00257606051907e+001°)
6.60693448007592e+002	(-8.43935609144469e+000dB,-9.00263606472264e+001°)
6.76082975391978e+002	(-8.23934945136602e+000dB,-9.00269746660692e+001°)
6.91830970918933e+002	(-8.03934249834440e+000dB,-9.00276029872833e+001°)
7.07945784384134e+002	(-7.83933521763075e+000dB,-9.00282459440162e+001°)
7.24435960074986e+002	(-7.63932759378081e+000dB,-9.00289038771756e+001°)
7.41310241300914e+002	(-7.43931961062241e+000dB,-9.00295771356102e+001°)
7.58577575029180e+002	(-7.23931125122114e+000dB,-9.00302660762945e+001°)
7.76247116628688e+002	(-7.03930249784444e+000dB,-9.00309710645185e+001°)
7.94328234724277e+002	(-6.83929333192393e+000dB,-9.00316924740807e+001°)
8.12830516164095e+002	(-6.63928373401608e+000dB,-9.00324306874873e+001°)
8.31763771102666e+002	(-6.43927368376092e+000dB,-9.00331860961540e+001°)
8.51138038202372e+002	(-6.23926315983882e+000dB,-9.00339591006143e+001°)
8.70963589956076e+002	(-6.03925213992530e+000dB,-9.00347501107315e+001°)
8.91250938133741e+002	(-5.83924060064361e+000dB,-9.00355595459163e+001°)
9.12010839355905e+002	(-5.63922851751520e+000dB,-9.00363878353489e+001°)
9.33254300796986e+002	(-5.43921586490769e+000dB,-9.00372354182071e+001°)
9.54992586021431e+002	(-5.23920261598056e+000dB,-9.00381027438985e+001°)
9.77237220955805e+002	(-5.03918874262813e+000dB,-9.00389902722995e+001°)
9.99999999999994e+002	(-4.83917421541996e+000dB,-9.00398984739986e+001°)
1.02329299228075e+003	(-4.63915900353841e+000dB,-9.00408278305464e+001°)
1.04712854805089e+003	(-4.43914307471317e+000dB,-9.00417788347108e+001°)
1.07151930523760e+003	(-4.23912639515287e+000dB,-9.00427519907382e+001°)
1.09647819614318e+003	(-4.03910892947330e+000dB,-9.00437478146212e+001°)
1.12201845430196e+003	(-3.83909064062234e+000dB,-9.00447668343718e+001°)
1.14815362149688e+003	(-3.63907148980134e+000dB,-9.00458095903021e+001°)
1.17489755493952e+003	(-3.43905143638273e+000dB,-9.00468766353101e+001°)
1.20226443461741e+003	(-3.23903043782385e+000dB,-9.00479685351734e+001°)
1.23026877081237e+003	(-3.03900844957663e+000dB,-9.00490858688491e+001°)
1.25892541179416e+003	(-2.83898542499299e+000dB,-9.00502292287809e+001°)
1.28824955169313e+003	(-2.63896131522593e+000dB,-9.00513992212135e+001°)
1.31825673855640e+003	(-2.43893606912572e+000dB,-9.00525964665135e+001°)
1.34896288259165e+003	(-2.23890963313142e+000dB,-9.00538215994993e+001°)
1.38038426460288e+003	(-2.03888195115713e+000dB,-9.00550752697770e+001°)
1.41253754462275e+003	(-1.83885296447294e+000dB,-9.00563581420857e+001°)
1.44543977074592e+003	(-1.63882261158026e+000dB,-9.00576708966492e+001°)
1.47910838816820e+003	(-1.43879082808121e+000dB,-9.00590142295376e+001°)
1.51356124843620e+003	(-1.23875754654197e+000dB,-9.00603888530363e+001°)
1.54881661891247e+003	(-1.03872269634953e+000dB,-9.00617954960234e+001°)
1.58489319246110e+003	(-8.38686203561761e-001dB,-9.00632349043567e+001°)
1.62181009735892e+003	(-6.38647990750470e-001dB,-9.00647078412696e+001°)
1.65958690743755e+003	(-4.38607976836902e-001dB,-9.00662150877752e+001°)
1.69824365246173e+003	(-2.38566076919574e-001dB,-9.00677574430814e+001°)
1.73780082874936e+003	(-3.85222020939883e-002dB,-9.00693357250143e+001°)
1.77827941003891e+003	(1.61523740736219e-001dB,-9.00709507704523e+001°)
1.81970085860997e+003	(3.61571849057013e-001dB,-9.00726034357703e+001°)
1.86208713666286e+003	(5.61622224951045e-001dB,-9.00742945972936e+001°)
1.90546071796323e+003	(7.61674975314488e-001dB,-9.00760251517628e+001°)
1.94984459975803e+003	(9.61730212084168e-001dB,-9.00777960168102e+001°)
1.99526231496887e+003	(1.16178805247536e+000dB,-9.00796081314461e+001°)
2.04173794466952e+003	(1.36184861923085e+000dB,-9.00814624565570e+001°)
2.08929613085403e+003	(1.56191204088181e+000dB,-9.00833599754158e+001°)
2.13796208950222e+003	(1.76197845202086e+000dB,-9.00853016942036e+001°)
2.18776162394954e+003	(1.96204799358821e+000dB,-9.00872886425431e+001°)
2.23872113856832e+003	(2.16212081317119e+000dB,-9.00893218740454e+001°)
2.29086765276776e+003	(2.36219706531797e+000dB,-9.00914024668692e+001°)
2.34422881531991e+003	(2.56227691186618e+000dB,-9.00935315242926e+001°)
2.39883291901947e+003	(2.76236052228697e+000dB,-9.00957101752992e+001°)
2.45470891568501e+003	(2.96244807404538e+000dB,-9.00979395751769e+001°)
2.51188643150956e+003	(3.16253975297776e+000dB,-9.01002209061310e+001°)
2.57039578276885e+003	(3.36263575368706e+000dB,-9.01025553779123e+001°)
2.63026799189536e+003	(3.56273627995676e+000dB,-9.01049442284587e+001°)
2.69153480392690e+003	(3.76284154518444e+000dB,-9.01073887245529e+001°)
2.75422870333815e+003	(3.96295177283585e+000dB,-9.01098901624944e+001°)
2.81838293126443e+003	(4.16306719692046e+000dB,-9.01124498687883e+001°)
2.88403150312659e+003	(4.36318806248956e+000dB,-9.01150692008491e+001°)
2.95120922666636e+003	(4.56331462615795e+000dB,-9.01177495477220e+001°)
3.01995172040199e+003	(4.76344715665025e+000dB,-9.01204923308202e+001°)
3.09029543251357e+003	(4.96358593537320e+000dB,-9.01232990046799e+001°)
3.16227766016836e+003	(5.16373125701508e+000dB,-9.01261710577330e+001°)
3.23593656929626e+003	(5.36388343017342e+000dB,-9.01291100130974e+001°)
3.31131121482589e+003	(5.56404277801264e+000dB,-9.01321174293863e+001°)
3.38844156139200e+003	(5.76420963895273e+000dB,-9.01351949015363e+001°)
3.46736850452529e+003	(5.96438436739073e+000dB,-9.01383440616546e+001°)
3.54813389233573e+003	(6.16456733445632e+000dB,-9.01415665798864e+001°)
3.63078054770099e+003	(6.36475892880341e+000dB,-9.01448641653026e+001°)
3.71535229097170e+003	(6.56495955743923e+000dB,-9.01482385668077e+001°)
3.80189396320558e+003	(6.76516964659280e+000dB,-9.01516915740699e+001°)
3.89045144994278e+003	(6.96538964262480e+000dB,-9.01552250184722e+001°)
3.98107170553494e+003	(7.16562001298047e+000dB,-9.01588407740860e+001°)
4.07380277804110e+003	(7.36586124718808e+000dB,-9.01625407586681e+001°)
4.16869383470332e+003	(7.56611385790471e+000dB,-9.01663269346801e+001°)
4.26579518801589e+003	(7.76637838201193e+000dB,-9.01702013103325e+001°)
4.36515832240162e+003	(7.96665538176360e+000dB,-9.01741659406529e+001°)
4.46683592150960e+003	(8.16694544598838e+000dB,-9.01782229285795e+001°)
4.57088189614871e+003	(8.36724919134957e+000dB,-9.01823744260799e+001°)
4.67735141287194e+003	(8.56756726366504e+000dB,-9.01866226352969e+001°)
4.78630092322634e+003	(8.76790033929013e+000dB,-9.01909698097205e+001°)
4.89778819368442e+003	(8.96824912656660e+000dB,-9.01954182553877e+001°)
5.01187233627268e+003	(9.16861436734085e+000dB,-9.01999703321110e+001°)
5.12861383991361e+003	(9.36899683855463e+000dB,-9.02046284547348e+001°)
5.24807460249768e+003	(9.56939735391198e+000dB,-9.02093950944225e+001°)
