Freq.	V(vo)
1.00000000000000e+001	(-1.04036524500116e+002dB,-9.00000429202721e+001°)
1.02329299228075e+001	(-1.03836524498439e+002dB,-9.00000439200136e+001°)
1.04712854805090e+001	(-1.03636524496683e+002dB,-9.00000449430420e+001°)
1.07151930523761e+001	(-1.03436524494844e+002dB,-9.00000459898999e+001°)
1.09647819614319e+001	(-1.03236524492918e+002dB,-9.00000470611422e+001°)
1.12201845430196e+001	(-1.03036524490901e+002dB,-9.00000481573369e+001°)
1.14815362149688e+001	(-1.02836524488790e+002dB,-9.00000492790653e+001°)
1.17489755493953e+001	(-1.02636524486579e+002dB,-9.00000504269221e+001°)
1.20226443461741e+001	(-1.02436524484263e+002dB,-9.00000516015159e+001°)
1.23026877081238e+001	(-1.02236524481839e+002dB,-9.00000528034695e+001°)
1.25892541179417e+001	(-1.02036524479300e+002dB,-9.00000540334202e+001°)
1.28824955169313e+001	(-1.01836524476642e+002dB,-9.00000552920201e+001°)
1.31825673855641e+001	(-1.01636524473858e+002dB,-9.00000565799365e+001°)
1.34896288259165e+001	(-1.01436524470943e+002dB,-9.00000578978524e+001°)
1.38038426460288e+001	(-1.01236524467891e+002dB,-9.00000592464664e+001°)
1.41253754462275e+001	(-1.01036524464695e+002dB,-9.00000606264937e+001°)
1.44543977074593e+001	(-1.00836524461349e+002dB,-9.00000620386660e+001°)
1.47910838816821e+001	(-1.00636524457844e+002dB,-9.00000634837320e+001°)
1.51356124843621e+001	(-1.00436524454175e+002dB,-9.00000649624578e+001°)
1.54881661891248e+001	(-1.00236524450332e+002dB,-9.00000664756276e+001°)
1.58489319246111e+001	(-1.00036524446309e+002dB,-9.00000680240436e+001°)
1.62181009735893e+001	(-9.98365244420956e+001dB,-9.00000696085269e+001°)
1.65958690743756e+001	(-9.96365244376839e+001dB,-9.00000712299175e+001°)
1.69824365246174e+001	(-9.94365244330642e+001dB,-9.00000728890751e+001°)
1.73780082874937e+001	(-9.92365244282269e+001dB,-9.00000745868794e+001°)
1.77827941003892e+001	(-9.90365244231615e+001dB,-9.00000763242307e+001°)
1.81970085860998e+001	(-9.88365244178575e+001dB,-9.00000781020500e+001°)
1.86208713666287e+001	(-9.86365244123034e+001dB,-9.00000799212800e+001°)
1.90546071796325e+001	(-9.84365244064877e+001dB,-9.00000817828854e+001°)
1.94984459975804e+001	(-9.82365244003978e+001dB,-9.00000836878530e+001°)
1.99526231496888e+001	(-9.80365243940209e+001dB,-9.00000856371930e+001°)
2.04173794466953e+001	(-9.78365243873435e+001dB,-9.00000876319390e+001°)
2.08929613085404e+001	(-9.76365243803514e+001dB,-9.00000896731485e+001°)
2.13796208950223e+001	(-9.74365243730297e+001dB,-9.00000917619038e+001°)
2.18776162394955e+001	(-9.72365243653630e+001dB,-9.00000938993124e+001°)
2.23872113856834e+001	(-9.70365243573350e+001dB,-9.00000960865077e+001°)
2.29086765276777e+001	(-9.68365243489286e+001dB,-9.00000983246492e+001°)
2.34422881531992e+001	(-9.66365243401261e+001dB,-9.00001006149237e+001°)
2.39883291901949e+001	(-9.64365243309087e+001dB,-9.00001029585454e+001°)
2.45470891568503e+001	(-9.62365243212569e+001dB,-9.00001053567571e+001°)
2.51188643150958e+001	(-9.60365243111502e+001dB,-9.00001078108302e+001°)
2.57039578276886e+001	(-9.58365243005672e+001dB,-9.00001103220660e+001°)
2.63026799189538e+001	(-9.56365242894855e+001dB,-9.00001128917959e+001°)
2.69153480392691e+001	(-9.54365242778815e+001dB,-9.00001155213823e+001°)
2.75422870333816e+001	(-9.52365242657306e+001dB,-9.00001182122197e+001°)
2.81838293126445e+001	(-9.50365242530070e+001dB,-9.00001209657346e+001°)
2.88403150312660e+001	(-9.48365242396838e+001dB,-9.00001237833870e+001°)
2.95120922666638e+001	(-9.46365242257327e+001dB,-9.00001266666708e+001°)
3.01995172040201e+001	(-9.44365242111242e+001dB,-9.00001296171149e+001°)
3.09029543251359e+001	(-9.42365241958271e+001dB,-9.00001326362834e+001°)
3.16227766016838e+001	(-9.40365241798091e+001dB,-9.00001357257773e+001°)
3.23593656929628e+001	(-9.38365241630362e+001dB,-9.00001388872347e+001°)
3.31131121482591e+001	(-9.36365241454728e+001dB,-9.00001421223316e+001°)
3.38844156139202e+001	(-9.34365241270817e+001dB,-9.00001454327835e+001°)
3.46736850452531e+001	(-9.32365241078238e+001dB,-9.00001488203456e+001°)
3.54813389233575e+001	(-9.30365240876583e+001dB,-9.00001522868139e+001°)
3.63078054770101e+001	(-9.28365240665425e+001dB,-9.00001558340265e+001°)
3.71535229097172e+001	(-9.26365240444315e+001dB,-9.00001594638640e+001°)
3.80189396320561e+001	(-9.24365240212784e+001dB,-9.00001631782510e+001°)
3.89045144994280e+001	(-9.22365239970342e+001dB,-9.00001669791570e+001°)
3.98107170553497e+001	(-9.20365239716474e+001dB,-9.00001708685972e+001°)
4.07380277804112e+001	(-9.18365239450641e+001dB,-9.00001748486338e+001°)
4.16869383470335e+001	(-9.16365239172280e+001dB,-9.00001789213771e+001°)
4.26579518801592e+001	(-9.14365238880800e+001dB,-9.00001830889864e+001°)
4.36515832240165e+001	(-9.12365238575583e+001dB,-9.00001873536715e+001°)
4.46683592150962e+001	(-9.10365238255982e+001dB,-9.00001917176935e+001°)
4.57088189614874e+001	(-9.08365237921319e+001dB,-9.00001961833661e+001°)
4.67735141287197e+001	(-9.06365237570883e+001dB,-9.00002007530573e+001°)
4.78630092322638e+001	(-9.04365237203932e+001dB,-9.00002054291897e+001°)
4.89778819368445e+001	(-9.02365236819687e+001dB,-9.00002102142428e+001°)
5.01187233627271e+001	(-9.00365236417333e+001dB,-9.00002151107535e+001°)
5.12861383991364e+001	(-8.98365235996016e+001dB,-9.00002201213180e+001°)
5.24807460249772e+001	(-8.96365235554844e+001dB,-9.00002252485930e+001°)
5.37031796370252e+001	(-8.94365235092880e+001dB,-9.00002304952969e+001°)
5.49540873857624e+001	(-8.92365234609144e+001dB,-9.00002358642115e+001°)
5.62341325190348e+001	(-8.90365234102610e+001dB,-9.00002413581835e+001°)
5.75439937337156e+001	(-8.88365233572204e+001dB,-9.00002469801257e+001°)
5.88843655355588e+001	(-8.86365233016801e+001dB,-9.00002527330188e+001°)
6.02559586074357e+001	(-8.84365232435222e+001dB,-9.00002586199132e+001°)
6.16595001861481e+001	(-8.82365231826235e+001dB,-9.00002646439299e+001°)
6.30957344480192e+001	(-8.80365231188546e+001dB,-9.00002708082630e+001°)
6.45654229034654e+001	(-8.78365230520805e+001dB,-9.00002771161806e+001°)
6.60693448007595e+001	(-8.76365229821594e+001dB,-9.00002835710274e+001°)
6.76082975391980e+001	(-8.74365229089430e+001dB,-9.00002901762254e+001°)
6.91830970918935e+001	(-8.72365228322760e+001dB,-9.00002969352770e+001°)
7.07945784384136e+001	(-8.70365227519958e+001dB,-9.00003038517655e+001°)
7.24435960074988e+001	(-8.68365226679321e+001dB,-9.00003109293582e+001°)
7.41310241300916e+001	(-8.66365225799066e+001dB,-9.00003181718074e+001°)
7.58577575029182e+001	(-8.64365224877326e+001dB,-9.00003255829531e+001°)
7.76247116628690e+001	(-8.62365223912146e+001dB,-9.00003331667246e+001°)
7.94328234724279e+001	(-8.60365222901478e+001dB,-9.00003409271426e+001°)
8.12830516164097e+001	(-8.58365221843179e+001dB,-9.00003488683218e+001°)
8.31763771102669e+001	(-8.56365220735004e+001dB,-9.00003569944723e+001°)
8.51138038202374e+001	(-8.54365219574602e+001dB,-9.00003653099026e+001°)
8.70963589956078e+001	(-8.52365218359512e+001dB,-9.00003738190214e+001°)
8.91250938133743e+001	(-8.50365217087156e+001dB,-9.00003825263399e+001°)
9.12010839355907e+001	(-8.48365215754836e+001dB,-9.00003914364748e+001°)
9.33254300796988e+001	(-8.46365214359726e+001dB,-9.00004005541499e+001°)
9.54992586021433e+001	(-8.44365212898867e+001dB,-9.00004098841992e+001°)
9.77237220955808e+001	(-8.42365211369159e+001dB,-9.00004194315694e+001°)
9.99999999999997e+001	(-8.40365209767358e+001dB,-9.00004292013221e+001°)
1.02329299228075e+002	(-8.38365208090067e+001dB,-9.00004391986370e+001°)
1.04712854805090e+002	(-8.36365206333727e+001dB,-9.00004494288145e+001°)
1.07151930523760e+002	(-8.34365204494613e+001dB,-9.00004598972782e+001°)
1.09647819614318e+002	(-8.32365202568825e+001dB,-9.00004706095781e+001°)
1.12201845430196e+002	(-8.30365200552277e+001dB,-9.00004815713936e+001°)
1.14815362149688e+002	(-8.28365198440692e+001dB,-9.00004927885361e+001°)
1.17489755493953e+002	(-8.26365196229591e+001dB,-9.00005042669525e+001°)
1.20226443461741e+002	(-8.24365193914284e+001dB,-9.00005160127282e+001°)
1.23026877081238e+002	(-8.22365191489860e+001dB,-9.00005280320903e+001°)
1.25892541179416e+002	(-8.20365188951176e+001dB,-9.00005403314109e+001°)
1.28824955169313e+002	(-8.18365186292848e+001dB,-9.00005529172103e+001°)
1.31825673855640e+002	(-8.16365183509237e+001dB,-9.00005657961610e+001°)
1.34896288259165e+002	(-8.14365180594437e+001dB,-9.00005789750905e+001°)
1.38038426460288e+002	(-8.12365177542268e+001dB,-9.00005924609855e+001°)
1.41253754462275e+002	(-8.10365174346254e+001dB,-9.00006062609955e+001°)
1.44543977074592e+002	(-8.08365170999616e+001dB,-9.00006203824362e+001°)
1.47910838816820e+002	(-8.06365167495256e+001dB,-9.00006348327937e+001°)
1.51356124843620e+002	(-8.04365163825740e+001dB,-9.00006496197286e+001°)
1.54881661891248e+002	(-8.02365159983286e+001dB,-9.00006647510797e+001°)
1.58489319246111e+002	(-8.00365155959741e+001dB,-9.00006802348683e+001°)
1.62181009735892e+002	(-7.98365151746573e+001dB,-9.00006960793026e+001°)
1.65958690743755e+002	(-7.96365147334844e+001dB,-9.00007122927818e+001°)
1.69824365246174e+002	(-7.94365142715197e+001dB,-9.00007288839006e+001°)
1.73780082874937e+002	(-7.92365137877832e+001dB,-9.00007458614540e+001°)
1.77827941003892e+002	(-7.90365132812488e+001dB,-9.00007632344415e+001°)
1.81970085860998e+002	(-7.88365127508422e+001dB,-9.00007810120723e+001°)
1.86208713666286e+002	(-7.86365121954383e+001dB,-9.00007992037699e+001°)
1.90546071796324e+002	(-7.84365116138590e+001dB,-9.00008178191773e+001°)
1.94984459975804e+002	(-7.82365110048706e+001dB,-9.00008368681617e+001°)
1.99526231496887e+002	(-7.80365103671814e+001dB,-9.00008563608203e+001°)
2.04173794466952e+002	(-7.78365096994388e+001dB,-9.00008763074850e+001°)
2.08929613085403e+002	(-7.76365090002265e+001dB,-9.00008967187286e+001°)
2.13796208950222e+002	(-7.74365082680611e+001dB,-9.00009176053697e+001°)
2.18776162394954e+002	(-7.72365075013899e+001dB,-9.00009389784786e+001°)
2.23872113856833e+002	(-7.70365066985865e+001dB,-9.00009608493836e+001°)
2.29086765276776e+002	(-7.68365058579480e+001dB,-9.00009832296765e+001°)
2.34422881531991e+002	(-7.66365049776913e+001dB,-9.00010061312186e+001°)
2.39883291901948e+002	(-7.64365040559494e+001dB,-9.00010295661476e+001°)
2.45470891568502e+002	(-7.62365030907669e+001dB,-9.00010535468834e+001°)
2.51188643150957e+002	(-7.60365020800968e+001dB,-9.00010780861350e+001°)
2.57039578276885e+002	(-7.58365010217950e+001dB,-9.00011031969072e+001°)
2.63026799189537e+002	(-7.56364999136169e+001dB,-9.00011288925072e+001°)
2.69153480392690e+002	(-7.54364987532118e+001dB,-9.00011551865518e+001°)
2.75422870333816e+002	(-7.52364975381184e+001dB,-9.00011820929748e+001°)
2.81838293126444e+002	(-7.50364962657591e+001dB,-9.00012096260338e+001°)
2.88403150312659e+002	(-7.48364949334352e+001dB,-9.00012378003183e+001°)
2.95120922666637e+002	(-7.46364935383206e+001dB,-9.00012666307572e+001°)
3.01995172040200e+002	(-7.44364920774561e+001dB,-9.00012961326264e+001°)
3.09029543251358e+002	(-7.42364905477428e+001dB,-9.00013263215571e+001°)
3.16227766016837e+002	(-7.40364889459360e+001dB,-9.00013572135441e+001°)
3.23593656929627e+002	(-7.38364872686381e+001dB,-9.00013888249541e+001°)
3.31131121482590e+002	(-7.36364855122913e+001dB,-9.00014211725344e+001°)
3.38844156139201e+002	(-7.34364836731699e+001dB,-9.00014542734215e+001°)
3.46736850452530e+002	(-7.32364817473731e+001dB,-9.00014881451504e+001°)
3.54813389233574e+002	(-7.30364797308157e+001dB,-9.00015228056636e+001°)
3.63078054770100e+002	(-7.28364776192204e+001dB,-9.00015582733207e+001°)
3.71535229097171e+002	(-7.26364754081081e+001dB,-9.00015945669081e+001°)
3.80189396320559e+002	(-7.24364730927887e+001dB,-9.00016317056485e+001°)
3.89045144994279e+002	(-7.22364706683509e+001dB,-9.00016697092113e+001°)
3.98107170553495e+002	(-7.20364681296522e+001dB,-9.00017085977231e+001°)
4.07380277804111e+002	(-7.18364654713075e+001dB,-9.00017483917777e+001°)
4.16869383470333e+002	(-7.16364626876779e+001dB,-9.00017891124475e+001°)
4.26579518801591e+002	(-7.14364597728590e+001dB,-9.00018307812940e+001°)
4.36515832240164e+002	(-7.12364567206677e+001dB,-9.00018734203797e+001°)
4.46683592150961e+002	(-7.10364535246300e+001dB,-9.00019170522790e+001°)
4.57088189614873e+002	(-7.08364501779663e+001dB,-9.00019617000905e+001°)
4.67735141287196e+002	(-7.06364466735778e+001dB,-9.00020073874488e+001°)
4.78630092322636e+002	(-7.04364430040310e+001dB,-9.00020541385370e+001°)
4.89778819368444e+002	(-7.02364391615421e+001dB,-9.00021019780993e+001°)
5.01187233627270e+002	(-7.00364351379604e+001dB,-9.00021509314539e+001°)
5.12861383991362e+002	(-6.98364309247511e+001dB,-9.00022010245061e+001°)
5.24807460249770e+002	(-6.96364265129771e+001dB,-9.00022522837618e+001°)
5.37031796370250e+002	(-6.94364218932800e+001dB,-9.00023047363417e+001°)
5.49540873857622e+002	(-6.92364170558607e+001dB,-9.00023584099947e+001°)
5.62341325190346e+002	(-6.90364119904579e+001dB,-9.00024133331130e+001°)
5.75439937337154e+002	(-6.88364066863266e+001dB,-9.00024695347463e+001°)
5.88843655355586e+002	(-6.86364011322159e+001dB,-9.00025270446172e+001°)
6.02559586074355e+002	(-6.84363953163440e+001dB,-9.00025858931367e+001°)
6.16595001861479e+002	(-6.82363892263742e+001dB,-9.00026461114192e+001°)
6.30957344480190e+002	(-6.80363828493883e+001dB,-9.00027077312997e+001°)
6.45654229034652e+002	(-6.78363761718591e+001dB,-9.00027707853492e+001°)
6.60693448007592e+002	(-6.76363691796220e+001dB,-9.00028353068921e+001°)
6.76082975391978e+002	(-6.74363618578447e+001dB,-9.00029013300232e+001°)
6.91830970918933e+002	(-6.72363541909959e+001dB,-9.00029688896251e+001°)
7.07945784384134e+002	(-6.70363461628121e+001dB,-9.00030380213864e+001°)
7.24435960074986e+002	(-6.68363377562635e+001dB,-9.00031087618197e+001°)
7.41310241300914e+002	(-6.66363289535174e+001dB,-9.00031811482802e+001°)
7.58577575029180e+002	(-6.64363197359010e+001dB,-9.00032552189853e+001°)
7.76247116628688e+002	(-6.62363100838608e+001dB,-9.00033310130335e+001°)
7.94328234724277e+002	(-6.60362999769221e+001dB,-9.00034085704247e+001°)
8.12830516164095e+002	(-6.58362893936451e+001dB,-9.00034879320801e+001°)
8.31763771102666e+002	(-6.56362783115794e+001dB,-9.00035691398636e+001°)
8.51138038202372e+002	(-6.54362667072164e+001dB,-9.00036522366023e+001°)
8.70963589956076e+002	(-6.52362545559395e+001dB,-9.00037372661084e+001°)
8.91250938133741e+002	(-6.50362418319718e+001dB,-9.00038242732012e+001°)
9.12010839355905e+002	(-6.48362285083214e+001dB,-9.00039133037298e+001°)
9.33254300796986e+002	(-6.46362145567241e+001dB,-9.00040044045958e+001°)
9.54992586021431e+002	(-6.44361999475836e+001dB,-9.00040976237766e+001°)
9.77237220955805e+002	(-6.42361846499084e+001dB,-9.00041930103499e+001°)
9.99999999999994e+002	(-6.40361686312462e+001dB,-9.00042906145173e+001°)
1.02329299228075e+003	(-6.38361518576151e+001dB,-9.00043904876297e+001°)
1.04712854805089e+003	(-6.36361342934314e+001dB,-9.00044926822121e+001°)
1.07151930523760e+003	(-6.34361159014339e+001dB,-9.00045972519902e+001°)
1.09647819614318e+003	(-6.32360966426054e+001dB,-9.00047042519156e+001°)
1.12201845430196e+003	(-6.30360764760890e+001dB,-9.00048137381937e+001°)
1.14815362149688e+003	(-6.28360553591024e+001dB,-9.00049257683100e+001°)
1.17489755493952e+003	(-6.26360332468461e+001dB,-9.00050404010588e+001°)
1.20226443461741e+003	(-6.24360100924092e+001dB,-9.00051576965706e+001°)
1.23026877081237e+003	(-6.22359858466691e+001dB,-9.00052777163416e+001°)
1.25892541179416e+003	(-6.20359604581877e+001dB,-9.00054005232624e+001°)
1.28824955169313e+003	(-6.18359338731022e+001dB,-9.00055261816484e+001°)
1.31825673855640e+003	(-6.16359060350104e+001dB,-9.00056547572695e+001°)
1.34896288259165e+003	(-6.14358768848512e+001dB,-9.00057863173813e+001°)
1.38038426460288e+003	(-6.12358463607793e+001dB,-9.00059209307560e+001°)
1.41253754462275e+003	(-6.10358143980339e+001dB,-9.00060586677146e+001°)
1.44543977074592e+003	(-6.08357809288007e+001dB,-9.00061996001589e+001°)
1.47910838816820e+003	(-6.06357458820689e+001dB,-9.00063438016043e+001°)
1.51356124843620e+003	(-6.04357091834793e+001dB,-9.00064913472128e+001°)
1.54881661891247e+003	(-6.02356707551673e+001dB,-9.00066423138271e+001°)
1.58489319246110e+003	(-6.00356305155970e+001dB,-9.00067967800044e+001°)
1.62181009735892e+003	(-5.98355883793884e+001dB,-9.00069548260507e+001°)
1.65958690743755e+003	(-5.96355442571358e+001dB,-9.00071165340566e+001°)
1.69824365246173e+003	(-5.94354980552181e+001dB,-9.00072819879318e+001°)
1.73780082874936e+003	(-5.92354496755997e+001dB,-9.00074512734411e+001°)
1.77827941003891e+003	(-5.90353990156227e+001dB,-9.00076244782409e+001°)
1.81970085860997e+003	(-5.88353459677883e+001dB,-9.00078016919150e+001°)
1.86208713666286e+003	(-5.86352904195288e+001dB,-9.00079830060120e+001°)
1.90546071796323e+003	(-5.84352322529683e+001dB,-9.00081685140815e+001°)
1.94984459975803e+003	(-5.82351713446722e+001dB,-9.00083583117123e+001°)
1.99526231496887e+003	(-5.80351075653849e+001dB,-9.00085524965691e+001°)
2.04173794466952e+003	(-5.78350407797555e+001dB,-9.00087511684304e+001°)
2.08929613085403e+003	(-5.76349708460494e+001dB,-9.00089544292261e+001°)
2.13796208950222e+003	(-5.74348976158476e+001dB,-9.00091623830754e+001°)
2.18776162394954e+003	(-5.72348209337310e+001dB,-9.00093751363245e+001°)
2.23872113856832e+003	(-5.70347406369503e+001dB,-9.00095927975839e+001°)
2.29086765276776e+003	(-5.68346565550794e+001dB,-9.00098154777665e+001°)
2.34422881531991e+003	(-5.66345685096533e+001dB,-9.00100432901248e+001°)
2.39883291901947e+003	(-5.64344763137888e+001dB,-9.00102763502875e+001°)
2.45470891568501e+003	(-5.62343797717867e+001dB,-9.00105147762965e+001°)
2.51188643150956e+003	(-5.60342786787156e+001dB,-9.00107586886430e+001°)
2.57039578276885e+003	(-5.58341728199758e+001dB,-9.00110082103030e+001°)
2.63026799189536e+003	(-5.56340619708429e+001dB,-9.00112634667721e+001°)
2.69153480392690e+003	(-5.54339458959895e+001dB,-9.00115245860995e+001°)
2.75422870333815e+003	(-5.52338243489842e+001dB,-9.00117916989210e+001°)
2.81838293126443e+003	(-5.50336970717673e+001dB,-9.00120649384909e+001°)
2.88403150312659e+003	(-5.48335637941009e+001dB,-9.00123444407125e+001°)
2.95120922666636e+003	(-5.46334242329938e+001dB,-9.00126303441673e+001°)
3.01995172040199e+003	(-5.44332780920986e+001dB,-9.00129227901426e+001°)
3.09029543251357e+003	(-5.42331250610807e+001dB,-9.00132219226566e+001°)
3.16227766016836e+003	(-5.40329648149564e+001dB,-9.00135278884825e+001°)
3.23593656929626e+003	(-5.38327970134011e+001dB,-9.00138408371690e+001°)
3.31131121482589e+003	(-5.36326213000231e+001dB,-9.00141609210597e+001°)
3.38844156139200e+003	(-5.34324373016044e+001dB,-9.00144882953077e+001°)
3.46736850452529e+003	(-5.32322446273041e+001dB,-9.00148231178893e+001°)
3.54813389233573e+003	(-5.30320428678252e+001dB,-9.00151655496120e+001°)
3.63078054770099e+003	(-5.28318315945409e+001dB,-9.00155157541201e+001°)
3.71535229097170e+003	(-5.26316103585800e+001dB,-9.00158738978955e+001°)
3.80189396320558e+003	(-5.24313786898682e+001dB,-9.00162401502537e+001°)
3.89045144994278e+003	(-5.22311360961246e+001dB,-9.00166146833352e+001°)
3.98107170553494e+003	(-5.20308820618098e+001dB,-9.00169976720907e+001°)
4.07380277804110e+003	(-5.18306160470239e+001dB,-9.00173892942607e+001°)
4.16869383470332e+003	(-5.16303374863530e+001dB,-9.00177897303477e+001°)
4.26579518801589e+003	(-5.14300457876593e+001dB,-9.00181991635824e+001°)
4.36515832240162e+003	(-5.12297403308145e+001dB,-9.00186177798803e+001°)
4.46683592150960e+003	(-5.10294204663727e+001dB,-9.00190457677911e+001°)
4.57088189614871e+003	(-5.08290855141797e+001dB,-9.00194833184381e+001°)
4.67735141287194e+003	(-5.06287347619158e+001dB,-9.00199306254471e+001°)
4.78630092322634e+003	(-5.04283674635696e+001dB,-9.00203878848649e+001°)
4.89778819368442e+003	(-5.02279828378382e+001dB,-9.00208552950652e+001°)
5.01187233627268e+003	(-5.00275800664510e+001dB,-9.00213330566423e+001°)
5.12861383991361e+003	(-4.98271582924136e+001dB,-9.00218213722891e+001°)
5.24807460249768e+003	(-4.96267166181671e+001dB,-9.00223204466617e+001°)
