Freq.	V(n002)/-I(R2)
Step Information: 1=1  (Run: 1/11)
1.00000000000000e+001	(1.18928537709595e+002dB,-8.99936991023602e+001°)
1.02329299228075e+001	(1.18728537710544e+002dB,-8.99935523355342e+001°)
1.04712854805090e+001	(1.18528537711538e+002dB,-8.99934021501888e+001°)
1.07151930523761e+001	(1.18328537712578e+002dB,-8.99932484665701e+001°)
1.09647819614319e+001	(1.18128537713667e+002dB,-8.99930912030745e+001°)
1.12201845430196e+001	(1.17928537714808e+002dB,-8.99929302765036e+001°)
1.14815362149688e+001	(1.17728537716002e+002dB,-8.99927656015494e+001°)
1.17489755493953e+001	(1.17528537717253e+002dB,-8.99925970907876e+001°)
1.20226443461741e+001	(1.17328537718563e+002dB,-8.99924246548220e+001°)
1.23026877081238e+001	(1.17128537719934e+002dB,-8.99922482023760e+001°)
1.25892541179417e+001	(1.16928537721370e+002dB,-8.99920676398904e+001°)
1.28824955169313e+001	(1.16728537722874e+002dB,-8.99918828714094e+001°)
1.31825673855641e+001	(1.16528537724449e+002dB,-8.99916937991460e+001°)
1.34896288259165e+001	(1.16328537726098e+002dB,-8.99915003228594e+001°)
1.38038426460288e+001	(1.16128537727824e+002dB,-8.99913023400350e+001°)
1.41253754462275e+001	(1.15928537729632e+002dB,-8.99910997454656e+001°)
1.44543977074593e+001	(1.15728537731525e+002dB,-8.99908924318950e+001°)
1.47910838816821e+001	(1.15528537733508e+002dB,-8.99906802894219e+001°)
1.51356124843621e+001	(1.15328537735583e+002dB,-8.99904632054251e+001°)
1.54881661891248e+001	(1.15128537737757e+002dB,-8.99902410650110e+001°)
1.58489319246111e+001	(1.14928537740033e+002dB,-8.99900137501895e+001°)
1.62181009735893e+001	(1.14728537742416e+002dB,-8.99897811405600e+001°)
1.65958690743756e+001	(1.14528537744912e+002dB,-8.99895431127576e+001°)
1.69824365246174e+001	(1.14328537747525e+002dB,-8.99892995405171e+001°)
1.73780082874937e+001	(1.14128537750261e+002dB,-8.99890502948098e+001°)
1.77827941003892e+001	(1.13928537753127e+002dB,-8.99887952434089e+001°)
1.81970085860998e+001	(1.13728537756127e+002dB,-8.99885342511561e+001°)
1.86208713666287e+001	(1.13528537759269e+002dB,-8.99882671795507e+001°)
1.90546071796325e+001	(1.13328537762559e+002dB,-8.99879938870173e+001°)
1.94984459975804e+001	(1.13128537766004e+002dB,-8.99877142287052e+001°)
1.99526231496888e+001	(1.12928537769611e+002dB,-8.99874280563510e+001°)
2.04173794466953e+001	(1.12728537773388e+002dB,-8.99871352181993e+001°)
2.08929613085404e+001	(1.12528537777343e+002dB,-8.99868355588677e+001°)
2.13796208950223e+001	(1.12328537781485e+002dB,-8.99865289196486e+001°)
2.18776162394955e+001	(1.12128537785822e+002dB,-8.99862151378886e+001°)
2.23872113856834e+001	(1.11928537790363e+002dB,-8.99858940472120e+001°)
2.29086765276777e+001	(1.11728537795118e+002dB,-8.99855654773763e+001°)
2.34422881531992e+001	(1.11528537800098e+002dB,-8.99852292541603e+001°)
2.39883291901949e+001	(1.11328537805312e+002dB,-8.99848851992840e+001°)
2.45470891568503e+001	(1.11128537810772e+002dB,-8.99845331303610e+001°)
2.51188643150958e+001	(1.10928537816489e+002dB,-8.99841728606591e+001°)
2.57039578276886e+001	(1.10728537822475e+002dB,-8.99838041992320e+001°)
2.63026799189538e+001	(1.10528537828744e+002dB,-8.99834269505973e+001°)
2.69153480392691e+001	(1.10328537835308e+002dB,-8.99830409147078e+001°)
2.75422870333816e+001	(1.10128537842182e+002dB,-8.99826458868092e+001°)
2.81838293126445e+001	(1.09928537849379e+002dB,-8.99822416576081e+001°)
2.88403150312660e+001	(1.09728537856916e+002dB,-8.99818280127282e+001°)
2.95120922666638e+001	(1.09528537864807e+002dB,-8.99814047327584e+001°)
3.01995172040201e+001	(1.09328537873071e+002dB,-8.99809715933245e+001°)
3.09029543251359e+001	(1.09128537881724e+002dB,-8.99805283648177e+001°)
3.16227766016838e+001	(1.08928537890785e+002dB,-8.99800748121642e+001°)
3.23593656929628e+001	(1.08728537900273e+002dB,-8.99796106949151e+001°)
3.31131121482591e+001	(1.08528537910209e+002dB,-8.99791357670006e+001°)
3.38844156139202e+001	(1.08328537920612e+002dB,-8.99786497766075e+001°)
3.46736850452531e+001	(1.08128537931506e+002dB,-8.99781524660058e+001°)
3.54813389233575e+001	(1.07928537942913e+002dB,-8.99776435715642e+001°)
3.63078054770101e+001	(1.07728537954858e+002dB,-8.99771228234642e+001°)
3.71535229097172e+001	(1.07528537967365e+002dB,-8.99765899455950e+001°)
3.80189396320561e+001	(1.07328537980462e+002dB,-8.99760446553417e+001°)
3.89045144994280e+001	(1.07128537994177e+002dB,-8.99754866636988e+001°)
3.98107170553497e+001	(1.06928538008537e+002dB,-8.99749156747874e+001°)
4.07380277804112e+001	(1.06728538023575e+002dB,-8.99743313857635e+001°)
4.16869383470335e+001	(1.06528538039321e+002dB,-8.99737334869878e+001°)
4.26579518801592e+001	(1.06328538055809e+002dB,-8.99731216612842e+001°)
4.36515832240165e+001	(1.06128538073075e+002dB,-8.99724955843803e+001°)
4.46683592150962e+001	(1.05928538091154e+002dB,-8.99718549242569e+001°)
4.57088189614874e+001	(1.05728538110085e+002dB,-8.99711993412419e+001°)
4.67735141287197e+001	(1.05528538129908e+002dB,-8.99705284877046e+001°)
4.78630092322638e+001	(1.05328538150666e+002dB,-8.99698420080369e+001°)
4.89778819368445e+001	(1.05128538172402e+002dB,-8.99691395381725e+001°)
5.01187233627271e+001	(1.04928538195162e+002dB,-8.99684207056730e+001°)
5.12861383991364e+001	(1.04728538218995e+002dB,-8.99676851294248e+001°)
5.24807460249772e+001	(1.04528538243951e+002dB,-8.99669324194256e+001°)
5.37031796370252e+001	(1.04328538270083e+002dB,-8.99661621765543e+001°)
5.49540873857624e+001	(1.04128538297447e+002dB,-8.99653739924218e+001°)
5.62341325190348e+001	(1.03928538326100e+002dB,-8.99645674491203e+001°)
5.75439937337156e+001	(1.03728538356104e+002dB,-8.99637421190191e+001°)
5.88843655355588e+001	(1.03528538387522e+002dB,-8.99628975644955e+001°)
6.02559586074357e+001	(1.03328538420420e+002dB,-8.99620333377949e+001°)
6.16595001861481e+001	(1.03128538454869e+002dB,-8.99611489806449e+001°)
6.30957344480192e+001	(1.02928538490942e+002dB,-8.99602440241977e+001°)
6.45654229034654e+001	(1.02728538528714e+002dB,-8.99593179885962e+001°)
6.60693448007595e+001	(1.02528538568267e+002dB,-8.99583703828540e+001°)
6.76082975391980e+001	(1.02328538609684e+002dB,-8.99574007045642e+001°)
6.91830970918935e+001	(1.02128538653052e+002dB,-8.99564084395436e+001°)
7.07945784384136e+001	(1.01928538698465e+002dB,-8.99553930617253e+001°)
7.24435960074988e+001	(1.01728538746018e+002dB,-8.99543540326851e+001°)
7.41310241300916e+001	(1.01528538795811e+002dB,-8.99532908016055e+001°)
7.58577575029182e+001	(1.01328538847952e+002dB,-8.99522028046731e+001°)
7.76247116628690e+001	(1.01128538902550e+002dB,-8.99510894650343e+001°)
7.94328234724279e+001	(1.00928538959721e+002dB,-8.99499501923705e+001°)
8.12830516164097e+001	(1.00728539019586e+002dB,-8.99487843826728e+001°)
8.31763771102669e+001	(1.00528539082273e+002dB,-8.99475914177799e+001°)
8.51138038202374e+001	(1.00328539147914e+002dB,-8.99463706651739e+001°)
8.70963589956078e+001	(1.00128539216649e+002dB,-8.99451214775724e+001°)
8.91250938133743e+001	(9.99285392886230e+001dB,-8.99438431926978e+001°)
9.12010839355907e+001	(9.97285393639891e+001dB,-8.99425351327197e+001°)
9.33254300796988e+001	(9.95285394429071e+001dB,-8.99411966041207e+001°)
9.54992586021433e+001	(9.93285395255444e+001dB,-8.99398268972075e+001°)
9.77237220955808e+001	(9.91285396120762e+001dB,-8.99384252857243e+001°)
9.99999999999997e+001	(9.89285397026862e+001dB,-8.99369910265309e+001°)
1.02329299228075e+002	(9.87285397975664e+001dB,-8.99355233591470e+001°)
1.04712854805090e+002	(9.85285398969183e+001dB,-8.99340215054123e+001°)
1.07151930523760e+002	(9.83285400009524e+001dB,-8.99324846690253e+001°)
1.09647819614318e+002	(9.81285401098896e+001dB,-8.99309120351271e+001°)
1.12201845430196e+002	(9.79285402239607e+001dB,-8.99293027698980e+001°)
1.14815362149688e+002	(9.77285403434079e+001dB,-8.99276560200823e+001°)
1.17489755493953e+002	(9.75285404684845e+001dB,-8.99259709125534e+001°)
1.20226443461741e+002	(9.73285405994557e+001dB,-8.99242465538485e+001°)
1.23026877081238e+002	(9.71285407365994e+001dB,-8.99224820296839e+001°)
1.25892541179416e+002	(9.69285408802065e+001dB,-8.99206764044817e+001°)
1.28824955169313e+002	(9.67285410305816e+001dB,-8.99188287208931e+001°)
1.31825673855640e+002	(9.65285411880437e+001dB,-8.99169379992416e+001°)
1.34896288259165e+002	(9.63285413529267e+001dB,-8.99150032370647e+001°)
1.38038426460288e+002	(9.61285415255804e+001dB,-8.99130234084902e+001°)
1.41253754462275e+002	(9.59285417063710e+001dB,-8.99109974638315e+001°)
1.44543977074592e+002	(9.57285418956820e+001dB,-8.99089243288765e+001°)
1.47910838816820e+002	(9.55285420939150e+001dB,-8.99068029044390e+001°)
1.51356124843620e+002	(9.53285423014904e+001dB,-8.99046320657095e+001°)
1.54881661891248e+002	(9.51285425188485e+001dB,-8.99024106616975e+001°)
1.58489319246111e+002	(9.49285427464505e+001dB,-8.99001375145638e+001°)
1.62181009735892e+002	(9.47285429847789e+001dB,-8.98978114190785e+001°)
1.65958690743755e+002	(9.45285432343394e+001dB,-8.98954311419135e+001°)
1.69824365246174e+002	(9.43285434956614e+001dB,-8.98929954210205e+001°)
1.73780082874937e+002	(9.41285437692990e+001dB,-8.98905029649490e+001°)
1.77827941003892e+002	(9.39285440558328e+001dB,-8.98879524521664e+001°)
1.81970085860998e+002	(9.37285443558705e+001dB,-8.98853425303707e+001°)
1.86208713666286e+002	(9.35285446700485e+001dB,-8.98826718157515e+001°)
1.90546071796324e+002	(9.33285449990334e+001dB,-8.98799388922626e+001°)
1.94984459975804e+002	(9.31285453435227e+001dB,-8.98771423108769e+001°)
1.99526231496887e+002	(9.29285457042474e+001dB,-8.98742805888201e+001°)
2.04173794466952e+002	(9.27285460819724e+001dB,-8.98713522087752e+001°)
2.08929613085403e+002	(9.25285464774991e+001dB,-8.98683556180874e+001°)
2.13796208950222e+002	(9.23285468916664e+001dB,-8.98652892279266e+001°)
2.18776162394954e+002	(9.21285473253528e+001dB,-8.98621514124670e+001°)
2.23872113856833e+002	(9.19285477794782e+001dB,-8.98589405080042e+001°)
2.29086765276776e+002	(9.17285482550058e+001dB,-8.98556548120805e+001°)
2.34422881531991e+002	(9.15285487529444e+001dB,-8.98522925825964e+001°)
2.39883291901948e+002	(9.13285492743500e+001dB,-8.98488520368579e+001°)
2.45470891568502e+002	(9.11285498203287e+001dB,-8.98453313506591e+001°)
2.51188643150957e+002	(9.09285503920387e+001dB,-8.98417286572935e+001°)
2.57039578276885e+002	(9.07285509906924e+001dB,-8.98380420465819e+001°)
2.63026799189537e+002	(9.05285516175598e+001dB,-8.98342695638548e+001°)
2.69153480392690e+002	(9.03285522739705e+001dB,-8.98304092089018e+001°)
2.75422870333816e+002	(9.01285529613169e+001dB,-8.98264589349365e+001°)
2.81838293126444e+002	(8.99285536810569e+001dB,-8.98224166474857e+001°)
2.88403150312659e+002	(8.97285544347172e+001dB,-8.98182802032916e+001°)
2.95120922666637e+002	(8.95285552238964e+001dB,-8.98140474091854e+001°)
3.01995172040200e+002	(8.93285560502684e+001dB,-8.98097160209040e+001°)
3.09029543251358e+002	(8.91285569155861e+001dB,-8.98052837419158e+001°)
3.16227766016837e+002	(8.89285578216849e+001dB,-8.98007482221896e+001°)
3.23593656929627e+002	(8.87285587704868e+001dB,-8.97961070569638e+001°)
3.31131121482590e+002	(8.85285597640042e+001dB,-8.97913577854640e+001°)
3.38844156139201e+002	(8.83285608043447e+001dB,-8.97864978895971e+001°)
3.46736850452530e+002	(8.81285618937148e+001dB,-8.97815247926116e+001°)
3.54813389233574e+002	(8.79285630344253e+001dB,-8.97764358577527e+001°)
3.63078054770100e+002	(8.77285642288958e+001dB,-8.97712283868279e+001°)
3.71535229097171e+002	(8.75285654796599e+001dB,-8.97658996188255e+001°)
3.80189396320559e+002	(8.73285667893705e+001dB,-8.97604467283979e+001°)
3.89045144994279e+002	(8.71285681608059e+001dB,-8.97548668244001e+001°)
3.98107170553495e+002	(8.69285695968748e+001dB,-8.97491569483562e+001°)
4.07380277804111e+002	(8.67285711006236e+001dB,-8.97433140728610e+001°)
4.16869383470333e+002	(8.65285726752416e+001dB,-8.97373351000135e+001°)
4.26579518801591e+002	(8.63285743240691e+001dB,-8.97312168597484e+001°)
4.36515832240164e+002	(8.61285760506032e+001dB,-8.97249561081591e+001°)
4.46683592150961e+002	(8.59285778585062e+001dB,-8.97185495257939e+001°)
4.57088189614873e+002	(8.57285797516128e+001dB,-8.97119937158777e+001°)
4.67735141287196e+002	(8.55285817339387e+001dB,-8.97052852025152e+001°)
4.78630092322636e+002	(8.53285838096884e+001dB,-8.96984204288618e+001°)
4.89778819368444e+002	(8.51285859832650e+001dB,-8.96913957552239e+001°)
5.01187233627270e+002	(8.49285882592789e+001dB,-8.96842074571297e+001°)
5.12861383991362e+002	(8.47285906425576e+001dB,-8.96768517233658e+001°)
5.24807460249770e+002	(8.45285931381566e+001dB,-8.96693246539486e+001°)
5.37031796370250e+002	(8.43285957513692e+001dB,-8.96616222580522e+001°)
5.49540873857622e+002	(8.41285984877383e+001dB,-8.96537404519128e+001°)
5.62341325190346e+002	(8.39286013530681e+001dB,-8.96456750566368e+001°)
5.75439937337154e+002	(8.37286043534363e+001dB,-8.96374217960116e+001°)
5.88843655355586e+002	(8.35286074952070e+001dB,-8.96289762942177e+001°)
6.02559586074355e+002	(8.33286107850443e+001dB,-8.96203340735267e+001°)
6.16595001861479e+002	(8.31286142299262e+001dB,-8.96114905519195e+001°)
6.30957344480190e+002	(8.29286178371598e+001dB,-8.96024410406550e+001°)
6.45654229034652e+002	(8.27286216143963e+001dB,-8.95931807417911e+001°)
6.60693448007592e+002	(8.25286255696477e+001dB,-8.95837047456381e+001°)
6.76082975391978e+002	(8.23286297113036e+001dB,-8.95740080281631e+001°)
6.91830970918933e+002	(8.21286340481487e+001dB,-8.95640854483189e+001°)
7.07945784384134e+002	(8.19286385893821e+001dB,-8.95539317453215e+001°)
7.24435960074986e+002	(8.17286433446360e+001dB,-8.95435415358655e+001°)
7.41310241300914e+002	(8.15286483239969e+001dB,-8.95329093112720e+001°)
7.58577575029180e+002	(8.13286535380266e+001dB,-8.95220294345649e+001°)
7.76247116628688e+002	(8.11286589977844e+001dB,-8.95108961374862e+001°)
7.94328234724277e+002	(8.09286647148510e+001dB,-8.94995035174407e+001°)
8.12830516164095e+002	(8.07286707013530e+001dB,-8.94878455343660e+001°)
8.31763771102666e+002	(8.05286769699881e+001dB,-8.94759160075326e+001°)
8.51138038202372e+002	(8.03286835340527e+001dB,-8.94637086122724e+001°)
8.70963589956076e+002	(8.01286904074698e+001dB,-8.94512168766227e+001°)
8.91250938133741e+002	(7.99286976048186e+001dB,-8.94384341779019e+001°)
9.12010839355905e+002	(7.97287051413651e+001dB,-8.94253537391976e+001°)
9.33254300796986e+002	(7.95287130330951e+001dB,-8.94119686257787e+001°)
9.54992586021431e+002	(7.93287212967474e+001dB,-8.93982717414186e+001°)
9.77237220955805e+002	(7.91287299498499e+001dB,-8.93842558246409e+001°)
9.99999999999994e+002	(7.89287390107566e+001dB,-8.93699134448699e+001°)
1.02329299228075e+003	(7.87287484986861e+001dB,-8.93552369984964e+001°)
1.04712854805089e+003	(7.85287584337631e+001dB,-8.93402187048488e+001°)
1.07151930523760e+003	(7.83287688370605e+001dB,-8.93248506020731e+001°)
1.09647819614318e+003	(7.81287797306443e+001dB,-8.93091245429164e+001°)
1.12201845430196e+003	(7.79287911376205e+001dB,-8.92930321904148e+001°)
1.14815362149688e+003	(7.77288030821838e+001dB,-8.92765650134728e+001°)
1.17489755493952e+003	(7.75288155896693e+001dB,-8.92597142823537e+001°)
1.20226443461741e+003	(7.73288286866059e+001dB,-8.92424710640515e+001°)
1.23026877081237e+003	(7.71288424007728e+001dB,-8.92248262175632e+001°)
1.25892541179416e+003	(7.69288567612582e+001dB,-8.92067703890537e+001°)
1.28824955169313e+003	(7.67288717985213e+001dB,-8.91882940068980e+001°)
1.31825673855640e+003	(7.65288875444564e+001dB,-8.91693872766180e+001°)
1.34896288259165e+003	(7.63289040324612e+001dB,-8.91500401756989e+001°)
1.38038426460288e+003	(7.61289212975069e+001dB,-8.91302424482850e+001°)
1.41253754462275e+003	(7.59289393762129e+001dB,-8.91099835997521e+001°)
1.44543977074592e+003	(7.57289583069243e+001dB,-8.90892528911533e+001°)
1.47910838816820e+003	(7.55289781297932e+001dB,-8.90680393335409e+001°)
1.51356124843620e+003	(7.53289988868638e+001dB,-8.90463316821484e+001°)
1.54881661891247e+003	(7.51290206221616e+001dB,-8.90241184304458e+001°)
1.58489319246110e+003	(7.49290433817867e+001dB,-8.90013878040534e+001°)
1.62181009735892e+003	(7.47290672140117e+001dB,-8.89781277545129e+001°)
1.65958690743755e+003	(7.45290921693841e+001dB,-8.89543259529199e+001°)
1.69824365246173e+003	(7.43291183008330e+001dB,-8.89299697833998e+001°)
1.73780082874936e+003	(7.41291456637821e+001dB,-8.89050463364457e+001°)
1.77827941003891e+003	(7.39291743162666e+001dB,-8.88795424020897e+001°)
1.81970085860997e+003	(7.37292043190564e+001dB,-8.88534444629244e+001°)
1.86208713666286e+003	(7.35292357357853e+001dB,-8.88267386869570e+001°)
1.90546071796323e+003	(7.33292686330853e+001dB,-8.87994109203061e+001°)
1.94984459975803e+003	(7.31293030807284e+001dB,-8.87714466797190e+001°)
1.99526231496887e+003	(7.29293391517745e+001dB,-8.87428311449305e+001°)
2.04173794466952e+003	(7.27293769227259e+001dB,-8.87135491508305e+001°)
2.08929613085403e+003	(7.25294164736899e+001dB,-8.86835851794596e+001°)
2.13796208950222e+003	(7.23294578885484e+001dB,-8.86529233518198e+001°)
2.18776162394954e+003	(7.21295012551357e+001dB,-8.86215474194942e+001°)
2.23872113856832e+003	(7.19295466654252e+001dB,-8.85894407560725e+001°)
2.29086765276776e+003	(7.17295942157236e+001dB,-8.85565863483839e+001°)
2.34422881531991e+003	(7.15296440068756e+001dB,-8.85229667875215e+001°)
2.39883291901947e+003	(7.13296961444775e+001dB,-8.84885642596679e+001°)
2.45470891568501e+003	(7.11297507391012e+001dB,-8.84533605367048e+001°)
2.51188643150956e+003	(7.09298079065282e+001dB,-8.84173369666053e+001°)
2.57039578276885e+003	(7.07298677679954e+001dB,-8.83804744636132e+001°)
2.63026799189536e+003	(7.05299304504519e+001dB,-8.83427534981891e+001°)
2.69153480392690e+003	(7.03299960868279e+001dB,-8.83041540867299e+001°)
2.75422870333815e+003	(7.01300648163169e+001dB,-8.82646557810525e+001°)
2.81838293126443e+003	(6.99301367846700e+001dB,-8.82242376576381e+001°)
2.88403150312659e+003	(6.97302121445057e+001dB,-8.81828783066259e+001°)
2.95120922666636e+003	(6.95302910556322e+001dB,-8.81405558205607e+001°)
3.01995172040199e+003	(6.93303736853870e+001dB,-8.80972477828803e+001°)
3.09029543251357e+003	(6.91304602089910e+001dB,-8.80529312561432e+001°)
3.16227766016836e+003	(6.89305508099198e+001dB,-8.80075827699847e+001°)
3.23593656929626e+003	(6.87306456802926e+001dB,-8.79611783088010e+001°)
3.31131121482589e+003	(6.85307450212789e+001dB,-8.79136932991541e+001°)
3.38844156139200e+003	(6.83308490435251e+001dB,-8.78651025968889e+001°)
3.46736850452529e+003	(6.81309579676005e+001dB,-8.78153804739587e+001°)
3.54813389233573e+003	(6.79310720244642e+001dB,-8.77645006049547e+001°)
3.63078054770099e+003	(6.77311914559549e+001dB,-8.77124360533256e+001°)
3.71535229097170e+003	(6.75313165153028e+001dB,-8.76591592572937e+001°)
3.80189396320558e+003	(6.73314474676657e+001dB,-8.76046420154445e+001°)
3.89045144994278e+003	(6.71315845906908e+001dB,-8.75488554720002e+001°)
3.98107170553494e+003	(6.69317281751024e+001dB,-8.74917701017561e+001°)
4.07380277804110e+003	(6.67318785253176e+001dB,-8.74333556946836e+001°)
4.16869383470332e+003	(6.65320359600908e+001dB,-8.73735813401842e+001°)
4.26579518801589e+003	(6.63322008131881e+001dB,-8.73124154109970e+001°)
4.36515832240162e+003	(6.61323734340944e+001dB,-8.72498255467396e+001°)
4.46683592150960e+003	(6.59325541887525e+001dB,-8.71857786370901e+001°)
4.57088189614871e+003	(6.57327434603379e+001dB,-8.71202408045928e+001°)
4.67735141287194e+003	(6.55329416500696e+001dB,-8.70531773870818e+001°)
4.78630092322634e+003	(6.53331491780586e+001dB,-8.69845529197170e+001°)
4.89778819368442e+003	(6.51333664841974e+001dB,-8.69143311166244e+001°)
5.01187233627268e+003	(6.49335940290897e+001dB,-8.68424748521336e+001°)
5.12861383991361e+003	(6.47338322950251e+001dB,-8.67689461416034e+001°)
5.24807460249768e+003	(6.45340817869988e+001dB,-8.66937061218261e+001°)
5.37031796370248e+003	(6.43343430337797e+001dB,-8.66167150310098e+001°)
5.49540873857620e+003	(6.41346165890277e+001dB,-8.65379321883226e+001°)
5.62341325190344e+003	(6.39349030324644e+001dB,-8.64573159729934e+001°)
5.75439937337152e+003	(6.37352029710984e+001dB,-8.63748238029682e+001°)
