Freq.	V(vo)
1.00000000000000e+001	(-4.40365245003290e+001dB,-9.00004389202737e+001°)
1.02329299228075e+001	(-4.38365244986617e+001dB,-9.00004491440402e+001°)
1.04712854805090e+001	(-4.36365244969159e+001dB,-9.00004596059489e+001°)
1.07151930523761e+001	(-4.34365244950877e+001dB,-9.00004703115467e+001°)
1.09647819614319e+001	(-4.32365244931735e+001dB,-9.00004812665100e+001°)
1.12201845430196e+001	(-4.30365244911690e+001dB,-9.00004924766471e+001°)
1.14815362149688e+001	(-4.28365244890700e+001dB,-9.00005039479019e+001°)
1.17489755493953e+001	(-4.26365244868721e+001dB,-9.00005156863565e+001°)
1.20226443461741e+001	(-4.24365244845707e+001dB,-9.00005276982348e+001°)
1.23026877081238e+001	(-4.22365244821607e+001dB,-9.00005399899057e+001°)
1.25892541179417e+001	(-4.20365244796372e+001dB,-9.00005525678864e+001°)
1.28824955169313e+001	(-4.18365244769948e+001dB,-9.00005654388460e+001°)
1.31825673855641e+001	(-4.16365244742278e+001dB,-9.00005786096087e+001°)
1.34896288259165e+001	(-4.14365244713304e+001dB,-9.00005920871578e+001°)
1.38038426460288e+001	(-4.12365244682965e+001dB,-9.00006058786395e+001°)
1.41253754462275e+001	(-4.10365244651196e+001dB,-9.00006199913660e+001°)
1.44543977074593e+001	(-4.08365244617929e+001dB,-9.00006344328201e+001°)
1.47910838816821e+001	(-4.06365244583095e+001dB,-9.00006492106589e+001°)
1.51356124843621e+001	(-4.04365244546619e+001dB,-9.00006643327178e+001°)
1.54881661891248e+001	(-4.02365244508424e+001dB,-9.00006798070147e+001°)
1.58489319246111e+001	(-4.00365244468429e+001dB,-9.00006956417543e+001°)
1.62181009735893e+001	(-3.98365244426549e+001dB,-9.00007118453323e+001°)
1.65958690743756e+001	(-3.96365244382696e+001dB,-9.00007284263402e+001°)
1.69824365246174e+001	(-3.94365244336775e+001dB,-9.00007453935694e+001°)
1.73780082874937e+001	(-3.92365244288691e+001dB,-9.00007627560161e+001°)
1.77827941003892e+001	(-3.90365244238340e+001dB,-9.00007805228861e+001°)
1.81970085860998e+001	(-3.88365244185617e+001dB,-9.00007987035997e+001°)
1.86208713666287e+001	(-3.86365244130408e+001dB,-9.00008173077966e+001°)
1.90546071796325e+001	(-3.84365244072598e+001dB,-9.00008363453408e+001°)
1.94984459975804e+001	(-3.82365244012063e+001dB,-9.00008558263265e+001°)
1.99526231496888e+001	(-3.80365243948675e+001dB,-9.00008757610826e+001°)
2.04173794466953e+001	(-3.78365243882300e+001dB,-9.00008961601788e+001°)
2.08929613085404e+001	(-3.76365243812797e+001dB,-9.00009170344310e+001°)
2.13796208950223e+001	(-3.74365243740018e+001dB,-9.00009383949070e+001°)
2.18776162394955e+001	(-3.72365243663809e+001dB,-9.00009602529324e+001°)
2.23872113856834e+001	(-3.70365243584008e+001dB,-9.00009826200967e+001°)
2.29086765276777e+001	(-3.68365243500447e+001dB,-9.00010055082591e+001°)
2.34422881531992e+001	(-3.66365243412948e+001dB,-9.00010289295553e+001°)
2.39883291901949e+001	(-3.64365243321324e+001dB,-9.00010528964036e+001°)
2.45470891568503e+001	(-3.62365243225383e+001dB,-9.00010774215116e+001°)
2.51188643150958e+001	(-3.60365243124920e+001dB,-9.00011025178827e+001°)
2.57039578276886e+001	(-3.58365243019723e+001dB,-9.00011281988234e+001°)
2.63026799189538e+001	(-3.56365242909568e+001dB,-9.00011544779500e+001°)
2.69153480392691e+001	(-3.54365242794221e+001dB,-9.00011813691962e+001°)
2.75422870333816e+001	(-3.52365242673438e+001dB,-9.00012088868199e+001°)
2.81838293126445e+001	(-3.50365242546963e+001dB,-9.00012370454115e+001°)
2.88403150312660e+001	(-3.48365242414527e+001dB,-9.00012658599009e+001°)
2.95120922666638e+001	(-3.46365242275849e+001dB,-9.00012953455660e+001°)
3.01995172040201e+001	(-3.44365242130636e+001dB,-9.00013255180406e+001°)
3.09029543251359e+001	(-3.42365241978580e+001dB,-9.00013563933223e+001°)
3.16227766016838e+001	(-3.40365241819357e+001dB,-9.00013879877818e+001°)
3.23593656929628e+001	(-3.38365241652630e+001dB,-9.00014203181708e+001°)
3.31131121482591e+001	(-3.36365241478046e+001dB,-9.00014534016313e+001°)
3.38844156139202e+001	(-3.34365241295233e+001dB,-9.00014872557046e+001°)
3.46736850452531e+001	(-3.32365241103805e+001dB,-9.00015218983406e+001°)
3.54813389233575e+001	(-3.30365240903355e+001dB,-9.00015573479074e+001°)
3.63078054770101e+001	(-3.28365240693459e+001dB,-9.00015936232006e+001°)
3.71535229097172e+001	(-3.26365240473670e+001dB,-9.00016307434539e+001°)
3.80189396320561e+001	(-3.24365240243523e+001dB,-9.00016687283491e+001°)
3.89045144994280e+001	(-3.22365240002529e+001dB,-9.00017075980262e+001°)
3.98107170553497e+001	(-3.20365239750178e+001dB,-9.00017473730944e+001°)
4.07380277804112e+001	(-3.18365239485934e+001dB,-9.00017880746430e+001°)
4.16869383470335e+001	(-3.16365239209236e+001dB,-9.00018297242525e+001°)
4.26579518801592e+001	(-3.14365238919498e+001dB,-9.00018723440061e+001°)
4.36515832240165e+001	(-3.12365238616105e+001dB,-9.00019159565014e+001°)
4.46683592150962e+001	(-3.10365238298414e+001dB,-9.00019605848622e+001°)
4.57088189614874e+001	(-3.08365237965750e+001dB,-9.00020062527511e+001°)
4.67735141287197e+001	(-3.06365237617408e+001dB,-9.00020529843819e+001°)
4.78630092322638e+001	(-3.04365237252650e+001dB,-9.00021008045322e+001°)
4.89778819368445e+001	(-3.02365236870701e+001dB,-9.00021497385570e+001°)
5.01187233627271e+001	(-3.00365236470751e+001dB,-9.00021998124018e+001°)
5.12861383991364e+001	(-2.98365236051952e+001dB,-9.00022510526163e+001°)
5.24807460249772e+001	(-2.96365235613416e+001dB,-9.00023034863688e+001°)
5.37031796370252e+001	(-2.94365235154212e+001dB,-9.00023571414604e+001°)
5.49540873857624e+001	(-2.92365234673366e+001dB,-9.00024120463397e+001°)
5.62341325190348e+001	(-2.90365234169859e+001dB,-9.00024682301181e+001°)
5.75439937337156e+001	(-2.88365233642623e+001dB,-9.00025257225849e+001°)
5.88843655355588e+001	(-2.86365233090538e+001dB,-9.00025845542234e+001°)
6.02559586074357e+001	(-2.84365232512435e+001dB,-9.00026447562270e+001°)
6.16595001861481e+001	(-2.82365231907086e+001dB,-9.00027063605155e+001°)
6.30957344480192e+001	(-2.80365231273208e+001dB,-9.00027693997524e+001°)
6.45654229034654e+001	(-2.78365230609457e+001dB,-9.00028339073618e+001°)
6.60693448007595e+001	(-2.76365229914424e+001dB,-9.00028999175468e+001°)
6.76082975391980e+001	(-2.74365229186634e+001dB,-9.00029674653066e+001°)
6.91830970918935e+001	(-2.72365228424546e+001dB,-9.00030365864560e+001°)
7.07945784384136e+001	(-2.70365227626541e+001dB,-9.00031073176441e+001°)
7.24435960074988e+001	(-2.68365226790927e+001dB,-9.00031796963735e+001°)
7.41310241300916e+001	(-2.66365225915932e+001dB,-9.00032537610202e+001°)
7.58577575029182e+001	(-2.64365224999700e+001dB,-9.00033295508545e+001°)
7.76247116628690e+001	(-2.62365224040287e+001dB,-9.00034071060611e+001°)
7.94328234724279e+001	(-2.60365223035658e+001dB,-9.00034864677608e+001°)
8.12830516164097e+001	(-2.58365221983683e+001dB,-9.00035676780322e+001°)
8.31763771102669e+001	(-2.56365220882129e+001dB,-9.00036507799343e+001°)
8.51138038202374e+001	(-2.54365219728661e+001dB,-9.00037358175287e+001°)
8.70963589956078e+001	(-2.52365218520832e+001dB,-9.00038228359035e+001°)
8.91250938133743e+001	(-2.50365217256079e+001dB,-9.00039118811971e+001°)
9.12010839355907e+001	(-2.48365215931720e+001dB,-9.00040030006225e+001°)
9.33254300796988e+001	(-2.46365214544946e+001dB,-9.00040962424924e+001°)
9.54992586021433e+001	(-2.44365213092816e+001dB,-9.00041916562450e+001°)
9.77237220955808e+001	(-2.42365211572249e+001dB,-9.00042892924700e+001°)
9.99999999999997e+001	(-2.40365209980019e+001dB,-9.00043892029355e+001°)
1.02329299228075e+002	(-2.38365208312750e+001dB,-9.00044914406152e+001°)
1.04712854805090e+002	(-2.36365206566905e+001dB,-9.00045960597172e+001°)
1.07151930523760e+002	(-2.34365204738781e+001dB,-9.00047031157118e+001°)
1.09647819614318e+002	(-2.32365202824500e+001dB,-9.00048126653617e+001°)
1.12201845430196e+002	(-2.30365200820002e+001dB,-9.00049247667515e+001°)
1.14815362149688e+002	(-2.28365198721034e+001dB,-9.00050394793191e+001°)
1.17489755493953e+002	(-2.26365196523145e+001dB,-9.00051568638867e+001°)
1.20226443461741e+002	(-2.24365194221673e+001dB,-9.00052769826930e+001°)
1.23026877081238e+002	(-2.22365191811736e+001dB,-9.00053998994270e+001°)
1.25892541179416e+002	(-2.20365189288221e+001dB,-9.00055256792607e+001°)
1.28824955169313e+002	(-2.18365186645778e+001dB,-9.00056543888843e+001°)
1.31825673855640e+002	(-2.16365183878799e+001dB,-9.00057860965417e+001°)
1.34896288259165e+002	(-2.14365180981417e+001dB,-9.00059208720659e+001°)
1.38038426460288e+002	(-2.12365177947485e+001dB,-9.00060587869170e+001°)
1.41253754462275e+002	(-2.10365174770568e+001dB,-9.00061999142193e+001°)
1.44543977074592e+002	(-2.08365171443928e+001dB,-9.00063443288006e+001°)
1.47910838816820e+002	(-2.06365167960507e+001dB,-9.00064921072316e+001°)
1.51356124843620e+002	(-2.04365164312919e+001dB,-9.00066433278666e+001°)
1.54881661891248e+002	(-2.02365160493424e+001dB,-9.00067980708848e+001°)
1.58489319246111e+002	(-2.00365156493922e+001dB,-9.00069564183334e+001°)
1.62181009735892e+002	(-1.98365152305929e+001dB,-9.00071184541705e+001°)
1.65958690743755e+002	(-1.96365147920561e+001dB,-9.00072842643098e+001°)
1.69824365246174e+002	(-1.94365143328518e+001dB,-9.00074539366663e+001°)
1.73780082874937e+002	(-1.92365138520058e+001dB,-9.00076275612029e+001°)
1.77827941003892e+002	(-1.90365133484982e+001dB,-9.00078052299779e+001°)
1.81970085860998e+002	(-1.88365128212609e+001dB,-9.00079870371939e+001°)
1.86208713666286e+002	(-1.86365122691757e+001dB,-9.00081730792480e+001°)
1.90546071796324e+002	(-1.84365116910715e+001dB,-9.00083634547822e+001°)
1.94984459975804e+002	(-1.82365110857221e+001dB,-9.00085582647368e+001°)
1.99526231496887e+002	(-1.80365104518433e+001dB,-9.00087576124030e+001°)
2.04173794466952e+002	(-1.78365097880907e+001dB,-9.00089616034780e+001°)
2.08929613085403e+002	(-1.76365090930564e+001dB,-9.00091703461209e+001°)
2.13796208950222e+002	(-1.74365083652660e+001dB,-9.00093839510106e+001°)
2.18776162394954e+002	(-1.72365076031759e+001dB,-9.00096025314036e+001°)
2.23872113856833e+002	(-1.70365068051695e+001dB,-9.00098262031947e+001°)
2.29086765276776e+002	(-1.68365059695541e+001dB,-9.00100550849784e+001°)
2.34422881531991e+002	(-1.66365050945573e+001dB,-9.00102892981115e+001°)
2.39883291901948e+002	(-1.64365041783231e+001dB,-9.00105289667776e+001°)
2.45470891568502e+002	(-1.62365032189080e+001dB,-9.00107742180530e+001°)
2.51188643150957e+002	(-1.60365022142769e+001dB,-9.00110251819741e+001°)
2.57039578276885e+002	(-1.58365011622989e+001dB,-9.00112819916060e+001°)
2.63026799189537e+002	(-1.56365000607425e+001dB,-9.00115447831137e+001°)
2.69153480392690e+002	(-1.54364989072712e+001dB,-9.00118136958337e+001°)
2.75422870333816e+002	(-1.52364976994384e+001dB,-9.00120888723482e+001°)
2.81838293126444e+002	(-1.50364964346819e+001dB,-9.00123704585606e+001°)
2.88403150312659e+002	(-1.48364951103191e+001dB,-9.00126586037729e+001°)
2.95120922666637e+002	(-1.46364937235408e+001dB,-9.00129534607649e+001°)
3.01995172040200e+002	(-1.44364922714054e+001dB,-9.00132551858752e+001°)
3.09029543251358e+002	(-1.42364907508327e+001dB,-9.00135639390839e+001°)
3.16227766016837e+002	(-1.40364891585973e+001dB,-9.00138798840978e+001°)
3.23593656929627e+002	(-1.38364874913218e+001dB,-9.00142031884369e+001°)
3.31131121482590e+002	(-1.36364857454697e+001dB,-9.00145340235233e+001°)
3.38844156139201e+002	(-1.34364839173378e+001dB,-9.00148725647723e+001°)
3.46736850452530e+002	(-1.32364820030482e+001dB,-9.00152189916851e+001°)
3.54813389233574e+002	(-1.30364799985404e+001dB,-9.00155734879442e+001°)
3.63078054770100e+002	(-1.28364778995626e+001dB,-9.00159362415108e+001°)
3.71535229097171e+002	(-1.26364757016624e+001dB,-9.00163074447243e+001°)
3.80189396320559e+002	(-1.24364734001778e+001dB,-9.00166872944046e+001°)
3.89045144994279e+002	(-1.22364709902269e+001dB,-9.00170759919559e+001°)
3.98107170553495e+002	(-1.20364684666978e+001dB,-9.00174737434744e+001°)
4.07380277804111e+002	(-1.18364658242375e+001dB,-9.00178807598567e+001°)
4.16869383470333e+002	(-1.16364630572411e+001dB,-9.00182972569121e+001°)
4.26579518801591e+002	(-1.14364601598391e+001dB,-9.00187234554769e+001°)
4.36515832240164e+002	(-1.12364571258858e+001dB,-9.00191595815317e+001°)
4.46683592150961e+002	(-1.10364539489454e+001dB,-9.00196058663211e+001°)
4.57088189614873e+002	(-1.08364506222792e+001dB,-9.00200625464762e+001°)
4.67735141287196e+002	(-1.06364471388305e+001dB,-9.00205298641403e+001°)
4.78630092322636e+002	(-1.04364434912105e+001dB,-9.00210080670972e+001°)
4.89778819368444e+002	(-1.02364396716817e+001dB,-9.00214974089027e+001°)
5.01187233627270e+002	(-1.00364356721422e+001dB,-9.00219981490189e+001°)
5.12861383991362e+002	(-9.83643148410811e+000dB,-9.00225105529521e+001°)
5.24807460249770e+002	(-9.63642709869585e+000dB,-9.00230348923933e+001°)
5.37031796370250e+002	(-9.43642250660299e+000dB,-9.00235714453624e+001°)
5.49540873857622e+002	(-9.23641769808878e+000dB,-9.00241204963556e+001°)
5.62341325190346e+002	(-9.03641266295329e+000dB,-9.00246823364966e+001°)
5.75439937337154e+002	(-8.83640739051594e+000dB,-9.00252572636904e+001°)
5.88843655355586e+002	(-8.63640186959270e+000dB,-9.00258455827820e+001°)
6.02559586074355e+002	(-8.43639608847246e+000dB,-9.00264476057175e+001°)
6.16595001861479e+002	(-8.23639003489213e+000dB,-9.00270636517098e+001°)
6.30957344480190e+002	(-8.03638369601065e+000dB,-9.00276940474081e+001°)
6.45654229034652e+002	(-7.83637705838173e+000dB,-9.00283391270707e+001°)
6.60693448007592e+002	(-7.63637010792535e+000dB,-9.00289992327427e+001°)
6.76082975391978e+002	(-7.43636282989786e+000dB,-9.00296747144372e+001°)
6.91830970918933e+002	(-7.23635520886071e+000dB,-9.00303659303212e+001°)
7.07945784384134e+002	(-7.03634722864769e+000dB,-9.00310732469053e+001°)
7.24435960074986e+002	(-6.83633887233065e+000dB,-9.00317970392383e+001°)
7.41310241300914e+002	(-6.63633012218357e+000dB,-9.00325376911059e+001°)
7.58577575029180e+002	(-6.43632095964495e+000dB,-9.00332955952350e+001°)
7.76247116628688e+002	(-6.23631136527841e+000dB,-9.00340711535008e+001°)
7.94328234724277e+002	(-6.03630131873150e+000dB,-9.00348647771415e+001°)
8.12830516164095e+002	(-5.83629079869249e+000dB,-9.00356768869751e+001°)
8.31763771102666e+002	(-5.63627978284511e+000dB,-9.00365079136237e+001°)
8.51138038202372e+002	(-5.43626824782129e+000dB,-9.00373582977411e+001°)
8.70963589956076e+002	(-5.23625616915147e+000dB,-9.00382284902474e+001°)
8.91250938133741e+002	(-5.03624352121277e+000dB,-9.00391189525677e+001°)
9.12010839355905e+002	(-4.83623027717457e+000dB,-9.00400301568772e+001°)
9.33254300796986e+002	(-4.63621640894159e+000dB,-9.00409625863514e+001°)
9.54992586021431e+002	(-4.43620188709426e+000dB,-9.00419167354231e+001°)
9.77237220955805e+002	(-4.23618668082630e+000dB,-9.00428931100443e+001°)
9.99999999999994e+002	(-4.03617075787936e+000dB,-9.00438922279547e+001°)
1.02329299228075e+003	(-3.83615408447453e+000dB,-9.00449146189567e+001°)
1.04712854805089e+003	(-3.63613662524069e+000dB,-9.00459608251964e+001°)
1.07151930523760e+003	(-3.43611834313943e+000dB,-9.00470314014515e+001°)
1.09647819614318e+003	(-3.23609919938640e+000dB,-9.00481269154255e+001°)
1.12201845430196e+003	(-3.03607915336910e+000dB,-9.00492479480495e+001°)
1.14815362149688e+003	(-2.83605816256057e+000dB,-9.00503950937900e+001°)
1.17489755493952e+003	(-2.63603618242922e+000dB,-9.00515689609649e+001°)
1.20226443461741e+003	(-2.43601316634422e+000dB,-9.00527701720663e+001°)
1.23026877081237e+003	(-2.23598906547662e+000dB,-9.00539993640911e+001°)
1.25892541179416e+003	(-2.03596382869564e+000dB,-9.00552571888788e+001°)
1.28824955169313e+003	(-1.83593740246013e+000dB,-9.00565443134583e+001°)
1.31825673855640e+003	(-1.63590973070496e+000dB,-9.00578614204016e+001°)
1.34896288259165e+003	(-1.43588075472194e+000dB,-9.00592092081864e+001°)
1.38038426460288e+003	(-1.23585041303525e+000dB,-9.00605883915672e+001°)
1.41253754462275e+003	(-1.03581864127084e+000dB,-9.00619997019547e+001°)
1.44543977074592e+003	(-8.35785372019866e-001dB,-9.00634438878048e+001°)
1.47910838816820e+003	(-6.35750534695451e-001dB,-9.00649217150153e+001°)
1.51356124843620e+003	(-4.35714055382879e-001dB,-9.00664339673340e+001°)
1.54881661891247e+003	(-2.35675856682613e-001dB,-9.00679814467740e+001°)
1.58489319246110e+003	(-3.56358575459418e-002dB,-9.00695649740406e+001°)
1.62181009735892e+003	(1.64406026897142e-001dB,-9.00711853889674e+001°)
1.65958690743755e+003	(3.64449885518194e-001dB,-9.00728435509623e+001°)
1.69824365246173e+003	(5.64495811379055e-001dB,-9.00745403394646e+001°)
1.73780082874936e+003	(7.64543901929547e-001dB,-9.00762766544126e+001°)
1.77827941003891e+003	(9.64594259214445e-001dB,-9.00780534167217e+001°)
1.81970085860997e+003	(1.16464699009027e+000dB,-9.00798715687746e+001°)
1.86208713666286e+003	(1.36470220645229e+000dB,-9.00817320749223e+001°)
1.90546071796323e+003	(1.56476002547227e+000dB,-9.00836359219969e+001°)
1.94984459975803e+003	(1.76482056984744e+000dB,-9.00855841198367e+001°)
1.99526231496887e+003	(1.96488396806118e+000dB,-9.00875777018237e+001°)
2.04173794466952e+003	(2.16495035465614e+000dB,-9.00896177254331e+001°)
2.08929613085403e+003	(2.36501987052012e+000dB,-9.00917052727966e+001°)
2.13796208950222e+003	(2.56509266318556e+000dB,-9.00938414512782e+001°)
2.18776162394954e+003	(2.76516888714316e+000dB,-9.00960273940639e+001°)
2.23872113856832e+003	(2.96524870417030e+000dB,-9.00982642607650e+001°)
2.29086765276776e+003	(3.16533228367505e+000dB,-9.01005532380363e+001°)
2.34422881531991e+003	(3.36541980305634e+000dB,-9.01028955402079e+001°)
2.39883291901947e+003	(3.56551144808130e+000dB,-9.01052924099323e+001°)
2.45470891568501e+003	(3.76560741328030e+000dB,-9.01077451188469e+001°)
2.51188643150956e+003	(3.96570790236082e+000dB,-9.01102549682523e+001°)
2.57039578276885e+003	(4.16581312864079e+000dB,-9.01128232898057e+001°)
2.63026799189536e+003	(4.36592331550253e+000dB,-9.01154514462318e+001°)
2.69153480392690e+003	(4.56603869686810e+000dB,-9.01181408320496e+001°)
2.75422870333815e+003	(4.76615951769717e+000dB,-9.01208928743170e+001°)
2.81838293126443e+003	(4.96628603450853e+000dB,-9.01237090333926e+001°)
2.88403150312659e+003	(5.16641851592622e+000dB,-9.01265908037159e+001°)
2.95120922666636e+003	(5.36655724325161e+000dB,-9.01295397146053e+001°)
3.01995172040199e+003	(5.56670251106247e+000dB,-9.01325573310764e+001°)
3.09029543251357e+003	(5.76685462784061e+000dB,-9.01356452546778e+001°)
3.16227766016836e+003	(5.96701391662910e+000dB,-9.01388051243484e+001°)
3.23593656929626e+003	(6.16718071572081e+000dB,-9.01420386172943e+001°)
3.31131121482589e+003	(6.36735537937948e+000dB,-9.01453474498867e+001°)
3.38844156139200e+003	(6.56753827859513e+000dB,-9.01487333785813e+001°)
3.46736850452529e+003	(6.76772980187524e+000dB,-9.01521982008593e+001°)
3.54813389233573e+003	(6.96793035607354e+000dB,-9.01557437561912e+001°)
3.63078054770099e+003	(7.16814036725818e+000dB,-9.01593719270237e+001°)
3.71535229097170e+003	(7.36836028162115e+000dB,-9.01630846397898e+001°)
3.80189396320558e+003	(7.56859056643083e+000dB,-9.01668838659432e+001°)
3.89045144994278e+003	(7.76883171103008e+000dB,-9.01707716230182e+001°)
3.98107170553494e+003	(7.96908422788156e+000dB,-9.01747499757138e+001°)
4.07380277804110e+003	(8.16934865366298e+000dB,-9.01788210370051e+001°)
4.16869383470332e+003	(8.36962555041439e+000dB,-9.01829869692805e+001°)
4.26579518801589e+003	(8.56991550674025e+000dB,-9.01872499855073e+001°)
4.36515832240162e+003	(8.77021913906871e+000dB,-9.01916123504245e+001°)
4.46683592150960e+003	(8.97053709297097e+000dB,-9.01960763817652e+001°)
4.57088189614871e+003	(9.17087004454365e+000dB,-9.02006444515081e+001°)
4.67735141287194e+003	(9.37121870185709e+000dB,-9.02053189871601e+001°)
4.78630092322634e+003	(9.57158380647290e+000dB,-9.02101024730691e+001°)
4.89778819368442e+003	(9.77196613503409e+000dB,-9.02149974517700e+001°)
5.01187233627268e+003	(9.97236650093114e+000dB,-9.02200065253629e+001°)
5.12861383991361e+003	(1.01727857560480e+001dB,-9.02251323569249e+001°)
5.24807460249768e+003	(1.03732247925916e+001dB,-9.02303776719570e+001°)
5.37031796370248e+003	(1.05736845450093e+001dB,-9.02357452598669e+001°)
