Freq.	V(vo)
Step Information: 1=1  (Run: 1/11)
1.00000000000000e+001	(-4.48394969506662e+001dB,-9.00000424852863e+001°)
1.02329299228075e+001	(-4.46394969491370e+001dB,-9.00000434748957e+001°)
1.04712854805090e+001	(-4.44394969475357e+001dB,-9.00000444875561e+001°)
1.07151930523761e+001	(-4.42394969458589e+001dB,-9.00000455238043e+001°)
1.09647819614319e+001	(-4.40394969441031e+001dB,-9.00000465841898e+001°)
1.12201845430196e+001	(-4.38394969422645e+001dB,-9.00000476692749e+001°)
1.14815362149688e+001	(-4.36394969403393e+001dB,-9.00000487796349e+001°)
1.17489755493953e+001	(-4.34394969383233e+001dB,-9.00000499158585e+001°)
1.20226443461741e+001	(-4.32394969362124e+001dB,-9.00000510785481e+001°)
1.23026877081238e+001	(-4.30394969340019e+001dB,-9.00000522683202e+001°)
1.25892541179417e+001	(-4.28394969316873e+001dB,-9.00000534858056e+001°)
1.28824955169313e+001	(-4.26394969292636e+001dB,-9.00000547316500e+001°)
1.31825673855641e+001	(-4.24394969267257e+001dB,-9.00000560065137e+001°)
1.34896288259165e+001	(-4.22394969240681e+001dB,-9.00000573110729e+001°)
1.38038426460288e+001	(-4.20394969212854e+001dB,-9.00000586460191e+001°)
1.41253754462275e+001	(-4.18394969183714e+001dB,-9.00000600120602e+001°)
1.44543977074593e+001	(-4.16394969153202e+001dB,-9.00000614099205e+001°)
1.47910838816821e+001	(-4.14394969121251e+001dB,-9.00000628403411e+001°)
1.51356124843621e+001	(-4.12394969087795e+001dB,-9.00000643040805e+001°)
1.54881661891248e+001	(-4.10394969052761e+001dB,-9.00000658019147e+001°)
1.58489319246111e+001	(-4.08394969016077e+001dB,-9.00000673346380e+001°)
1.62181009735893e+001	(-4.06394968977664e+001dB,-9.00000689030629e+001°)
1.65958690743756e+001	(-4.04394968937441e+001dB,-9.00000705080212e+001°)
1.69824365246174e+001	(-4.02394968895322e+001dB,-9.00000721503637e+001°)
1.73780082874937e+001	(-4.00394968851218e+001dB,-9.00000738309613e+001°)
1.77827941003892e+001	(-3.98394968805035e+001dB,-9.00000755507049e+001°)
1.81970085860998e+001	(-3.96394968756676e+001dB,-9.00000773105066e+001°)
1.86208713666287e+001	(-3.94394968706037e+001dB,-9.00000791112992e+001°)
1.90546071796325e+001	(-3.92394968653012e+001dB,-9.00000809540377e+001°)
1.94984459975804e+001	(-3.90394968597489e+001dB,-9.00000828396991e+001°)
1.99526231496888e+001	(-3.88394968539348e+001dB,-9.00000847692831e+001°)
2.04173794466953e+001	(-3.86394968478467e+001dB,-9.00000867438128e+001°)
2.08929613085404e+001	(-3.84394968414717e+001dB,-9.00000887643353e+001°)
2.13796208950223e+001	(-3.82394968347963e+001dB,-9.00000908319217e+001°)
2.18776162394955e+001	(-3.80394968278063e+001dB,-9.00000929476683e+001°)
2.23872113856834e+001	(-3.78394968204868e+001dB,-9.00000951126970e+001°)
2.29086765276777e+001	(-3.76394968128224e+001dB,-9.00000973281556e+001°)
2.34422881531992e+001	(-3.74394968047968e+001dB,-9.00000995952188e+001°)
2.39883291901949e+001	(-3.72394967963929e+001dB,-9.00001019150887e+001°)
2.45470891568503e+001	(-3.70394967875930e+001dB,-9.00001042889952e+001°)
2.51188643150958e+001	(-3.68394967783783e+001dB,-9.00001067181971e+001°)
2.57039578276886e+001	(-3.66394967687294e+001dB,-9.00001092039822e+001°)
2.63026799189538e+001	(-3.64394967586257e+001dB,-9.00001117476687e+001°)
2.69153480392691e+001	(-3.62394967480458e+001dB,-9.00001143506051e+001°)
2.75422870333816e+001	(-3.60394967369674e+001dB,-9.00001170141717e+001°)
2.81838293126445e+001	(-3.58394967253668e+001dB,-9.00001197397806e+001°)
2.88403150312660e+001	(-3.56394967132195e+001dB,-9.00001225288770e+001°)
2.95120922666638e+001	(-3.54394967004998e+001dB,-9.00001253829397e+001°)
3.01995172040201e+001	(-3.52394966871805e+001dB,-9.00001283034819e+001°)
3.09029543251359e+001	(-3.50394966732336e+001dB,-9.00001312920522e+001°)
3.16227766016838e+001	(-3.48394966586293e+001dB,-9.00001343502351e+001°)
3.23593656929628e+001	(-3.46394966433368e+001dB,-9.00001374796522e+001°)
3.31131121482591e+001	(-3.44394966273235e+001dB,-9.00001406819625e+001°)
3.38844156139202e+001	(-3.42394966105556e+001dB,-9.00001439588642e+001°)
3.46736850452531e+001	(-3.40394965929974e+001dB,-9.00001473120944e+001°)
3.54813389233575e+001	(-3.38394965746118e+001dB,-9.00001507434313e+001°)
3.63078054770101e+001	(-3.36394965553596e+001dB,-9.00001542546941e+001°)
3.71535229097172e+001	(-3.34394965352001e+001dB,-9.00001578477446e+001°)
3.80189396320561e+001	(-3.32394965140906e+001dB,-9.00001615244877e+001°)
3.89045144994280e+001	(-3.30394964919861e+001dB,-9.00001652868729e+001°)
3.98107170553497e+001	(-3.28394964688400e+001dB,-9.00001691368951e+001°)
4.07380277804112e+001	(-3.26394964446029e+001dB,-9.00001730765956e+001°)
4.16869383470335e+001	(-3.24394964192236e+001dB,-9.00001771080632e+001°)
4.26579518801592e+001	(-3.22394963926483e+001dB,-9.00001812334354e+001°)
4.36515832240165e+001	(-3.20394963648204e+001dB,-9.00001854548996e+001°)
4.46683592150962e+001	(-3.18394963356811e+001dB,-9.00001897746940e+001°)
4.57088189614874e+001	(-3.16394963051685e+001dB,-9.00001941951089e+001°)
4.67735141287197e+001	(-3.14394962732179e+001dB,-9.00001987184881e+001°)
4.78630092322638e+001	(-3.12394962397615e+001dB,-9.00002033472300e+001°)
4.89778819368445e+001	(-3.10394962047283e+001dB,-9.00002080837886e+001°)
5.01187233627271e+001	(-3.08394961680441e+001dB,-9.00002129306754e+001°)
5.12861383991364e+001	(-3.06394961296310e+001dB,-9.00002178904601e+001°)
5.24807460249772e+001	(-3.04394960894075e+001dB,-9.00002229657726e+001°)
5.37031796370252e+001	(-3.02394960472884e+001dB,-9.00002281593036e+001°)
5.49540873857624e+001	(-3.00394960031843e+001dB,-9.00002334738069e+001°)
5.62341325190348e+001	(-2.98394959570015e+001dB,-9.00002389121001e+001°)
5.75439937337156e+001	(-2.96394959086423e+001dB,-9.00002444770667e+001°)
5.88843655355588e+001	(-2.94394958580040e+001dB,-9.00002501716573e+001°)
6.02559586074357e+001	(-2.92394958049791e+001dB,-9.00002559988911e+001°)
6.16595001861481e+001	(-2.90394957494553e+001dB,-9.00002619618577e+001°)
6.30957344480192e+001	(-2.88394956913147e+001dB,-9.00002680637187e+001°)
6.45654229034654e+001	(-2.86394956304341e+001dB,-9.00002743077092e+001°)
6.60693448007595e+001	(-2.84394955666842e+001dB,-9.00002806971398e+001°)
6.76082975391980e+001	(-2.82394954999298e+001dB,-9.00002872353982e+001°)
6.91830970918935e+001	(-2.80394954300295e+001dB,-9.00002939259509e+001°)
7.07945784384136e+001	(-2.78394953568348e+001dB,-9.00003007723452e+001°)
7.24435960074988e+001	(-2.76394952801906e+001dB,-9.00003077782110e+001°)
7.41310241300916e+001	(-2.74394951999342e+001dB,-9.00003149472629e+001°)
7.58577575029182e+001	(-2.72394951158955e+001dB,-9.00003222833017e+001°)
7.76247116628690e+001	(-2.70394950278962e+001dB,-9.00003297902170e+001°)
7.94328234724279e+001	(-2.68394949357496e+001dB,-9.00003374719889e+001°)
8.12830516164097e+001	(-2.66394948392602e+001dB,-9.00003453326902e+001°)
8.31763771102669e+001	(-2.64394947382234e+001dB,-9.00003533764885e+001°)
8.51138038202374e+001	(-2.62394946324249e+001dB,-9.00003616076485e+001°)
8.70963589956078e+001	(-2.60394945216403e+001dB,-9.00003700305344e+001°)
8.91250938133743e+001	(-2.58394944056346e+001dB,-9.00003786496117e+001°)
9.12010839355907e+001	(-2.56394942841617e+001dB,-9.00003874694501e+001°)
9.33254300796988e+001	(-2.54394941569639e+001dB,-9.00003964947258e+001°)
9.54992586021433e+001	(-2.52394940237715e+001dB,-9.00004057302239e+001°)
9.77237220955808e+001	(-2.50394938843019e+001dB,-9.00004151808407e+001°)
9.99999999999997e+001	(-2.48394937382593e+001dB,-9.00004248515868e+001°)
1.02329299228075e+002	(-2.46394935853340e+001dB,-9.00004347475894e+001°)
1.04712854805090e+002	(-2.44394934252015e+001dB,-9.00004448740950e+001°)
1.07151930523760e+002	(-2.42394932575221e+001dB,-9.00004552364724e+001°)
1.09647819614318e+002	(-2.40394930819403e+001dB,-9.00004658402156e+001°)
1.12201845430196e+002	(-2.38394928980836e+001dB,-9.00004766909462e+001°)
1.14815362149688e+002	(-2.36394927055619e+001dB,-9.00004877944169e+001°)
1.17489755493953e+002	(-2.34394925039670e+001dB,-9.00004991565143e+001°)
1.20226443461741e+002	(-2.32394922928712e+001dB,-9.00005107832623e+001°)
1.23026877081238e+002	(-2.30394920718268e+001dB,-9.00005226808248e+001°)
1.25892541179416e+002	(-2.28394918403649e+001dB,-9.00005348555095e+001°)
1.28824955169313e+002	(-2.26394915979944e+001dB,-9.00005473137707e+001°)
1.31825673855640e+002	(-2.24394913442015e+001dB,-9.00005600622132e+001°)
1.34896288259165e+002	(-2.22394910784476e+001dB,-9.00005731075955e+001°)
1.38038426460288e+002	(-2.20394908001691e+001dB,-9.00005864568337e+001°)
1.41253754462275e+002	(-2.18394905087757e+001dB,-9.00006001170046e+001°)
1.44543977074592e+002	(-2.16394902036494e+001dB,-9.00006140953501e+001°)
1.47910838816820e+002	(-2.14394898841429e+001dB,-9.00006283992806e+001°)
1.51356124843620e+002	(-2.12394895495785e+001dB,-9.00006430363790e+001°)
1.54881661891248e+002	(-2.10394891992466e+001dB,-9.00006580144048e+001°)
1.58489319246111e+002	(-2.08394888324040e+001dB,-9.00006733412982e+001°)
1.62181009735892e+002	(-2.06394884482726e+001dB,-9.00006890251843e+001°)
1.65958690743755e+002	(-2.04394880460377e+001dB,-9.00007050743774e+001°)
1.69824365246174e+002	(-2.02394876248460e+001dB,-9.00007214973852e+001°)
1.73780082874937e+002	(-2.00394871838041e+001dB,-9.00007383029137e+001°)
1.77827941003892e+002	(-1.98394867219765e+001dB,-9.00007554998714e+001°)
1.81970085860998e+002	(-1.96394862383837e+001dB,-9.00007730973744e+001°)
1.86208713666286e+002	(-1.94394857319997e+001dB,-9.00007911047509e+001°)
1.90546071796324e+002	(-1.92394852017507e+001dB,-9.00008095315463e+001°)
1.94984459975804e+002	(-1.90394846465117e+001dB,-9.00008283875281e+001°)
1.99526231496887e+002	(-1.88394840651050e+001dB,-9.00008476826915e+001°)
2.04173794466952e+002	(-1.86394834562975e+001dB,-9.00008674272640e+001°)
2.08929613085403e+002	(-1.84394828187977e+001dB,-9.00008876317113e+001°)
2.13796208950222e+002	(-1.82394821512534e+001dB,-9.00009083067428e+001°)
2.18776162394954e+002	(-1.80394814522487e+001dB,-9.00009294633171e+001°)
2.23872113856833e+002	(-1.78394807203008e+001dB,-9.00009511126478e+001°)
2.29086765276776e+002	(-1.76394799538572e+001dB,-9.00009732662097e+001°)
2.34422881531991e+002	(-1.74394791512921e+001dB,-9.00009959357444e+001°)
2.39883291901948e+002	(-1.72394783109033e+001dB,-9.00010191332670e+001°)
2.45470891568502e+002	(-1.70394774309081e+001dB,-9.00010428710720e+001°)
2.51188643150957e+002	(-1.68394765094398e+001dB,-9.00010671617401e+001°)
2.57039578276885e+002	(-1.66394755445440e+001dB,-9.00010920181448e+001°)
2.63026799189537e+002	(-1.64394745341740e+001dB,-9.00011174534590e+001°)
2.69153480392690e+002	(-1.62394734761865e+001dB,-9.00011434811623e+001°)
2.75422870333816e+002	(-1.60394723683375e+001dB,-9.00011701150477e+001°)
2.81838293126444e+002	(-1.58394712082770e+001dB,-9.00011973692293e+001°)
2.88403150312659e+002	(-1.56394699935443e+001dB,-9.00012252581495e+001°)
2.95120922666637e+002	(-1.54394687215629e+001dB,-9.00012537965865e+001°)
3.01995172040200e+002	(-1.52394673896347e+001dB,-9.00012829996624e+001°)
3.09029543251358e+002	(-1.50394659949344e+001dB,-9.00013128828510e+001°)
3.16227766016837e+002	(-1.48394645345036e+001dB,-9.00013434619860e+001°)
3.23593656929627e+002	(-1.46394630052446e+001dB,-9.00013747532694e+001°)
3.31131121482590e+002	(-1.44394614039135e+001dB,-9.00014067732797e+001°)
3.38844156139201e+002	(-1.42394597271137e+001dB,-9.00014395389812e+001°)
3.46736850452530e+002	(-1.40394579712884e+001dB,-9.00014730677324e+001°)
3.54813389233574e+002	(-1.38394561327131e+001dB,-9.00015073772956e+001°)
3.63078054770100e+002	(-1.36394542074881e+001dB,-9.00015424858458e+001°)
3.71535229097171e+002	(-1.34394521915296e+001dB,-9.00015784119805e+001°)
3.80189396320559e+002	(-1.32394500805613e+001dB,-9.00016151747295e+001°)
3.89045144994279e+002	(-1.30394478701056e+001dB,-9.00016527935649e+001°)
3.98107170553495e+002	(-1.28394455554737e+001dB,-9.00016912884111e+001°)
4.07380277804111e+002	(-1.26394431317559e+001dB,-9.00017306796556e+001°)
4.16869383470333e+002	(-1.24394405938110e+001dB,-9.00017709881595e+001°)
4.26579518801591e+002	(-1.22394379362557e+001dB,-9.00018122352684e+001°)
4.36515832240164e+002	(-1.20394351534527e+001dB,-9.00018544428237e+001°)
4.46683592150961e+002	(-1.18394322394993e+001dB,-9.00018976331740e+001°)
4.57088189614873e+002	(-1.16394291882144e+001dB,-9.00019418291869e+001°)
4.67735141287196e+002	(-1.14394259931257e+001dB,-9.00019870542609e+001°)
4.78630092322636e+002	(-1.12394226474558e+001dB,-9.00020333323374e+001°)
4.89778819368444e+002	(-1.10394191441079e+001dB,-9.00020806879137e+001°)
5.01187233627270e+002	(-1.08394154756508e+001dB,-9.00021291460555e+001°)
5.12861383991362e+002	(-1.06394116343028e+001dB,-9.00021787324099e+001°)
5.24807460249770e+002	(-1.04394076119159e+001dB,-9.00022294732190e+001°)
5.37031796370250e+002	(-1.02394033999576e+001dB,-9.00022813953334e+001°)
5.49540873857622e+002	(-1.00393989894936e+001dB,-9.00023345262264e+001°)
5.62341325190346e+002	(-9.83939437116830e+000dB,-9.00023888940081e+001°)
5.75439937337154e+002	(-9.63938953518535e+000dB,-9.00024445274401e+001°)
5.88843655355586e+002	(-9.43938447128656e+000dB,-9.00025014559503e+001°)
6.02559586074355e+002	(-9.23937916873031e+000dB,-9.00025597096484e+001°)
6.16595001861479e+002	(-9.03937361626870e+000dB,-9.00026193193415e+001°)
6.30957344480190e+002	(-8.83936780212370e+000dB,-9.00026803165497e+001°)
6.45654229034652e+002	(-8.63936171396219e+000dB,-9.00027427335228e+001°)
6.60693448007592e+002	(-8.43935533886973e+000dB,-9.00028066032569e+001°)
6.76082975391978e+002	(-8.23934866332325e+000dB,-9.00028719595112e+001°)
6.91830970918933e+002	(-8.03934167316227e+000dB,-9.00029388368256e+001°)
7.07945784384134e+002	(-7.83933435355893e+000dB,-9.00030072705383e+001°)
7.24435960074986e+002	(-7.63932668898647e+000dB,-9.00030772968044e+001°)
7.41310241300914e+002	(-7.43931866318636e+000dB,-9.00031489526137e+001°)
7.58577575029180e+002	(-7.23931025913374e+000dB,-9.00032222758103e+001°)
7.76247116628688e+002	(-7.03930145900132e+000dB,-9.00032973051119e+001°)
7.94328234724277e+002	(-6.83929224412156e+000dB,-9.00033740801290e+001°)
8.12830516164095e+002	(-6.63928259494707e+000dB,-9.00034526413857e+001°)
8.31763771102666e+002	(-6.43927249100913e+000dB,-9.00035330303401e+001°)
8.51138038202372e+002	(-6.23926191087425e+000dB,-9.00036152894054e+001°)
8.70963589956076e+002	(-6.03925083209871e+000dB,-9.00036994619712e+001°)
8.91250938133741e+002	(-5.83923923118093e+000dB,-9.00037855924256e+001°)
9.12010839355905e+002	(-5.63922708351157e+000dB,-9.00038737261775e+001°)
9.33254300796986e+002	(-5.43921436332139e+000dB,-9.00039639096796e+001°)
9.54992586021431e+002	(-5.23920104362649e+000dB,-9.00040561904515e+001°)
9.77237220955805e+002	(-5.03918709617109e+000dB,-9.00041506171035e+001°)
9.99999999999994e+002	(-4.83917249136758e+000dB,-9.00042472393611e+001°)
1.02329299228075e+003	(-4.63915719823370e+000dB,-9.00043461080893e+001°)
1.04712854805089e+003	(-4.43914118432681e+000dB,-9.00044472753184e+001°)
1.07151930523760e+003	(-4.23912441567506e+000dB,-9.00045507942692e+001°)
1.09647819614318e+003	(-4.03910685670525e+000dB,-9.00046567193793e+001°)
1.12201845430196e+003	(-3.83908847016739e+000dB,-9.00047651063303e+001°)
1.14815362149688e+003	(-3.63906921705561e+000dB,-9.00048760120744e+001°)
1.17489755493952e+003	(-3.43904905652538e+000dB,-9.00049894948624e+001°)
1.20226443461741e+003	(-3.23902794580682e+000dB,-9.00051056142719e+001°)
1.23026877081237e+003	(-3.03900584011395e+000dB,-9.00052244312363e+001°)
1.25892541179416e+003	(-2.83898269254958e+000dB,-9.00053460080737e+001°)
1.28824955169313e+003	(-2.63895845400582e+000dB,-9.00054704085169e+001°)
1.31825673855640e+003	(-2.43893307305980e+000dB,-9.00055976977438e+001°)
1.34896288259165e+003	(-2.23890649586454e+000dB,-9.00057279424078e+001°)
1.38038426460288e+003	(-2.03887866603461e+000dB,-9.00058612106697e+001°)
1.41253754462275e+003	(-1.83884952452650e+000dB,-9.00059975722293e+001°)
1.44543977074592e+003	(-1.63881900951317e+000dB,-9.00061370983577e+001°)
1.47910838816820e+003	(-1.43878705625288e+000dB,-9.00062798619302e+001°)
1.51356124843620e+003	(-1.23875359695170e+000dB,-9.00064259374599e+001°)
1.54881661891247e+003	(-1.03871856061953e+000dB,-9.00065754011311e+001°)
1.58489319246110e+003	(-8.38681872919429e-001dB,-9.00067283308342e+001°)
1.62181009735892e+003	(-6.38643456009735e-001dB,-9.00068848062000e+001°)
1.65958690743755e+003	(-4.38603228378751e-001dB,-9.00070449086353e+001°)
1.69824365246173e+003	(-2.38561104671663e-001dB,-9.00072087213586e+001°)
1.73780082874936e+003	(-3.85169955092496e-002dB,-9.00073763294359e+001°)
1.77827941003891e+003	(1.61529192701932e-001dB,-9.00075478198179e+001°)
1.81970085860997e+003	(3.61577557968365e-001dB,-9.00077232813762e+001°)
1.86208713666286e+003	(5.61628202917741e-001dB,-9.00079028049411e+001°)
1.90546071796323e+003	(7.61681235016966e-001dB,-9.00080864833392e+001°)
1.94984459975803e+003	(9.61736766800508e-001dB,-9.00082744114312e+001°)
1.99526231496887e+003	(1.16179491610944e+000dB,-9.00084666861499e+001°)
2.04173794466952e+003	(1.36185580634186e+000dB,-9.00086634065393e+001°)
2.08929613085403e+003	(1.56191956671509e+000dB,-9.00088646737925e+001°)
2.13796208950222e+003	(1.76198633254033e+000dB,-9.00090705912912e+001°)
2.18776162394954e+003	(1.96205624551015e+000dB,-9.00092812646438e+001°)
2.23872113856832e+003	(2.16212945399973e+000dB,-9.00094968017249e+001°)
2.29086765276776e+003	(2.36220611338225e+000dB,-9.00097173127142e+001°)
2.34422881531991e+003	(2.56228638635922e+000dB,-9.00099429101350e+001°)
2.39883291901947e+003	(2.76237044330636e+000dB,-9.00101737088929e+001°)
2.45470891568501e+003	(2.96245846263596e+000dB,-9.00104098263144e+001°)
2.51188643150956e+003	(3.16255063117626e+000dB,-9.00106513821850e+001°)
2.57039578276885e+003	(3.36264714456882e+000dB,-9.00108984987864e+001°)
2.63026799189536e+003	(3.56274820768472e+000dB,-9.00111513009342e+001°)
2.69153480392690e+003	(3.76285403506039e+000dB,-9.00114099160142e+001°)
2.75422870333815e+003	(3.96296485135410e+000dB,-9.00116744740177e+001°)
2.81838293126443e+003	(4.16308089182410e+000dB,-9.00119451075769e+001°)
2.88403150312659e+003	(4.36320240282926e+000dB,-9.00122219519984e+001°)
2.95120922666636e+003	(4.56332964235362e+000dB,-9.00125051452957e+001°)
3.01995172040199e+003	(4.76346288055561e+000dB,-9.00127948282204e+001°)
3.09029543251357e+003	(4.96360240034332e+000dB,-9.00130911442921e+001°)
3.16227766016836e+003	(5.16374849797718e+000dB,-9.00133942398259e+001°)
3.23593656929626e+003	(5.36390148370098e+000dB,-9.00137042639584e+001°)
3.31131121482589e+003	(5.56406168240299e+000dB,-9.00140213686716e+001°)
3.38844156139200e+003	(5.76422943430833e+000dB,-9.00143457088137e+001°)
3.46736850452529e+003	(5.96440509570422e+000dB,-9.00146774421179e+001°)
3.54813389233573e+003	(6.16458903969969e+000dB,-9.00150167292177e+001°)
3.63078054770099e+003	(6.36478165702127e+000dB,-9.00153637336592e+001°)
3.71535229097170e+003	(6.56498335684651e+000dB,-9.00157186219089e+001°)
3.80189396320558e+003	(6.76519456767709e+000dB,-9.00160815633585e+001°)
3.89045144994278e+003	(6.96541573825347e+000dB,-9.00164527303246e+001°)
3.98107170553494e+003	(7.16564733851288e+000dB,-9.00168322980433e+001°)
4.07380277804110e+003	(7.36588986059304e+000dB,-9.00172204446601e+001°)
4.16869383470332e+003	(7.56614381988353e+000dB,-9.00176173512132e+001°)
4.26579518801589e+003	(7.76640975612723e+000dB,-9.00180232016108e+001°)
4.36515832240162e+003	(7.96668823457420e+000dB,-9.00184381826012e+001°)
4.46683592150960e+003	(8.16697984719059e+000dB,-9.00188624837353e+001°)
4.57088189614871e+003	(8.36728521392511e+000dB,-9.00192962973206e+001°)
4.67735141287194e+003	(8.56760498403592e+000dB,-9.00197398183665e+001°)
4.78630092322634e+003	(8.76793983748091e+000dB,-9.00201932445194e+001°)
4.89778819368442e+003	(8.96829048637420e+000dB,-9.00206567759870e+001°)
5.01187233627268e+003	(9.16865767651246e+000dB,-9.00211306154514e+001°)
5.12861383991361e+003	(9.36904218897398e+000dB,-9.00216149679691e+001°)
5.24807460249768e+003	(9.56944484179437e+000dB,-9.00221100408576e+001°)
5.37031796370248e+003	(9.76986649172242e+000dB,-9.00226160435673e+001°)
