Freq.	V(n002)/-I(R2)
Step Information: 1=1  (Run: 1/11)
1.00000000000000e+001	(1.18928537674186e+002dB,-8.99963449021228e+001°)
1.02329299228075e+001	(1.18728537673466e+002dB,-8.99962597637727e+001°)
1.04712854805090e+001	(1.18528537672712e+002dB,-8.99961726425350e+001°)
1.07151930523761e+001	(1.18328537671922e+002dB,-8.99960834918495e+001°)
1.09647819614319e+001	(1.18128537671096e+002dB,-8.99959922647148e+001°)
1.12201845430196e+001	(1.17928537670230e+002dB,-8.99958989124808e+001°)
1.14815362149688e+001	(1.17728537669324e+002dB,-8.99958033859206e+001°)
1.17489755493953e+001	(1.17528537668374e+002dB,-8.99957056342364e+001°)
1.20226443461741e+001	(1.17328537667381e+002dB,-8.99956056057241e+001°)
1.23026877081238e+001	(1.17128537666340e+002dB,-8.99955032470857e+001°)
1.25892541179417e+001	(1.16928537665250e+002dB,-8.99953985042144e+001°)
1.28824955169313e+001	(1.16728537664109e+002dB,-8.99952913215939e+001°)
1.31825673855641e+001	(1.16528537662914e+002dB,-8.99951816423408e+001°)
1.34896288259165e+001	(1.16328537661663e+002dB,-8.99950694085016e+001°)
1.38038426460288e+001	(1.16128537660353e+002dB,-8.99949545602614e+001°)
1.41253754462275e+001	(1.15928537658981e+002dB,-8.99948370368519e+001°)
1.44543977074593e+001	(1.15728537657544e+002dB,-8.99947167759276e+001°)
1.47910838816821e+001	(1.15528537656040e+002dB,-8.99945937138058e+001°)
1.51356124843621e+001	(1.15328537654465e+002dB,-8.99944677852549e+001°)
1.54881661891248e+001	(1.15128537652815e+002dB,-8.99943389234802e+001°)
1.58489319246111e+001	(1.14928537651088e+002dB,-8.99942070599667e+001°)
1.62181009735893e+001	(1.14728537649280e+002dB,-8.99940721251252e+001°)
1.65958690743756e+001	(1.14528537647386e+002dB,-8.99939340471522e+001°)
1.69824365246174e+001	(1.14328537645403e+002dB,-8.99937927530270e+001°)
1.73780082874937e+001	(1.14128537643326e+002dB,-8.99936481676424e+001°)
1.77827941003892e+001	(1.13928537641152e+002dB,-8.99935002144468e+001°)
1.81970085860998e+001	(1.13728537638875e+002dB,-8.99933488149523e+001°)
1.86208713666287e+001	(1.13528537636491e+002dB,-8.99931938889483e+001°)
1.90546071796325e+001	(1.13328537633995e+002dB,-8.99930353543183e+001°)
1.94984459975804e+001	(1.13128537631380e+002dB,-8.99928731269855e+001°)
1.99526231496888e+001	(1.12928537628643e+002dB,-8.99927071206691e+001°)
2.04173794466953e+001	(1.12728537625777e+002dB,-8.99925372477065e+001°)
2.08929613085404e+001	(1.12528537622775e+002dB,-8.99923634178636e+001°)
2.13796208950223e+001	(1.12328537619632e+002dB,-8.99921855390397e+001°)
2.18776162394955e+001	(1.12128537616341e+002dB,-8.99920035167996e+001°)
2.23872113856834e+001	(1.11928537612895e+002dB,-8.99918172547405e+001°)
2.29086765276777e+001	(1.11728537609287e+002dB,-8.99916266541748e+001°)
2.34422881531992e+001	(1.11528537605508e+002dB,-8.99914316138755e+001°)
2.39883291901949e+001	(1.11328537601551e+002dB,-8.99912320305446e+001°)
2.45470891568503e+001	(1.11128537597408e+002dB,-8.99910277982285e+001°)
2.51188643150958e+001	(1.10928537593070e+002dB,-8.99908188087924e+001°)
2.57039578276886e+001	(1.10728537588527e+002dB,-8.99906049514301e+001°)
2.63026799189538e+001	(1.10528537583770e+002dB,-8.99903861126511e+001°)
2.69153480392691e+001	(1.10328537578789e+002dB,-8.99901621764165e+001°)
2.75422870333816e+001	(1.10128537573573e+002dB,-8.99899330240059e+001°)
2.81838293126445e+001	(1.09928537568111e+002dB,-8.99896985340828e+001°)
2.88403150312660e+001	(1.09728537562392e+002dB,-8.99894585821027e+001°)
2.95120922666638e+001	(1.09528537556403e+002dB,-8.99892130408936e+001°)
3.01995172040201e+001	(1.09328537550132e+002dB,-8.99889617803504e+001°)
3.09029543251359e+001	(1.09128537543566e+002dB,-8.99887046671537e+001°)
3.16227766016838e+001	(1.08928537536690e+002dB,-8.99884415651182e+001°)
3.23593656929628e+001	(1.08728537529490e+002dB,-8.99881723344700e+001°)
3.31131121482591e+001	(1.08528537521951e+002dB,-8.99878968327581e+001°)
3.38844156139202e+001	(1.08328537514056e+002dB,-8.99876149137314e+001°)
3.46736850452531e+001	(1.08128537505790e+002dB,-8.99873264280136e+001°)
3.54813389233575e+001	(1.07928537497133e+002dB,-8.99870312226300e+001°)
3.63078054770101e+001	(1.07728537488069e+002dB,-8.99867291409711e+001°)
3.71535229097172e+001	(1.07528537478578e+002dB,-8.99864200229409e+001°)
3.80189396320561e+001	(1.07328537468639e+002dB,-8.99861037046376e+001°)
3.89045144994280e+001	(1.07128537458232e+002dB,-8.99857800183091e+001°)
3.98107170553497e+001	(1.06928537447334e+002dB,-8.99854487923716e+001°)
4.07380277804112e+001	(1.06728537435923e+002dB,-8.99851098511687e+001°)
4.16869383470335e+001	(1.06528537423974e+002dB,-8.99847630149941e+001°)
4.26579518801592e+001	(1.06328537411462e+002dB,-8.99844080999929e+001°)
4.36515832240165e+001	(1.06128537398360e+002dB,-8.99840449179868e+001°)
4.46683592150962e+001	(1.05928537384641e+002dB,-8.99836732763323e+001°)
4.57088189614874e+001	(1.05728537370275e+002dB,-8.99832929780734e+001°)
4.67735141287197e+001	(1.05528537355232e+002dB,-8.99829038214749e+001°)
4.78630092322638e+001	(1.05328537339480e+002dB,-8.99825056002888e+001°)
4.89778819368445e+001	(1.05128537322986e+002dB,-8.99820981033429e+001°)
5.01187233627271e+001	(1.04928537305715e+002dB,-8.99816811145576e+001°)
5.12861383991364e+001	(1.04728537287629e+002dB,-8.99812544128474e+001°)
5.24807460249772e+001	(1.04528537268691e+002dB,-8.99808177720040e+001°)
5.37031796370252e+001	(1.04328537248861e+002dB,-8.99803709604621e+001°)
5.49540873857624e+001	(1.04128537228096e+002dB,-8.99799137413167e+001°)
5.62341325190348e+001	(1.03928537206353e+002dB,-8.99794458721705e+001°)
5.75439937337156e+001	(1.03728537183584e+002dB,-8.99789671049831e+001°)
5.88843655355588e+001	(1.03528537159743e+002dB,-8.99784771858444e+001°)
6.02559586074357e+001	(1.03328537134778e+002dB,-8.99779758550408e+001°)
6.16595001861481e+001	(1.03128537108637e+002dB,-8.99774628467278e+001°)
6.30957344480192e+001	(1.02928537081263e+002dB,-8.99769378889114e+001°)
6.45654229034654e+001	(1.02728537052599e+002dB,-8.99764007032196e+001°)
6.60693448007595e+001	(1.02528537022585e+002dB,-8.99758510048978e+001°)
6.76082975391980e+001	(1.02328536991156e+002dB,-8.99752885024402e+001°)
6.91830970918935e+001	(1.02128536958246e+002dB,-8.99747128976013e+001°)
7.07945784384136e+001	(1.01928536923785e+002dB,-8.99741238852025e+001°)
7.24435960074988e+001	(1.01728536887699e+002dB,-8.99735211529246e+001°)
7.41310241300916e+001	(1.01528536849913e+002dB,-8.99729043812074e+001°)
7.58577575029182e+001	(1.01328536810347e+002dB,-8.99722732430114e+001°)
7.76247116628690e+001	(1.01128536768915e+002dB,-8.99716274037179e+001°)
7.94328234724279e+001	(1.00928536725531e+002dB,-8.99709665208793e+001°)
8.12830516164097e+001	(1.00728536680102e+002dB,-8.99702902440993e+001°)
8.31763771102669e+001	(1.00528536632533e+002dB,-8.99695982147811e+001°)
8.51138038202374e+001	(1.00328536582721e+002dB,-8.99688900660210e+001°)
8.70963589956078e+001	(1.00128536530562e+002dB,-8.99681654223396e+001°)
8.91250938133743e+001	(9.99285364759446e+001dB,-8.99674238995303e+001°)
9.12010839355907e+001	(9.97285364187532e+001dB,-8.99666651044037e+001°)
9.33254300796988e+001	(9.95285363588665e+001dB,-8.99658886346667e+001°)
9.54992586021433e+001	(9.93285362961574e+001dB,-8.99650940785946e+001°)
9.77237220955808e+001	(9.91285362304930e+001dB,-8.99642810149186e+001°)
9.99999999999997e+001	(9.89285361617338e+001dB,-8.99634490125287e+001°)
1.02329299228075e+002	(9.87285360897342e+001dB,-8.99625976303065e+001°)
1.04712854805090e+002	(9.85285360143413e+001dB,-8.99617264168054e+001°)
1.07151930523760e+002	(9.83285359353953e+001dB,-8.99608349100938e+001°)
1.09647819614318e+002	(9.81285358527286e+001dB,-8.99599226375153e+001°)
1.12201845430196e+002	(9.79285357661660e+001dB,-8.99589891153379e+001°)
1.14815362149688e+002	(9.77285356755238e+001dB,-8.99580338486028e+001°)
1.17489755493953e+002	(9.75285355806098e+001dB,-8.99570563308090e+001°)
1.20226443461741e+002	(9.73285354812226e+001dB,-8.99560560436491e+001°)
1.23026877081238e+002	(9.71285353771515e+001dB,-8.99550324567784e+001°)
1.25892541179416e+002	(9.69285352681756e+001dB,-8.99539850274552e+001°)
1.28824955169313e+002	(9.67285351540639e+001dB,-8.99529132003282e+001°)
1.31825673855640e+002	(9.65285350345742e+001dB,-8.99518164070776e+001°)
1.34896288259165e+002	(9.63285349094532e+001dB,-8.99506940661938e+001°)
1.38038426460288e+002	(9.61285347784354e+001dB,-8.99495455825577e+001°)
1.41253754462275e+002	(9.59285346412430e+001dB,-8.99483703472316e+001°)
1.44543977074592e+002	(9.57285344975848e+001dB,-8.99471677370940e+001°)
1.47910838816820e+002	(9.55285343471563e+001dB,-8.99459371145045e+001°)
1.51356124843620e+002	(9.53285341896383e+001dB,-8.99446778269449e+001°)
1.54881661891248e+002	(9.51285340246966e+001dB,-8.99433892067211e+001°)
1.58489319246111e+002	(9.49285338519816e+001dB,-8.99420705705897e+001°)
1.62181009735892e+002	(9.47285336711267e+001dB,-8.99407212193732e+001°)
1.65958690743755e+002	(9.45285334817484e+001dB,-8.99393404376406e+001°)
1.69824365246174e+002	(9.43285332834451e+001dB,-8.99379274932420e+001°)
1.73780082874937e+002	(9.41285330757959e+001dB,-8.99364816370294e+001°)
1.77827941003892e+002	(9.39285328583606e+001dB,-8.99350021023633e+001°)
1.81970085860998e+002	(9.37285326306778e+001dB,-8.99334881047769e+001°)
1.86208713666286e+002	(9.35285323922647e+001dB,-8.99319388415099e+001°)
1.90546071796324e+002	(9.33285321426156e+001dB,-8.99303534911162e+001°)
1.94984459975804e+002	(9.31285318812009e+001dB,-8.99287312129736e+001°)
1.99526231496887e+002	(9.29285316074660e+001dB,-8.99270711469564e+001°)
2.04173794466952e+002	(9.27285313208305e+001dB,-8.99253724128417e+001°)
2.08929613085403e+002	(9.25285310206863e+001dB,-8.99236341099039e+001°)
2.13796208950222e+002	(9.23285307063967e+001dB,-8.99218553164819e+001°)
2.18776162394954e+002	(9.21285303772951e+001dB,-8.99200350893949e+001°)
2.23872113856833e+002	(9.19285300326835e+001dB,-8.99181724634998e+001°)
2.29086765276776e+002	(9.17285296718309e+001dB,-8.99162664512203e+001°)
2.34422881531991e+002	(9.15285292939718e+001dB,-8.99143160419052e+001°)
2.39883291901948e+002	(9.13285288983048e+001dB,-8.99123202014164e+001°)
2.45470891568502e+002	(9.11285284839906e+001dB,-8.99102778714891e+001°)
2.51188643150957e+002	(9.09285280501504e+001dB,-8.99081879692202e+001°)
2.57039578276885e+002	(9.07285275958640e+001dB,-8.99060493864927e+001°)
2.63026799189537e+002	(9.05285271201678e+001dB,-8.99038609893527e+001°)
2.69153480392690e+002	(9.03285266220527e+001dB,-8.99016216174598e+001°)
2.75422870333816e+002	(9.01285261004623e+001dB,-8.98993300834075e+001°)
2.81838293126444e+002	(8.99285255542901e+001dB,-8.98969851721681e+001°)
2.88403150312659e+002	(8.97285249823777e+001dB,-8.98945856403785e+001°)
2.95120922666637e+002	(8.95285243835119e+001dB,-8.98921302157255e+001°)
3.01995172040200e+002	(8.93285237564225e+001dB,-8.98896175962549e+001°)
3.09029543251358e+002	(8.91285230997794e+001dB,-8.98870464496893e+001°)
3.16227766016837e+002	(8.89285224121897e+001dB,-8.98844154127039e+001°)
3.23593656929627e+002	(8.87285216921950e+001dB,-8.98817230902213e+001°)
3.31131121482590e+002	(8.85285209382681e+001dB,-8.98789680546597e+001°)
3.38844156139201e+002	(8.83285201488099e+001dB,-8.98761488451891e+001°)
3.46736850452530e+002	(8.81285193221457e+001dB,-8.98732639669433e+001°)
3.54813389233574e+002	(8.79285184565222e+001dB,-8.98703118902375e+001°)
3.63078054770100e+002	(8.77285175501032e+001dB,-8.98672910497317e+001°)
3.71535229097171e+002	(8.75285166009662e+001dB,-8.98641998436479e+001°)
3.80189396320559e+002	(8.73285156070979e+001dB,-8.98610366328680e+001°)
3.89045144994279e+002	(8.71285145663903e+001dB,-8.98577997400971e+001°)
3.98107170553495e+002	(8.69285134766358e+001dB,-8.98544874489702e+001°)
4.07380277804111e+002	(8.67285123355229e+001dB,-8.98510980031299e+001°)
4.16869383470333e+002	(8.65285111406314e+001dB,-8.98476296052937e+001°)
4.26579518801591e+002	(8.63285098894266e+001dB,-8.98440804163321e+001°)
4.36515832240164e+002	(8.61285085792546e+001dB,-8.98404485542377e+001°)
4.46683592150961e+002	(8.59285072073364e+001dB,-8.98367320931722e+001°)
4.57088189614873e+002	(8.57285057707621e+001dB,-8.98329290624306e+001°)
4.67735141287196e+002	(8.55285042664846e+001dB,-8.98290374453883e+001°)
4.78630092322636e+002	(8.53285026913130e+001dB,-8.98250551784378e+001°)
4.89778819368444e+002	(8.51285010419064e+001dB,-8.98209801498964e+001°)
5.01187233627270e+002	(8.49284993147661e+001dB,-8.98168101988705e+001°)
5.12861383991362e+002	(8.47284975062288e+001dB,-8.98125431141294e+001°)
5.24807460249770e+002	(8.45284956124584e+001dB,-8.98081766329159e+001°)
5.37031796370250e+002	(8.43284936294380e+001dB,-8.98037084397591e+001°)
5.49540873857622e+002	(8.41284915529615e+001dB,-8.97991361652229e+001°)
5.62341325190346e+002	(8.39284893786244e+001dB,-8.97944573846750e+001°)
5.75439937337154e+002	(8.37284871018150e+001dB,-8.97896696169811e+001°)
5.88843655355586e+002	(8.35284847177038e+001dB,-8.97847703231911e+001°)
6.02559586074355e+002	(8.33284822212340e+001dB,-8.97797569051977e+001°)
6.16595001861479e+002	(8.31284796071103e+001dB,-8.97746267043471e+001°)
6.30957344480190e+002	(8.29284768697881e+001dB,-8.97693770000366e+001°)
6.45654229034652e+002	(8.27284740034613e+001dB,-8.97640050082620e+001°)
6.60693448007592e+002	(8.25284710020503e+001dB,-8.97585078801415e+001°)
6.76082975391978e+002	(8.23284678591888e+001dB,-8.97528827004103e+001°)
6.91830970918933e+002	(8.21284645682107e+001dB,-8.97471264858552e+001°)
7.07945784384134e+002	(8.19284611221357e+001dB,-8.97412361837391e+001°)
7.24435960074986e+002	(8.17284575136543e+001dB,-8.97352086701857e+001°)
7.41310241300914e+002	(8.15284537351130e+001dB,-8.97290407485116e+001°)
7.58577575029180e+002	(8.13284497784973e+001dB,-8.97227291475256e+001°)
7.76247116628688e+002	(8.11284456354149e+001dB,-8.97162705197940e+001°)
7.94328234724277e+002	(8.09284412970783e+001dB,-8.97096614398555e+001°)
8.12830516164095e+002	(8.07284367542859e+001dB,-8.97028984024164e+001°)
8.31763771102666e+002	(8.05284319974021e+001dB,-8.96959778204686e+001°)
8.51138038202372e+002	(8.03284270163376e+001dB,-8.96888960233879e+001°)
8.70963589956076e+002	(8.01284218005275e+001dB,-8.96816492549883e+001°)
8.91250938133741e+002	(7.99284163389090e+001dB,-8.96742336715102e+001°)
9.12010839355905e+002	(7.97284106198980e+001dB,-8.96666453395938e+001°)
9.33254300796986e+002	(7.95284046313646e+001dB,-8.96588802341762e+001°)
9.54992586021431e+002	(7.93283983606071e+001dB,-8.96509342363389e+001°)
9.77237220955805e+002	(7.91283917943253e+001dB,-8.96428031311422e+001°)
9.99999999999994e+002	(7.89283849185925e+001dB,-8.96344826053533e+001°)
1.02329299228075e+003	(7.87283777188253e+001dB,-8.96259682451712e+001°)
1.04712854805089e+003	(7.85283701797534e+001dB,-8.96172555338626e+001°)
1.07151930523760e+003	(7.83283622853867e+001dB,-8.96083398493625e+001°)
1.09647819614318e+003	(7.81283540189820e+001dB,-8.95992164618110e+001°)
1.12201845430196e+003	(7.79283453630065e+001dB,-8.95898805310307e+001°)
1.14815362149688e+003	(7.77283362991017e+001dB,-8.95803271039457e+001°)
1.17489755493952e+003	(7.75283268080439e+001dB,-8.95705511119502e+001°)
1.20226443461741e+003	(7.73283168697034e+001dB,-8.95605473681926e+001°)
1.23026877081237e+003	(7.71283064630021e+001dB,-8.95503105648152e+001°)
1.25892541179416e+003	(7.69282955658688e+001dB,-8.95398352701247e+001°)
1.28824955169313e+003	(7.67282841551919e+001dB,-8.95291159256866e+001°)
1.31825673855640e+003	(7.65282722067711e+001dB,-8.95181468433658e+001°)
1.34896288259165e+003	(7.63282596952658e+001dB,-8.95069222022771e+001°)
1.38038426460288e+003	(7.61282465941411e+001dB,-8.94954360456882e+001°)
1.41253754462275e+003	(7.59282328756121e+001dB,-8.94836822778244e+001°)
1.44543977074592e+003	(7.57282185105845e+001dB,-8.94716546606228e+001°)
1.47910838816820e+003	(7.55282034685933e+001dB,-8.94593468103791e+001°)
1.51356124843620e+003	(7.53281877177378e+001dB,-8.94467521943492e+001°)
1.54881661891247e+003	(7.51281712246146e+001dB,-8.94338641272379e+001°)
1.58489319246110e+003	(7.49281539542462e+001dB,-8.94206757676277e+001°)
1.62181009735892e+003	(7.47281358700071e+001dB,-8.94071801143105e+001°)
1.65958690743755e+003	(7.45281169335463e+001dB,-8.93933700025324e+001°)
1.69824365246173e+003	(7.43280971047058e+001dB,-8.93792381001550e+001°)
1.73780082874936e+003	(7.41280763414356e+001dB,-8.93647769037169e+001°)
1.77827941003891e+003	(7.39280545997046e+001dB,-8.93499787344090e+001°)
1.81970085860997e+003	(7.37280318334072e+001dB,-8.93348357339445e+001°)
1.86208713666286e+003	(7.35280079942659e+001dB,-8.93193398603377e+001°)
1.90546071796323e+003	(7.33279830317287e+001dB,-8.93034828835788e+001°)
1.94984459975803e+003	(7.31279568928617e+001dB,-8.92872563812029e+001°)
1.99526231496887e+003	(7.29279295222379e+001dB,-8.92706517337488e+001°)
2.04173794466952e+003	(7.27279008618189e+001dB,-8.92536601201208e+001°)
2.08929613085403e+003	(7.25278708508321e+001dB,-8.92362725128260e+001°)
2.13796208950222e+003	(7.23278394256425e+001dB,-8.92184796730963e+001°)
2.18776162394954e+003	(7.21278065196172e+001dB,-8.92002721459039e+001°)
2.23872113856832e+003	(7.19277720629847e+001dB,-8.91816402548434e+001°)
2.29086765276776e+003	(7.17277359826871e+001dB,-8.91625740968917e+001°)
2.34422881531991e+003	(7.15276982022251e+001dB,-8.91430635370461e+001°)
2.39883291901947e+003	(7.13276586414964e+001dB,-8.91230982028257e+001°)
2.45470891568501e+003	(7.11276172166258e+001dB,-8.91026674786386e+001°)
2.51188643150956e+003	(7.09275738397878e+001dB,-8.90817605000109e+001°)
2.57039578276885e+003	(7.07275284190205e+001dB,-8.90603661476757e+001°)
2.63026799189536e+003	(7.05274808580311e+001dB,-8.90384730415124e+001°)
2.69153480392690e+003	(7.03274310559919e+001dB,-8.90160695343430e+001°)
2.75422870333815e+003	(7.01273789073270e+001dB,-8.89931437055630e+001°)
2.81838293126443e+003	(6.99273243014889e+001dB,-8.89696833546250e+001°)
2.88403150312659e+003	(6.97272671227247e+001dB,-8.89456759943539e+001°)
2.95120922666636e+003	(6.95272072498309e+001dB,-8.89211088440940e+001°)
3.01995172040199e+003	(6.93271445558972e+001dB,-8.88959688226895e+001°)
3.09029543251357e+003	(6.91270789080379e+001dB,-8.88702425412801e+001°)
3.16227766016836e+003	(6.89270101671111e+001dB,-8.88439162959225e+001°)
3.23593656929626e+003	(6.87269381874244e+001dB,-8.88169760600178e+001°)
3.31131121482589e+003	(6.85268628164265e+001dB,-8.87894074765506e+001°)
3.38844156139200e+003	(6.83267838943852e+001dB,-8.87611958501282e+001°)
3.46736850452529e+003	(6.81267012540495e+001dB,-8.87323261388156e+001°)
3.54813389233573e+003	(6.79266147202961e+001dB,-8.87027829457581e+001°)
3.63078054770099e+003	(6.77265241097598e+001dB,-8.86725505105895e+001°)
3.71535229097170e+003	(6.75264292304455e+001dB,-8.86416127006179e+001°)
3.80189396320558e+003	(6.73263298813229e+001dB,-8.86099530017758e+001°)
3.89045144994278e+003	(6.71262258519024e+001dB,-8.85775545093394e+001°)
3.98107170553494e+003	(6.69261169217901e+001dB,-8.85443999183967e+001°)
4.07380277804110e+003	(6.67260028602228e+001dB,-8.85104715140688e+001°)
4.16869383470332e+003	(6.65258834255813e+001dB,-8.84757511614649e+001°)
4.26579518801589e+003	(6.63257583648800e+001dB,-8.84402202953734e+001°)
4.36515832240162e+003	(6.61256274132340e+001dB,-8.84038599096688e+001°)
4.46683592150960e+003	(6.59254902933000e+001dB,-8.83666505464386e+001°)
4.57088189614871e+003	(6.57253467146919e+001dB,-8.83285722848050e+001°)
4.67735141287194e+003	(6.55251963733686e+001dB,-8.82896047294477e+001°)
4.78630092322634e+003	(6.53250389509937e+001dB,-8.82497269988046e+001°)
4.89778819368442e+003	(6.51248741142647e+001dB,-8.82089177129449e+001°)
5.01187233627268e+003	(6.49247015142117e+001dB,-8.81671549811022e+001°)
5.12861383991361e+003	(6.47245207854622e+001dB,-8.81244163888574e+001°)
5.24807460249768e+003	(6.45243315454734e+001dB,-8.80806789849546e+001°)
5.37031796370248e+003	(6.43241333937266e+001dB,-8.80359192677417e+001°)
5.49540873857620e+003	(6.41239259108859e+001dB,-8.79901131712155e+001°)
5.62341325190344e+003	(6.39237086579170e+001dB,-8.79432360506668e+001°)
5.75439937337152e+003	(6.37234811751647e+001dB,-8.78952626678956e+001°)
