Freq.	V(n002)/-I(C1)
Step Information: 1=1  (Run: 1/11)
1.00000000000000e+001	(1.18928537657073e+002dB,-8.99999954724449e+001°)
1.01157945425990e+001	(1.18828537656318e+002dB,-8.99999954200184e+001°)
1.02329299228075e+001	(1.18728537655546e+002dB,-8.99999953669847e+001°)
1.03514216667934e+001	(1.18628537654756e+002dB,-8.99999953133369e+001°)
1.04712854805090e+001	(1.18528537653948e+002dB,-8.99999952590680e+001°)
1.05925372517729e+001	(1.18428537653121e+002dB,-8.99999952041706e+001°)
1.07151930523761e+001	(1.18328537652274e+002dB,-8.99999951486375e+001°)
1.08392691402120e+001	(1.18228537651408e+002dB,-8.99999950924614e+001°)
1.09647819614319e+001	(1.18128537650522e+002dB,-8.99999950356349e+001°)
1.10917481526240e+001	(1.18028537649615e+002dB,-8.99999949781503e+001°)
1.12201845430196e+001	(1.17928537648686e+002dB,-8.99999949200000e+001°)
1.13501081567232e+001	(1.17828537647737e+002dB,-8.99999948611764e+001°)
1.14815362149688e+001	(1.17728537646765e+002dB,-8.99999948016717e+001°)
1.16144861384034e+001	(1.17628537645770e+002dB,-8.99999947414780e+001°)
1.17489755493953e+001	(1.17528537644752e+002dB,-8.99999946805872e+001°)
1.18850222743702e+001	(1.17428537643711e+002dB,-8.99999946189914e+001°)
1.20226443461741e+001	(1.17328537642645e+002dB,-8.99999945566823e+001°)
1.21618600064637e+001	(1.17228537641555e+002dB,-8.99999944936517e+001°)
1.23026877081238e+001	(1.17128537640439e+002dB,-8.99999944298912e+001°)
1.24451461177139e+001	(1.17028537639297e+002dB,-8.99999943653924e+001°)
1.25892541179417e+001	(1.16928537638128e+002dB,-8.99999943001468e+001°)
1.27350308101666e+001	(1.16828537636932e+002dB,-8.99999942341457e+001°)
1.28824955169314e+001	(1.16728537635709e+002dB,-8.99999941673803e+001°)
1.30316677845230e+001	(1.16628537634457e+002dB,-8.99999940998418e+001°)
1.31825673855641e+001	(1.16528537633176e+002dB,-8.99999940315213e+001°)
1.33352143216333e+001	(1.16428537631864e+002dB,-8.99999939624096e+001°)
1.34896288259166e+001	(1.16328537630523e+002dB,-8.99999938924977e+001°)
1.36458313658893e+001	(1.16228537629150e+002dB,-8.99999938217762e+001°)
1.38038426460289e+001	(1.16128537627745e+002dB,-8.99999937502358e+001°)
1.39636836105594e+001	(1.16028537626307e+002dB,-8.99999936778671e+001°)
1.41253754462276e+001	(1.15928537624836e+002dB,-8.99999936046603e+001°)
1.42889395851111e+001	(1.15828537623331e+002dB,-8.99999935306058e+001°)
1.44543977074593e+001	(1.15728537621791e+002dB,-8.99999934556939e+001°)
1.46217717445672e+001	(1.15628537620214e+002dB,-8.99999933799145e+001°)
1.47910838816821e+001	(1.15528537618601e+002dB,-8.99999933032576e+001°)
1.49623565609444e+001	(1.15428537616951e+002dB,-8.99999932257131e+001°)
1.51356124843621e+001	(1.15328537615262e+002dB,-8.99999931472706e+001°)
1.53108746168203e+001	(1.15228537613533e+002dB,-8.99999930679199e+001°)
1.54881661891249e+001	(1.15128537611765e+002dB,-8.99999929876503e+001°)
1.56675107010815e+001	(1.15028537609955e+002dB,-8.99999929064512e+001°)
1.58489319246112e+001	(1.14928537608103e+002dB,-8.99999928243119e+001°)
1.60324539069005e+001	(1.14828537606208e+002dB,-8.99999927412215e+001°)
1.62181009735893e+001	(1.14728537604268e+002dB,-8.99999926571689e+001°)
1.64058977319954e+001	(1.14628537602284e+002dB,-8.99999925721430e+001°)
1.65958690743757e+001	(1.14528537600253e+002dB,-8.99999924861327e+001°)
1.67880401812257e+001	(1.14428537598175e+002dB,-8.99999923991263e+001°)
1.69824365246175e+001	(1.14328537596049e+002dB,-8.99999923111125e+001°)
1.71790838715759e+001	(1.14228537593873e+002dB,-8.99999922220795e+001°)
1.73780082874938e+001	(1.14128537591647e+002dB,-8.99999921320156e+001°)
1.75792361395870e+001	(1.14028537589368e+002dB,-8.99999920409088e+001°)
1.77827941003893e+001	(1.13928537587037e+002dB,-8.99999919487470e+001°)
1.79887091512879e+001	(1.13828537584651e+002dB,-8.99999918555181e+001°)
1.81970085860999e+001	(1.13728537582209e+002dB,-8.99999917612096e+001°)
1.84077200146896e+001	(1.13628537579711e+002dB,-8.99999916658091e+001°)
1.86208713666287e+001	(1.13528537577155e+002dB,-8.99999915693039e+001°)
1.88364908948981e+001	(1.13428537574539e+002dB,-8.99999914716812e+001°)
1.90546071796325e+001	(1.13328537571862e+002dB,-8.99999913729281e+001°)
1.92752491319094e+001	(1.13228537569122e+002dB,-8.99999912730316e+001°)
1.94984459975805e+001	(1.13128537566319e+002dB,-8.99999911719783e+001°)
1.97242273611486e+001	(1.13028537563451e+002dB,-8.99999910697548e+001°)
1.99526231496889e+001	(1.12928537560516e+002dB,-8.99999909663477e+001°)
2.01836636368157e+001	(1.12828537557512e+002dB,-8.99999908617431e+001°)
2.04173794466954e+001	(1.12728537554439e+002dB,-8.99999907559274e+001°)
2.06538015581054e+001	(1.12628537551294e+002dB,-8.99999906488863e+001°)
2.08929613085405e+001	(1.12528537548075e+002dB,-8.99999905406058e+001°)
2.11348903983666e+001	(1.12428537544782e+002dB,-8.99999904310714e+001°)
2.13796208950224e+001	(1.12328537541412e+002dB,-8.99999903202688e+001°)
2.16271852372703e+001	(1.12228537537963e+002dB,-8.99999902081831e+001°)
2.18776162394956e+001	(1.12128537534434e+002dB,-8.99999900947995e+001°)
2.21309470960565e+001	(1.12028537530823e+002dB,-8.99999899801030e+001°)
2.23872113856835e+001	(1.11928537527128e+002dB,-8.99999898640784e+001°)
2.26464430759307e+001	(1.11828537523347e+002dB,-8.99999897467103e+001°)
2.29086765276778e+001	(1.11728537519478e+002dB,-8.99999896279831e+001°)
2.31739464996849e+001	(1.11628537515518e+002dB,-8.99999895078812e+001°)
2.34422881531993e+001	(1.11528537511466e+002dB,-8.99999893863885e+001°)
2.37137370566167e+001	(1.11428537507320e+002dB,-8.99999892634891e+001°)
2.39883291901950e+001	(1.11328537503078e+002dB,-8.99999891391666e+001°)
2.42661009508243e+001	(1.11228537498736e+002dB,-8.99999890134045e+001°)
2.45470891568504e+001	(1.11128537494294e+002dB,-8.99999888861861e+001°)
2.48313310529558e+001	(1.11028537489747e+002dB,-8.99999887574947e+001°)
2.51188643150959e+001	(1.10928537485095e+002dB,-8.99999886273131e+001°)
2.54097270554932e+001	(1.10828537480335e+002dB,-8.99999884956241e+001°)
2.57039578276888e+001	(1.10728537475464e+002dB,-8.99999883624102e+001°)
2.60015956316529e+001	(1.10628537470479e+002dB,-8.99999882276537e+001°)
2.63026799189540e+001	(1.10528537465378e+002dB,-8.99999880913369e+001°)
2.66072505979882e+001	(1.10428537460159e+002dB,-8.99999879534416e+001°)
2.69153480392693e+001	(1.10328537454818e+002dB,-8.99999878139497e+001°)
2.72270130807793e+001	(1.10228537449352e+002dB,-8.99999876728424e+001°)
2.75422870333818e+001	(1.10128537443759e+002dB,-8.99999875301013e+001°)
2.78612116862979e+001	(1.10028537438036e+002dB,-8.99999873857073e+001°)
2.81838293126447e+001	(1.09928537432180e+002dB,-8.99999872396413e+001°)
2.85101826750393e+001	(1.09828537426187e+002dB,-8.99999870918840e+001°)
2.88403150312662e+001	(1.09728537420054e+002dB,-8.99999869424158e+001°)
2.91742701400118e+001	(1.09628537413779e+002dB,-8.99999867912168e+001°)
2.95120922666640e+001	(1.09528537407357e+002dB,-8.99999866382671e+001°)
2.98538261891798e+001	(1.09428537400786e+002dB,-8.99999864835463e+001°)
3.01995172040203e+001	(1.09328537394062e+002dB,-8.99999863270339e+001°)
3.05492111321553e+001	(1.09228537387181e+002dB,-8.99999861687093e+001°)
3.09029543251361e+001	(1.09128537380140e+002dB,-8.99999860085513e+001°)
3.12607936712397e+001	(1.09028537372935e+002dB,-8.99999858465389e+001°)
3.16227766016840e+001	(1.08928537365562e+002dB,-8.99999856826505e+001°)
3.19889510969142e+001	(1.08828537358018e+002dB,-8.99999855168644e+001°)
3.23593656929630e+001	(1.08728537350297e+002dB,-8.99999853491586e+001°)
3.27340694878840e+001	(1.08628537342397e+002dB,-8.99999851795108e+001°)
3.31131121482593e+001	(1.08528537334313e+002dB,-8.99999850078987e+001°)
3.34965439157830e+001	(1.08428537326040e+002dB,-8.99999848342995e+001°)
3.38844156139205e+001	(1.08328537317575e+002dB,-8.99999846586901e+001°)
3.42767786546453e+001	(1.08228537308913e+002dB,-8.99999844810473e+001°)
3.46736850452534e+001	(1.08128537300049e+002dB,-8.99999843013475e+001°)
3.50751873952570e+001	(1.08028537290978e+002dB,-8.99999841195669e+001°)
3.54813389233578e+001	(1.07928537281696e+002dB,-8.99999839356815e+001°)
3.58921934645008e+001	(1.07828537272198e+002dB,-8.99999837496668e+001°)
3.63078054770104e+001	(1.07728537262479e+002dB,-8.99999835614982e+001°)
3.67282300498087e+001	(1.07628537252533e+002dB,-8.99999833711508e+001°)
3.71535229097175e+001	(1.07528537242356e+002dB,-8.99999831785993e+001°)
3.75837404288447e+001	(1.07428537231941e+002dB,-8.99999829838182e+001°)
3.80189396320564e+001	(1.07328537221284e+002dB,-8.99999827867817e+001°)
3.84591782045356e+001	(1.07228537210379e+002dB,-8.99999825874637e+001°)
3.89045144994284e+001	(1.07128537199220e+002dB,-8.99999823858378e+001°)
3.93550075455780e+001	(1.07028537187800e+002dB,-8.99999821818772e+001°)
3.98107170553500e+001	(1.06928537176115e+002dB,-8.99999819755549e+001°)
4.02717034325462e+001	(1.06828537164158e+002dB,-8.99999817668436e+001°)
4.07380277804116e+001	(1.06728537151922e+002dB,-8.99999815557156e+001°)
4.12097519097333e+001	(1.06628537139401e+002dB,-8.99999813421429e+001°)
4.16869383470339e+001	(1.06528537126588e+002dB,-8.99999811260972e+001°)
4.21696503428586e+001	(1.06428537113477e+002dB,-8.99999809075499e+001°)
4.26579518801596e+001	(1.06328537100061e+002dB,-8.99999806864721e+001°)
4.31519076827769e+001	(1.06228537086332e+002dB,-8.99999804628343e+001°)
4.36515832240170e+001	(1.06128537072283e+002dB,-8.99999802366070e+001°)
4.41570447353316e+001	(1.06028537057907e+002dB,-8.99999800077603e+001°)
4.46683592150967e+001	(1.05928537043196e+002dB,-8.99999797762637e+001°)
4.51855944374926e+001	(1.05828537028143e+002dB,-8.99999795420865e+001°)
4.57088189614879e+001	(1.05728537012739e+002dB,-8.99999793051979e+001°)
4.62381021399264e+001	(1.05628536996976e+002dB,-8.99999790655663e+001°)
4.67735141287202e+001	(1.05528536980846e+002dB,-8.99999788231600e+001°)
4.73151258961485e+001	(1.05428536964340e+002dB,-8.99999785779468e+001°)
4.78630092322643e+001	(1.05328536947449e+002dB,-8.99999783298943e+001°)
4.84172367584104e+001	(1.05228536930166e+002dB,-8.99999780789697e+001°)
4.89778819368451e+001	(1.05128536912479e+002dB,-8.99999778251396e+001°)
4.95450190804795e+001	(1.05028536894381e+002dB,-8.99999775683704e+001°)
5.01187233627277e+001	(1.04928536875861e+002dB,-8.99999773086280e+001°)
5.06990708274709e+001	(1.04828536856910e+002dB,-8.99999770458782e+001°)
5.12861383991370e+001	(1.04728536837518e+002dB,-8.99999767800859e+001°)
5.18800038928966e+001	(1.04628536817673e+002dB,-8.99999765112161e+001°)
5.24807460249778e+001	(1.04528536797367e+002dB,-8.99999762392330e+001°)
5.30884444230993e+001	(1.04428536776587e+002dB,-8.99999759641007e+001°)
5.37031796370258e+001	(1.04328536755323e+002dB,-8.99999756857827e+001°)
5.43250331492439e+001	(1.04228536733564e+002dB,-8.99999754042420e+001°)
5.49540873857630e+001	(1.04128536711299e+002dB,-8.99999751194414e+001°)
5.55904257270409e+001	(1.04028536688514e+002dB,-8.99999748313432e+001°)
5.62341325190355e+001	(1.03928536665199e+002dB,-8.99999745399091e+001°)
5.68852930843847e+001	(1.03828536641341e+002dB,-8.99999742451005e+001°)
5.75439937337163e+001	(1.03728536616927e+002dB,-8.99999739468785e+001°)
5.82103217770877e+001	(1.03628536591945e+002dB,-8.99999736452034e+001°)
5.88843655355595e+001	(1.03528536566380e+002dB,-8.99999733400352e+001°)
5.95662143529017e+001	(1.03428536540220e+002dB,-8.99999730313336e+001°)
6.02559586074364e+001	(1.03328536513451e+002dB,-8.99999727190575e+001°)
6.09536897240175e+001	(1.03228536486058e+002dB,-8.99999724031658e+001°)
6.16595001861489e+001	(1.03128536458027e+002dB,-8.99999720836164e+001°)
6.23734835482426e+001	(1.03028536429343e+002dB,-8.99999717603670e+001°)
6.30957344480200e+001	(1.02928536399991e+002dB,-8.99999714333749e+001°)
6.38263486190555e+001	(1.02828536369956e+002dB,-8.99999711025966e+001°)
6.45654229034662e+001	(1.02728536339220e+002dB,-8.99999707679883e+001°)
6.53130552647479e+001	(1.02628536307769e+002dB,-8.99999704295058e+001°)
6.60693448007603e+001	(1.02528536275585e+002dB,-8.99999700871040e+001°)
6.68343917568622e+001	(1.02428536242652e+002dB,-8.99999697407378e+001°)
6.76082975391989e+001	(1.02328536208951e+002dB,-8.99999693903611e+001°)
6.83911647281437e+001	(1.02228536174466e+002dB,-8.99999690359276e+001°)
6.91830970918944e+001	(1.02128536139177e+002dB,-8.99999686773903e+001°)
6.99841996002281e+001	(1.02028536103066e+002dB,-8.99999683147016e+001°)
7.07945784384146e+001	(1.01928536066114e+002dB,-8.99999679478136e+001°)
7.16143410212910e+001	(1.01828536028302e+002dB,-8.99999675766776e+001°)
7.24435960074998e+001	(1.01728535989608e+002dB,-8.99999672012444e+001°)
7.32824533138912e+001	(1.01628535950014e+002dB,-8.99999668214642e+001°)
7.41310241300926e+001	(1.01528535909497e+002dB,-8.99999664372869e+001°)
7.49894209332465e+001	(1.01428535868036e+002dB,-8.99999660486614e+001°)
7.58577575029193e+001	(1.01328535825609e+002dB,-8.99999656555362e+001°)
7.67361489361828e+001	(1.01228535782195e+002dB,-8.99999652578593e+001°)
7.76247116628701e+001	(1.01128535737769e+002dB,-8.99999648555781e+001°)
7.85235634610081e+001	(1.01028535692308e+002dB,-8.99999644486390e+001°)
7.94328234724291e+001	(1.00928535645788e+002dB,-8.99999640369884e+001°)
8.03526122185627e+001	(1.00828535598185e+002dB,-8.99999636205716e+001°)
8.12830516164109e+001	(1.00728535549473e+002dB,-8.99999631993335e+001°)
8.22242649947081e+001	(1.00628535499626e+002dB,-8.99999627732182e+001°)
8.31763771102681e+001	(1.00528535448618e+002dB,-8.99999623421693e+001°)
8.41395141645205e+001	(1.00428535396422e+002dB,-8.99999619061296e+001°)
8.51138038202387e+001	(1.00328535343010e+002dB,-8.99999614650415e+001°)
8.60993752184611e+001	(1.00228535288354e+002dB,-8.99999610188465e+001°)
8.70963589956091e+001	(1.00128535232425e+002dB,-8.99999605674854e+001°)
8.81048873008025e+001	(1.00028535175193e+002dB,-8.99999601108985e+001°)
8.91250938133757e+001	(9.99285351166286e+001dB,-8.99999596490253e+001°)
9.01571137605968e+001	(9.98285350566995e+001dB,-8.99999591818046e+001°)
9.12010839355921e+001	(9.97285349953746e+001dB,-8.99999587091744e+001°)
9.22571427154775e+001	(9.96285349326212e+001dB,-8.99999582310723e+001°)
9.33254300797003e+001	(9.95285348684061e+001dB,-8.99999577474348e+001°)
9.44060876285936e+001	(9.94285348026952e+001dB,-8.99999572581978e+001°)
9.54992586021448e+001	(9.93285347354538e+001dB,-8.99999567632967e+001°)
9.66050878989826e+001	(9.92285346666460e+001dB,-8.99999562626657e+001°)
9.77237220955824e+001	(9.91285345962356e+001dB,-8.99999557562387e+001°)
9.88553094656952e+001	(9.90285345241850e+001dB,-8.99999552439485e+001°)
1.00000000000001e+002	(9.89285344504562e+001dB,-8.99999547257272e+001°)
1.01157945425991e+002	(9.88285343750100e+001dB,-8.99999542015063e+001°)
1.02329299228077e+002	(9.87285342978065e+001dB,-8.99999536712162e+001°)
1.03514216667936e+002	(9.86285342188047e+001dB,-8.99999531347867e+001°)
1.04712854805091e+002	(9.85285341379626e+001dB,-8.99999525921469e+001°)
1.05925372517730e+002	(9.84285340552375e+001dB,-8.99999520432247e+001°)
1.07151930523762e+002	(9.83285339705855e+001dB,-8.99999514879476e+001°)
1.08392691402122e+002	(9.82285338839617e+001dB,-8.99999509262419e+001°)
1.09647819614320e+002	(9.81285337953202e+001dB,-8.99999503580333e+001°)
1.10917481526242e+002	(9.80285337046139e+001dB,-8.99999497832465e+001°)
1.12201845430198e+002	(9.79285336117949e+001dB,-8.99999492018054e+001°)
1.13501081567233e+002	(9.78285335168137e+001dB,-8.99999486136330e+001°)
1.14815362149690e+002	(9.77285334196202e+001dB,-8.99999480186514e+001°)
1.16144861384036e+002	(9.76285333201628e+001dB,-8.99999474167818e+001°)
1.17489755493955e+002	(9.75285332183887e+001dB,-8.99999468079445e+001°)
1.18850222743704e+002	(9.74285331142440e+001dB,-8.99999461920588e+001°)
1.20226443461743e+002	(9.73285330076734e+001dB,-8.99999455690433e+001°)
1.21618600064639e+002	(9.72285328986205e+001dB,-8.99999449388154e+001°)
1.23026877081240e+002	(9.71285327870274e+001dB,-8.99999443012916e+001°)
1.24451461177140e+002	(9.70285326728350e+001dB,-8.99999436563876e+001°)
1.25892541179419e+002	(9.69285325559827e+001dB,-8.99999430040180e+001°)
1.27350308101668e+002	(9.68285324364085e+001dB,-8.99999423440963e+001°)
1.28824955169315e+002	(9.67285323140491e+001dB,-8.99999416765352e+001°)
1.30316677845232e+002	(9.66285321888396e+001dB,-8.99999410012463e+001°)
1.31825673855643e+002	(9.65285320607136e+001dB,-8.99999403181403e+001°)
1.33352143216334e+002	(9.64285319296031e+001dB,-8.99999396271266e+001°)
1.34896288259167e+002	(9.63285317954387e+001dB,-8.99999389281138e+001°)
1.36458313658895e+002	(9.62285316581492e+001dB,-8.99999382210093e+001°)
1.38038426460291e+002	(9.61285315176618e+001dB,-8.99999375057196e+001°)
1.39636836105596e+002	(9.60285313739020e+001dB,-8.99999367821500e+001°)
1.41253754462278e+002	(9.59285312267937e+001dB,-8.99999360502046e+001°)
1.42889395851113e+002	(9.58285310762587e+001dB,-8.99999353097866e+001°)
1.44543977074595e+002	(9.57285309222173e+001dB,-8.99999345607979e+001°)
1.46217717445674e+002	(9.56285307645879e+001dB,-8.99999338031395e+001°)
1.47910838816823e+002	(9.55285306032867e+001dB,-8.99999330367111e+001°)
1.49623565609446e+002	(9.54285304382284e+001dB,-8.99999322614112e+001°)
1.51356124843623e+002	(9.53285302693254e+001dB,-8.99999314771372e+001°)
1.53108746168206e+002	(9.52285300964881e+001dB,-8.99999306837853e+001°)
1.54881661891251e+002	(9.51285299196249e+001dB,-8.99999298812505e+001°)
1.56675107010818e+002	(9.50285297386421e+001dB,-8.99999290694266e+001°)
1.58489319246114e+002	(9.49285295534436e+001dB,-8.99999282482063e+001°)
1.60324539069007e+002	(9.48285293639312e+001dB,-8.99999274174808e+001°)
1.62181009735896e+002	(9.47285291700046e+001dB,-8.99999265771401e+001°)
1.64058977319957e+002	(9.46285289715608e+001dB,-8.99999257270732e+001°)
1.65958690743759e+002	(9.45285287684947e+001dB,-8.99999248671676e+001°)
1.67880401812259e+002	(9.44285285606985e+001dB,-8.99999239973094e+001°)
1.69824365246177e+002	(9.43285283480622e+001dB,-8.99999231173836e+001°)
1.71790838715762e+002	(9.42285281304729e+001dB,-8.99999222272739e+001°)
1.73780082874941e+002	(9.41285279078153e+001dB,-8.99999213268623e+001°)
1.75792361395872e+002	(9.40285276799713e+001dB,-8.99999204160300e+001°)
1.77827941003895e+002	(9.39285274468201e+001dB,-8.99999194946563e+001°)
1.79887091512882e+002	(9.38285272082382e+001dB,-8.99999185626194e+001°)
1.81970085861002e+002	(9.37285269640989e+001dB,-8.99999176197960e+001°)
1.84077200146899e+002	(9.36285267142729e+001dB,-8.99999166660614e+001°)
1.86208713666290e+002	(9.35285264586278e+001dB,-8.99999157012896e+001°)
1.88364908948983e+002	(9.34285261970278e+001dB,-8.99999147253529e+001°)
1.90546071796328e+002	(9.33285259293344e+001dB,-8.99999137381223e+001°)
1.92752491319097e+002	(9.32285256554056e+001dB,-8.99999127394673e+001°)
1.94984459975808e+002	(9.31285253750962e+001dB,-8.99999117292558e+001°)
1.97242273611489e+002	(9.30285250882576e+001dB,-8.99999107073542e+001°)
1.99526231496892e+002	(9.29285247947376e+001dB,-8.99999096736275e+001°)
2.01836636368160e+002	(9.28285244943806e+001dB,-8.99999086279390e+001°)
2.04173794466957e+002	(9.27285241870274e+001dB,-8.99999075701505e+001°)
2.06538015581057e+002	(9.26285238725150e+001dB,-8.99999065001221e+001°)
2.08929613085408e+002	(9.25285235506767e+001dB,-8.99999054177125e+001°)
2.11348903983668e+002	(9.24285232213418e+001dB,-8.99999043227787e+001°)
2.13796208950227e+002	(9.23285228843356e+001dB,-8.99999032151758e+001°)
2.16271852372706e+002	(9.22285225394796e+001dB,-8.99999020947576e+001°)
2.18776162394959e+002	(9.21285221865908e+001dB,-8.99999009613760e+001°)
2.21309470960568e+002	(9.20285218254822e+001dB,-8.99998998148812e+001°)
2.23872113856838e+002	(9.19285214559623e+001dB,-8.99998986551219e+001°)
2.26464430759310e+002	(9.18285210778351e+001dB,-8.99998974819448e+001°)
2.29086765276782e+002	(9.17285206909002e+001dB,-8.99998962951949e+001°)
2.31739464996852e+002	(9.16285202949524e+001dB,-8.99998950947156e+001°)
2.34422881531997e+002	(9.15285198897818e+001dB,-8.99998938803481e+001°)
2.37137370566170e+002	(9.14285194751735e+001dB,-8.99998926519323e+001°)
2.39883291901954e+002	(9.13285190509077e+001dB,-8.99998914093059e+001°)
