Freq.	V(vo)
Step Information: 1=1  (Run: 1/11)
1.00000000000000e+001	(-4.48394969547376e+001dB,-9.00016629359683e+001°)
1.01157945425990e+001	(-4.47394969540632e+001dB,-9.00016821918594e+001°)
1.02329299228075e+001	(-4.46394969533730e+001dB,-9.00017016707232e+001°)
1.03514216667934e+001	(-4.45394969526668e+001dB,-9.00017213751416e+001°)
1.04712854805090e+001	(-4.44394969519441e+001dB,-9.00017413077265e+001°)
1.05925372517729e+001	(-4.43394969512045e+001dB,-9.00017614711198e+001°)
1.07151930523761e+001	(-4.42394969504478e+001dB,-9.00017818679941e+001°)
1.08392691402120e+001	(-4.41394969496734e+001dB,-9.00018025010532e+001°)
1.09647819614319e+001	(-4.40394969488810e+001dB,-9.00018233730318e+001°)
1.10917481526240e+001	(-4.39394969480701e+001dB,-9.00018444866966e+001°)
1.12201845430196e+001	(-4.38394969472403e+001dB,-9.00018658448461e+001°)
1.13501081567232e+001	(-4.37394969463912e+001dB,-9.00018874503112e+001°)
1.14815362149688e+001	(-4.36394969455224e+001dB,-9.00019093059559e+001°)
1.16144861384034e+001	(-4.35394969446333e+001dB,-9.00019314146771e+001°)
1.17489755493953e+001	(-4.34394969437234e+001dB,-9.00019537794052e+001°)
1.18850222743702e+001	(-4.33394969427924e+001dB,-9.00019764031046e+001°)
1.20226443461741e+001	(-4.32394969418397e+001dB,-9.00019992887741e+001°)
1.21618600064637e+001	(-4.31394969408648e+001dB,-9.00020224394472e+001°)
1.23026877081238e+001	(-4.30394969398672e+001dB,-9.00020458581924e+001°)
1.24451461177139e+001	(-4.29394969388464e+001dB,-9.00020695481140e+001°)
1.25892541179417e+001	(-4.28394969378018e+001dB,-9.00020935123519e+001°)
1.27350308101666e+001	(-4.27394969367328e+001dB,-9.00021177540826e+001°)
1.28824955169314e+001	(-4.26394969356390e+001dB,-9.00021422765194e+001°)
1.30316677845230e+001	(-4.25394969345197e+001dB,-9.00021670829126e+001°)
1.31825673855641e+001	(-4.24394969333743e+001dB,-9.00021921765503e+001°)
1.33352143216333e+001	(-4.23394969322022e+001dB,-9.00022175607586e+001°)
1.34896288259166e+001	(-4.22394969310028e+001dB,-9.00022432389022e+001°)
1.36458313658893e+001	(-4.21394969297755e+001dB,-9.00022692143847e+001°)
1.38038426460289e+001	(-4.20394969285196e+001dB,-9.00022954906491e+001°)
1.39636836105594e+001	(-4.19394969272344e+001dB,-9.00023220711784e+001°)
1.41253754462276e+001	(-4.18394969259193e+001dB,-9.00023489594956e+001°)
1.42889395851111e+001	(-4.17394969245736e+001dB,-9.00023761591650e+001°)
1.44543977074593e+001	(-4.16394969231966e+001dB,-9.00024036737916e+001°)
1.46217717445672e+001	(-4.15394969217874e+001dB,-9.00024315070227e+001°)
1.47910838816821e+001	(-4.14394969203454e+001dB,-9.00024596625473e+001°)
1.49623565609444e+001	(-4.13394969188699e+001dB,-9.00024881440976e+001°)
1.51356124843621e+001	(-4.12394969173600e+001dB,-9.00025169554488e+001°)
1.53108746168203e+001	(-4.11394969158149e+001dB,-9.00025461004196e+001°)
1.54881661891249e+001	(-4.10394969142338e+001dB,-9.00025755828733e+001°)
1.56675107010815e+001	(-4.09394969126159e+001dB,-9.00026054067178e+001°)
1.58489319246112e+001	(-4.08394969109603e+001dB,-9.00026355759061e+001°)
1.60324539069005e+001	(-4.07394969092661e+001dB,-9.00026660944371e+001°)
1.62181009735893e+001	(-4.06394969075325e+001dB,-9.00026969663561e+001°)
1.64058977319954e+001	(-4.05394969057585e+001dB,-9.00027281957551e+001°)
1.65958690743757e+001	(-4.04394969039431e+001dB,-9.00027597867735e+001°)
1.67880401812257e+001	(-4.03394969020855e+001dB,-9.00027917435987e+001°)
1.69824365246175e+001	(-4.02394969001846e+001dB,-9.00028240704665e+001°)
1.71790838715759e+001	(-4.01394968982395e+001dB,-9.00028567716618e+001°)
1.73780082874938e+001	(-4.00394968962490e+001dB,-9.00028898515191e+001°)
1.75792361395870e+001	(-3.99394968942121e+001dB,-9.00029233144231e+001°)
1.77827941003893e+001	(-3.98394968921279e+001dB,-9.00029571648093e+001°)
1.79887091512879e+001	(-3.97394968899950e+001dB,-9.00029914071645e+001°)
1.81970085860999e+001	(-3.96394968878125e+001dB,-9.00030260460276e+001°)
1.84077200146896e+001	(-3.95394968855792e+001dB,-9.00030610859897e+001°)
1.86208713666287e+001	(-3.94394968832938e+001dB,-9.00030965316956e+001°)
1.88364908948981e+001	(-3.93394968809552e+001dB,-9.00031323878434e+001°)
1.90546071796325e+001	(-3.92394968785622e+001dB,-9.00031686591858e+001°)
1.92752491319094e+001	(-3.91394968761133e+001dB,-9.00032053505306e+001°)
1.94984459975805e+001	(-3.90394968736075e+001dB,-9.00032424667412e+001°)
1.97242273611486e+001	(-3.89394968710433e+001dB,-9.00032800127373e+001°)
1.99526231496889e+001	(-3.88394968684193e+001dB,-9.00033179934955e+001°)
2.01836636368157e+001	(-3.87394968657342e+001dB,-9.00033564140502e+001°)
2.04173794466954e+001	(-3.86394968629866e+001dB,-9.00033952794941e+001°)
2.06538015581054e+001	(-3.85394968601750e+001dB,-9.00034345949785e+001°)
2.08929613085405e+001	(-3.84394968572979e+001dB,-9.00034743657149e+001°)
2.11348903983666e+001	(-3.83394968543538e+001dB,-9.00035145969747e+001°)
2.13796208950224e+001	(-3.82394968513411e+001dB,-9.00035552940905e+001°)
2.16271852372703e+001	(-3.81394968482582e+001dB,-9.00035964624568e+001°)
2.18776162394956e+001	(-3.80394968451035e+001dB,-9.00036381075304e+001°)
2.21309470960565e+001	(-3.79394968418754e+001dB,-9.00036802348312e+001°)
2.23872113856835e+001	(-3.78394968385720e+001dB,-9.00037228499432e+001°)
2.26464430759307e+001	(-3.77394968351917e+001dB,-9.00037659585150e+001°)
2.29086765276778e+001	(-3.76394968317326e+001dB,-9.00038095662605e+001°)
2.31739464996849e+001	(-3.75394968281930e+001dB,-9.00038536789600e+001°)
2.34422881531993e+001	(-3.74394968245710e+001dB,-9.00038983024605e+001°)
2.37137370566167e+001	(-3.73394968208645e+001dB,-9.00039434426769e+001°)
2.39883291901950e+001	(-3.72394968170718e+001dB,-9.00039891055923e+001°)
2.42661009508243e+001	(-3.71394968131907e+001dB,-9.00040352972595e+001°)
2.45470891568504e+001	(-3.70394968092192e+001dB,-9.00040820238010e+001°)
2.48313310529558e+001	(-3.69394968051551e+001dB,-9.00041292914104e+001°)
2.51188643150959e+001	(-3.68394968009965e+001dB,-9.00041771063529e+001°)
2.54097270554932e+001	(-3.67394967967409e+001dB,-9.00042254749665e+001°)
2.57039578276888e+001	(-3.66394967923862e+001dB,-9.00042744036623e+001°)
2.60015956316529e+001	(-3.65394967879301e+001dB,-9.00043238989257e+001°)
2.63026799189540e+001	(-3.64394967833702e+001dB,-9.00043739673173e+001°)
2.66072505979882e+001	(-3.63394967787041e+001dB,-9.00044246154736e+001°)
2.69153480392693e+001	(-3.62394967739293e+001dB,-9.00044758501081e+001°)
2.72270130807793e+001	(-3.61394967690433e+001dB,-9.00045276780116e+001°)
2.75422870333818e+001	(-3.60394967640434e+001dB,-9.00045801060541e+001°)
2.78612116862979e+001	(-3.59394967589271e+001dB,-9.00046331411848e+001°)
2.81838293126447e+001	(-3.58394967536916e+001dB,-9.00046867904335e+001°)
2.85101826750393e+001	(-3.57394967483342e+001dB,-9.00047410609112e+001°)
2.88403150312662e+001	(-3.56394967428520e+001dB,-9.00047959598115e+001°)
2.91742701400118e+001	(-3.55394967372421e+001dB,-9.00048514944112e+001°)
2.95120922666640e+001	(-3.54394967315015e+001dB,-9.00049076720714e+001°)
2.98538261891798e+001	(-3.53394967256272e+001dB,-9.00049645002382e+001°)
3.01995172040203e+001	(-3.52394967196161e+001dB,-9.00050219864444e+001°)
3.05492111321553e+001	(-3.51394967134650e+001dB,-9.00050801383095e+001°)
3.09029543251361e+001	(-3.50394967071705e+001dB,-9.00051389635416e+001°)
3.12607936712397e+001	(-3.49394967007295e+001dB,-9.00051984699379e+001°)
3.16227766016840e+001	(-3.48394966941384e+001dB,-9.00052586653859e+001°)
3.19889510969142e+001	(-3.47394966873938e+001dB,-9.00053195578644e+001°)
3.23593656929630e+001	(-3.46394966804921e+001dB,-9.00053811554447e+001°)
3.27340694878840e+001	(-3.45394966734297e+001dB,-9.00054434662915e+001°)
3.31131121482593e+001	(-3.44394966662027e+001dB,-9.00055064986640e+001°)
3.34965439157830e+001	(-3.43394966588074e+001dB,-9.00055702609171e+001°)
3.38844156139205e+001	(-3.42394966512399e+001dB,-9.00056347615024e+001°)
3.42767786546453e+001	(-3.41394966434960e+001dB,-9.00057000089695e+001°)
3.46736850452534e+001	(-3.40394966355718e+001dB,-9.00057660119667e+001°)
3.50751873952570e+001	(-3.39394966274630e+001dB,-9.00058327792428e+001°)
3.54813389233578e+001	(-3.38394966191654e+001dB,-9.00059003196476e+001°)
3.58921934645008e+001	(-3.37394966106744e+001dB,-9.00059686421336e+001°)
3.63078054770104e+001	(-3.36394966019857e+001dB,-9.00060377557569e+001°)
3.67282300498087e+001	(-3.35394965930946e+001dB,-9.00061076696784e+001°)
3.71535229097175e+001	(-3.34394965839964e+001dB,-9.00061783931651e+001°)
3.75837404288447e+001	(-3.33394965746863e+001dB,-9.00062499355914e+001°)
3.80189396320564e+001	(-3.32394965651593e+001dB,-9.00063223064401e+001°)
3.84591782045356e+001	(-3.31394965554104e+001dB,-9.00063955153039e+001°)
3.89045144994284e+001	(-3.30394965454344e+001dB,-9.00064695718866e+001°)
3.93550075455780e+001	(-3.29394965352260e+001dB,-9.00065444860044e+001°)
3.98107170553500e+001	(-3.28394965247799e+001dB,-9.00066202675869e+001°)
4.02717034325462e+001	(-3.27394965140904e+001dB,-9.00066969266790e+001°)
4.07380277804116e+001	(-3.26394965031520e+001dB,-9.00067744734419e+001°)
4.12097519097333e+001	(-3.25394964919587e+001dB,-9.00068529181541e+001°)
4.16869383470339e+001	(-3.24394964805048e+001dB,-9.00069322712135e+001°)
4.21696503428586e+001	(-3.23394964687840e+001dB,-9.00070125431383e+001°)
4.26579518801596e+001	(-3.22394964567902e+001dB,-9.00070937445685e+001°)
4.31519076827769e+001	(-3.21394964445171e+001dB,-9.00071758862671e+001°)
4.36515832240170e+001	(-3.20394964319581e+001dB,-9.00072589791221e+001°)
4.41570447353316e+001	(-3.19394964191065e+001dB,-9.00073430341473e+001°)
4.46683592150967e+001	(-3.18394964059556e+001dB,-9.00074280624841e+001°)
4.51855944374926e+001	(-3.17394963924983e+001dB,-9.00075140754029e+001°)
4.57088189614879e+001	(-3.16394963787277e+001dB,-9.00076010843047e+001°)
4.62381021399264e+001	(-3.15394963646362e+001dB,-9.00076891007225e+001°)
4.67735141287202e+001	(-3.14394963502165e+001dB,-9.00077781363227e+001°)
4.73151258961485e+001	(-3.13394963354609e+001dB,-9.00078682029068e+001°)
4.78630092322643e+001	(-3.12394963203617e+001dB,-9.00079593124133e+001°)
4.84172367584104e+001	(-3.11394963049107e+001dB,-9.00080514769185e+001°)
4.89778819368451e+001	(-3.10394962890998e+001dB,-9.00081447086387e+001°)
4.95450190804795e+001	(-3.09394962729207e+001dB,-9.00082390199318e+001°)
5.01187233627277e+001	(-3.08394962563647e+001dB,-9.00083344232986e+001°)
5.06990708274709e+001	(-3.07394962394230e+001dB,-9.00084309313848e+001°)
5.12861383991370e+001	(-3.06394962220867e+001dB,-9.00085285569824e+001°)
5.18800038928966e+001	(-3.05394962043466e+001dB,-9.00086273130316e+001°)
5.24807460249778e+001	(-3.04394961861933e+001dB,-9.00087272126225e+001°)
5.30884444230993e+001	(-3.03394961676172e+001dB,-9.00088282689965e+001°)
5.37031796370258e+001	(-3.02394961486083e+001dB,-9.00089304955488e+001°)
5.43250331492439e+001	(-3.01394961291567e+001dB,-9.00090339058293e+001°)
5.49540873857630e+001	(-3.00394961092520e+001dB,-9.00091385135449e+001°)
5.55904257270409e+001	(-2.99394960888836e+001dB,-9.00092443325614e+001°)
5.62341325190355e+001	(-2.98394960680408e+001dB,-9.00093513769050e+001°)
5.68852930843847e+001	(-2.97394960467126e+001dB,-9.00094596607642e+001°)
5.75439937337163e+001	(-2.96394960248875e+001dB,-9.00095691984920e+001°)
5.82103217770877e+001	(-2.95394960025540e+001dB,-9.00096800046077e+001°)
5.88843655355595e+001	(-2.94394959797004e+001dB,-9.00097920937983e+001°)
5.95662143529017e+001	(-2.93394959563144e+001dB,-9.00099054809213e+001°)
6.02559586074364e+001	(-2.92394959323836e+001dB,-9.00100201810061e+001°)
6.09536897240175e+001	(-2.91394959078955e+001dB,-9.00101362092560e+001°)
6.16595001861489e+001	(-2.90394958828370e+001dB,-9.00102535810505e+001°)
6.23734835482426e+001	(-2.89394958571947e+001dB,-9.00103723119471e+001°)
6.30957344480200e+001	(-2.88394958309552e+001dB,-9.00104924176836e+001°)
6.38263486190555e+001	(-2.87394958041045e+001dB,-9.00106139141798e+001°)
6.45654229034662e+001	(-2.86394957766283e+001dB,-9.00107368175400e+001°)
6.53130552647479e+001	(-2.85394957485122e+001dB,-9.00108611440549e+001°)
6.60693448007603e+001	(-2.84394957197411e+001dB,-9.00109869102041e+001°)
6.68343917568622e+001	(-2.83394956902999e+001dB,-9.00111141326576e+001°)
6.76082975391989e+001	(-2.82394956601729e+001dB,-9.00112428282787e+001°)
6.83911647281437e+001	(-2.81394956293442e+001dB,-9.00113730141260e+001°)
6.91830970918944e+001	(-2.80394955977973e+001dB,-9.00115047074554e+001°)
6.99841996002281e+001	(-2.79394955655157e+001dB,-9.00116379257228e+001°)
7.07945784384146e+001	(-2.78394955324821e+001dB,-9.00117726865863e+001°)
7.16143410212910e+001	(-2.77394954986790e+001dB,-9.00119090079082e+001°)
7.24435960074998e+001	(-2.76394954640886e+001dB,-9.00120469077579e+001°)
7.32824533138912e+001	(-2.75394954286925e+001dB,-9.00121864044140e+001°)
7.41310241300926e+001	(-2.74394953924718e+001dB,-9.00123275163665e+001°)
7.49894209332465e+001	(-2.73394953554075e+001dB,-9.00124702623199e+001°)
7.58577575029193e+001	(-2.72394953174799e+001dB,-9.00126146611949e+001°)
7.67361489361828e+001	(-2.71394952786688e+001dB,-9.00127607321316e+001°)
7.76247116628701e+001	(-2.70394952389537e+001dB,-9.00129084944916e+001°)
7.85235634610081e+001	(-2.69394951983135e+001dB,-9.00130579678608e+001°)
7.94328234724291e+001	(-2.68394951567266e+001dB,-9.00132091720516e+001°)
8.03526122185627e+001	(-2.67394951141711e+001dB,-9.00133621271061e+001°)
8.12830516164109e+001	(-2.66394950706243e+001dB,-9.00135168532986e+001°)
8.22242649947081e+001	(-2.65394950260632e+001dB,-9.00136733711377e+001°)
8.31763771102681e+001	(-2.64394949804642e+001dB,-9.00138317013699e+001°)
8.41395141645205e+001	(-2.63394949338030e+001dB,-9.00139918649818e+001°)
8.51138038202387e+001	(-2.62394948860549e+001dB,-9.00141538832030e+001°)
8.60993752184611e+001	(-2.61394948371946e+001dB,-9.00143177775089e+001°)
8.70963589956091e+001	(-2.60394947871963e+001dB,-9.00144835696236e+001°)
8.81048873008025e+001	(-2.59394947360333e+001dB,-9.00146512815228e+001°)
8.91250938133757e+001	(-2.58394946836785e+001dB,-9.00148209354366e+001°)
9.01571137605968e+001	(-2.57394946301043e+001dB,-9.00149925538526e+001°)
9.12010839355921e+001	(-2.56394945752822e+001dB,-9.00151661595187e+001°)
9.22571427154775e+001	(-2.55394945191831e+001dB,-9.00153417754463e+001°)
9.33254300797003e+001	(-2.54394944617773e+001dB,-9.00155194249133e+001°)
9.44060876285936e+001	(-2.53394944030343e+001dB,-9.00156991314669e+001°)
9.54992586021448e+001	(-2.52394943429230e+001dB,-9.00158809189272e+001°)
9.66050878989826e+001	(-2.51394942814116e+001dB,-9.00160648113902e+001°)
9.77237220955824e+001	(-2.50394942184673e+001dB,-9.00162508332306e+001°)
9.88553094656952e+001	(-2.49394941540569e+001dB,-9.00164390091056e+001°)
1.00000000000001e+002	(-2.48394940881462e+001dB,-9.00166293639579e+001°)
1.01157945425991e+002	(-2.47394940207003e+001dB,-9.00168219230190e+001°)
1.02329299228077e+002	(-2.46394939516833e+001dB,-9.00170167118124e+001°)
1.03514216667936e+002	(-2.45394938810587e+001dB,-9.00172137561575e+001°)
1.04712854805091e+002	(-2.44394938087891e+001dB,-9.00174130821724e+001°)
1.05925372517730e+002	(-2.43394937348360e+001dB,-9.00176147162778e+001°)
1.07151930523762e+002	(-2.42394936591604e+001dB,-9.00178186852002e+001°)
1.08392691402122e+002	(-2.41394935817221e+001dB,-9.00180250159756e+001°)
1.09647819614320e+002	(-2.40394935024800e+001dB,-9.00182337359531e+001°)
1.10917481526242e+002	(-2.39394934213921e+001dB,-9.00184448727987e+001°)
1.12201845430198e+002	(-2.38394933384155e+001dB,-9.00186584544984e+001°)
1.13501081567233e+002	(-2.37394932535060e+001dB,-9.00188745093626e+001°)
1.14815362149690e+002	(-2.36394931666188e+001dB,-9.00190930660292e+001°)
1.16144861384036e+002	(-2.35394930777077e+001dB,-9.00193141534679e+001°)
1.17489755493955e+002	(-2.34394929867256e+001dB,-9.00195378009840e+001°)
1.18850222743704e+002	(-2.33394928936242e+001dB,-9.00197640382218e+001°)
1.20226443461743e+002	(-2.32394927983543e+001dB,-9.00199928951692e+001°)
1.21618600064639e+002	(-2.31394927008652e+001dB,-9.00202244021611e+001°)
1.23026877081240e+002	(-2.30394926011053e+001dB,-9.00204585898839e+001°)
1.24451461177140e+002	(-2.29394924990217e+001dB,-9.00206954893791e+001°)
1.25892541179419e+002	(-2.28394923945602e+001dB,-9.00209351320479e+001°)
1.27350308101668e+002	(-2.27394922876656e+001dB,-9.00211775496548e+001°)
1.28824955169315e+002	(-2.26394921782810e+001dB,-9.00214227743325e+001°)
1.30316677845232e+002	(-2.25394920663486e+001dB,-9.00216708385855e+001°)
1.31825673855643e+002	(-2.24394919518089e+001dB,-9.00219217752948e+001°)
1.33352143216334e+002	(-2.23394918346012e+001dB,-9.00221756177222e+001°)
1.34896288259167e+002	(-2.22394917146634e+001dB,-9.00224323995146e+001°)
1.36458313658895e+002	(-2.21394915919319e+001dB,-9.00226921547084e+001°)
1.38038426460291e+002	(-2.20394914663416e+001dB,-9.00229549177345e+001°)
1.39636836105596e+002	(-2.19394913378260e+001dB,-9.00232207234220e+001°)
1.41253754462278e+002	(-2.18394912063168e+001dB,-9.00234896070037e+001°)
1.42889395851113e+002	(-2.17394910717444e+001dB,-9.00237616041203e+001°)
1.44543977074595e+002	(-2.16394909340374e+001dB,-9.00240367508252e+001°)
1.46217717445674e+002	(-2.15394907931227e+001dB,-9.00243150835892e+001°)
1.47910838816823e+002	(-2.14394906489258e+001dB,-9.00245966393055e+001°)
1.49623565609446e+002	(-2.13394905013700e+001dB,-9.00248814552945e+001°)
1.51356124843623e+002	(-2.12394903503773e+001dB,-9.00251695693088e+001°)
1.53108746168206e+002	(-2.11394901958675e+001dB,-9.00254610195381e+001°)
1.54881661891251e+002	(-2.10394900377586e+001dB,-9.00257558446144e+001°)
1.56675107010818e+002	(-2.09394898759670e+001dB,-9.00260540836170e+001°)
1.58489319246114e+002	(-2.08394897104067e+001dB,-9.00263557760778e+001°)
1.60324539069007e+002	(-2.07394895409901e+001dB,-9.00266609619864e+001°)
1.62181009735896e+002	(-2.06394893676272e+001dB,-9.00269696817955e+001°)
1.64058977319957e+002	(-2.05394891902261e+001dB,-9.00272819764262e+001°)
1.65958690743759e+002	(-2.04394890086929e+001dB,-9.00275978872736e+001°)
1.67880401812259e+002	(-2.03394888229312e+001dB,-9.00279174562120e+001°)
1.69824365246177e+002	(-2.02394886328426e+001dB,-9.00282407256006e+001°)
1.71790838715762e+002	(-2.01394884383262e+001dB,-9.00285677382893e+001°)
1.73780082874941e+002	(-2.00394882392789e+001dB,-9.00288985376239e+001°)
1.75792361395872e+002	(-1.99394880355953e+001dB,-9.00292331674524e+001°)
1.77827941003895e+002	(-1.98394878271672e+001dB,-9.00295716721305e+001°)
1.79887091512882e+002	(-1.97394876138842e+001dB,-9.00299140965274e+001°)
1.81970085861002e+002	(-1.96394873956332e+001dB,-9.00302604860321e+001°)
1.84077200146899e+002	(-1.95394871722985e+001dB,-9.00306108865590e+001°)
1.86208713666290e+002	(-1.94394869437616e+001dB,-9.00309653445543e+001°)
1.88364908948983e+002	(-1.93394867099015e+001dB,-9.00313239070021e+001°)
1.90546071796328e+002	(-1.92394864705940e+001dB,-9.00316866214304e+001°)
1.92752491319097e+002	(-1.91394862257123e+001dB,-9.00320535359178e+001°)
1.94984459975808e+002	(-1.90394859751266e+001dB,-9.00324246990994e+001°)
1.97242273611489e+002	(-1.89394857187040e+001dB,-9.00328001601737e+001°)
1.99526231496892e+002	(-1.88394854563085e+001dB,-9.00331799689088e+001°)
2.01836636368160e+002	(-1.87394851878011e+001dB,-9.00335641756493e+001°)
2.04173794466957e+002	(-1.86394849130393e+001dB,-9.00339528313225e+001°)
2.06538015581057e+002	(-1.85394846318775e+001dB,-9.00343459874457e+001°)
2.08929613085408e+002	(-1.84394843441666e+001dB,-9.00347436961327e+001°)
2.11348903983668e+002	(-1.83394840497540e+001dB,-9.00351460101007e+001°)
2.13796208950227e+002	(-1.82394837484836e+001dB,-9.00355529826776e+001°)
2.16271852372706e+002	(-1.81394834401958e+001dB,-9.00359646678085e+001°)
2.18776162394959e+002	(-1.80394831247270e+001dB,-9.00363811200635e+001°)
2.21309470960568e+002	(-1.79394828019099e+001dB,-9.00368023946445e+001°)
2.23872113856838e+002	(-1.78394824715735e+001dB,-9.00372285473927e+001°)
2.26464430759310e+002	(-1.77394821335426e+001dB,-9.00376596347959e+001°)
2.29086765276782e+002	(-1.76394817876379e+001dB,-9.00380957139961e+001°)
