Freq.	1/-I(C1)
Step Information: 1=1  (Run: 1/11)
1.00000000000000e+001	(1.18928537657278e+002dB,-8.99996065643347e+001°)
1.01157945425990e+001	(1.18828537656528e+002dB,-8.99996020085644e+001°)
1.02329299228075e+001	(1.18728537655761e+002dB,-8.99995974000408e+001°)
1.03514216667934e+001	(1.18628537654976e+002dB,-8.99995927381530e+001°)
1.04712854805090e+001	(1.18528537654173e+002dB,-8.99995880222830e+001°)
1.05925372517729e+001	(1.18428537653351e+002dB,-8.99995832518059e+001°)
1.07151930523761e+001	(1.18328537652509e+002dB,-8.99995784260893e+001°)
1.08392691402120e+001	(1.18228537651649e+002dB,-8.99995735444934e+001°)
1.09647819614319e+001	(1.18128537650768e+002dB,-8.99995686063714e+001°)
1.10917481526240e+001	(1.18028537649866e+002dB,-8.99995636110686e+001°)
1.12201845430196e+001	(1.17928537648944e+002dB,-8.99995585579229e+001°)
1.13501081567232e+001	(1.17828537648000e+002dB,-8.99995534462646e+001°)
1.14815362149688e+001	(1.17728537647035e+002dB,-8.99995482754160e+001°)
1.16144861384034e+001	(1.17628537646046e+002dB,-8.99995430446919e+001°)
1.17489755493953e+001	(1.17528537645035e+002dB,-8.99995377533988e+001°)
1.18850222743702e+001	(1.17428537644000e+002dB,-8.99995324008354e+001°)
1.20226443461741e+001	(1.17328537642941e+002dB,-8.99995269862922e+001°)
1.21618600064637e+001	(1.17228537641857e+002dB,-8.99995215090516e+001°)
1.23026877081238e+001	(1.17128537640749e+002dB,-8.99995159683876e+001°)
1.24451461177139e+001	(1.17028537639614e+002dB,-8.99995103635657e+001°)
1.25892541179417e+001	(1.16928537638453e+002dB,-8.99995046938430e+001°)
1.27350308101666e+001	(1.16828537637265e+002dB,-8.99994989584680e+001°)
1.28824955169314e+001	(1.16728537636049e+002dB,-8.99994931566805e+001°)
1.30316677845230e+001	(1.16628537634805e+002dB,-8.99994872877114e+001°)
1.31825673855641e+001	(1.16528537633531e+002dB,-8.99994813507829e+001°)
1.33352143216333e+001	(1.16428537632229e+002dB,-8.99994753451080e+001°)
1.34896288259166e+001	(1.16328537630895e+002dB,-8.99994692698907e+001°)
1.36458313658893e+001	(1.16228537629531e+002dB,-8.99994631243256e+001°)
1.38038426460289e+001	(1.16128537628135e+002dB,-8.99994569075983e+001°)
1.39636836105594e+001	(1.16028537626707e+002dB,-8.99994506188847e+001°)
1.41253754462276e+001	(1.15928537625245e+002dB,-8.99994442573512e+001°)
1.42889395851111e+001	(1.15828537623749e+002dB,-8.99994378221546e+001°)
1.44543977074593e+001	(1.15728537622218e+002dB,-8.99994313124419e+001°)
1.46217717445672e+001	(1.15628537620652e+002dB,-8.99994247273503e+001°)
1.47910838816821e+001	(1.15528537619049e+002dB,-8.99994180660070e+001°)
1.49623565609444e+001	(1.15428537617409e+002dB,-8.99994113275289e+001°)
1.51356124843621e+001	(1.15328537615731e+002dB,-8.99994045110230e+001°)
1.53108746168203e+001	(1.15228537614013e+002dB,-8.99993976155856e+001°)
1.54881661891249e+001	(1.15128537612256e+002dB,-8.99993906403028e+001°)
1.56675107010815e+001	(1.15028537610457e+002dB,-8.99993835842501e+001°)
1.58489319246112e+001	(1.14928537608617e+002dB,-8.99993764464921e+001°)
1.60324539069005e+001	(1.14828537606734e+002dB,-8.99993692260827e+001°)
1.62181009735893e+001	(1.14728537604807e+002dB,-8.99993619220650e+001°)
1.64058977319954e+001	(1.14628537602835e+002dB,-8.99993545334707e+001°)
1.65958690743757e+001	(1.14528537600817e+002dB,-8.99993470593205e+001°)
1.67880401812257e+001	(1.14428537598752e+002dB,-8.99993394986238e+001°)
1.69824365246175e+001	(1.14328537596640e+002dB,-8.99993318503783e+001°)
1.71790838715759e+001	(1.14228537594477e+002dB,-8.99993241135703e+001°)
1.73780082874938e+001	(1.14128537592265e+002dB,-8.99993162871743e+001°)
1.75792361395870e+001	(1.14028537590001e+002dB,-8.99993083701529e+001°)
1.77827941003893e+001	(1.13928537587684e+002dB,-8.99993003614567e+001°)
1.79887091512879e+001	(1.13828537585313e+002dB,-8.99992922600241e+001°)
1.81970085860999e+001	(1.13728537582887e+002dB,-8.99992840647814e+001°)
1.84077200146896e+001	(1.13628537580405e+002dB,-8.99992757746423e+001°)
1.86208713666287e+001	(1.13528537577865e+002dB,-8.99992673885079e+001°)
1.88364908948981e+001	(1.13428537575265e+002dB,-8.99992589052666e+001°)
1.90546071796325e+001	(1.13328537572605e+002dB,-8.99992503237940e+001°)
1.92752491319094e+001	(1.13228537569883e+002dB,-8.99992416429526e+001°)
1.94984459975805e+001	(1.13128537567098e+002dB,-8.99992328615919e+001°)
1.97242273611486e+001	(1.13028537564248e+002dB,-8.99992239785477e+001°)
1.99526231496889e+001	(1.12928537561331e+002dB,-8.99992149926428e+001°)
2.01836636368157e+001	(1.12828537558346e+002dB,-8.99992059026860e+001°)
2.04173794466954e+001	(1.12728537555292e+002dB,-8.99991967074724e+001°)
2.06538015581054e+001	(1.12628537552167e+002dB,-8.99991874057833e+001°)
2.08929613085405e+001	(1.12528537548969e+002dB,-8.99991779963857e+001°)
2.11348903983666e+001	(1.12428537545696e+002dB,-8.99991684780324e+001°)
2.13796208950224e+001	(1.12328537542348e+002dB,-8.99991588494618e+001°)
2.16271852372703e+001	(1.12228537538921e+002dB,-8.99991491093976e+001°)
2.18776162394956e+001	(1.12128537535414e+002dB,-8.99991392565487e+001°)
2.21309470960565e+001	(1.12028537531826e+002dB,-8.99991292896093e+001°)
2.23872113856835e+001	(1.11928537528154e+002dB,-8.99991192072581e+001°)
2.26464430759307e+001	(1.11828537524397e+002dB,-8.99991090081588e+001°)
2.29086765276778e+001	(1.11728537520552e+002dB,-8.99990986909595e+001°)
2.31739464996849e+001	(1.11628537516618e+002dB,-8.99990882542926e+001°)
2.34422881531993e+001	(1.11528537512592e+002dB,-8.99990776967748e+001°)
2.37137370566167e+001	(1.11428537508472e+002dB,-8.99990670170068e+001°)
2.39883291901950e+001	(1.11328537504256e+002dB,-8.99990562135729e+001°)
2.42661009508243e+001	(1.11228537499942e+002dB,-8.99990452850410e+001°)
2.45470891568504e+001	(1.11128537495527e+002dB,-8.99990342299628e+001°)
2.48313310529558e+001	(1.11028537491010e+002dB,-8.99990230468728e+001°)
2.51188643150959e+001	(1.10928537486387e+002dB,-8.99990117342887e+001°)
2.54097270554932e+001	(1.10828537481657e+002dB,-8.99990002907110e+001°)
2.57039578276888e+001	(1.10728537476817e+002dB,-8.99989887146230e+001°)
2.60015956316529e+001	(1.10628537471864e+002dB,-8.99989770044901e+001°)
2.63026799189540e+001	(1.10528537466795e+002dB,-8.99989651587604e+001°)
2.66072505979882e+001	(1.10428537461608e+002dB,-8.99989531758635e+001°)
2.69153480392693e+001	(1.10328537456301e+002dB,-8.99989410542112e+001°)
2.72270130807793e+001	(1.10228537450870e+002dB,-8.99989287921968e+001°)
2.75422870333818e+001	(1.10128537445312e+002dB,-8.99989163881950e+001°)
2.78612116862979e+001	(1.10028537439625e+002dB,-8.99989038405616e+001°)
2.81838293126447e+001	(1.09928537433806e+002dB,-8.99988911476334e+001°)
2.85101826750393e+001	(1.09828537427851e+002dB,-8.99988783077281e+001°)
2.88403150312662e+001	(1.09728537421757e+002dB,-8.99988653191436e+001°)
2.91742701400118e+001	(1.09628537415522e+002dB,-8.99988521801585e+001°)
2.95120922666640e+001	(1.09528537409141e+002dB,-8.99988388890310e+001°)
2.98538261891798e+001	(1.09428537402611e+002dB,-8.99988254439996e+001°)
3.01995172040203e+001	(1.09328537395929e+002dB,-8.99988118432820e+001°)
3.05492111321553e+001	(1.09228537389092e+002dB,-8.99987980850755e+001°)
3.09029543251361e+001	(1.09128537382096e+002dB,-8.99987841675566e+001°)
3.12607936712397e+001	(1.09028537374936e+002dB,-8.99987700888803e+001°)
3.16227766016840e+001	(1.08928537367610e+002dB,-8.99987558471806e+001°)
3.19889510969142e+001	(1.08828537360113e+002dB,-8.99987414405698e+001°)
3.23593656929630e+001	(1.08728537352441e+002dB,-8.99987268671383e+001°)
3.27340694878840e+001	(1.08628537344591e+002dB,-8.99987121249545e+001°)
3.31131121482593e+001	(1.08528537336558e+002dB,-8.99986972120642e+001°)
3.34965439157830e+001	(1.08428537328338e+002dB,-8.99986821264907e+001°)
3.38844156139205e+001	(1.08328537319926e+002dB,-8.99986668662346e+001°)
3.42767786546453e+001	(1.08228537311319e+002dB,-8.99986514292730e+001°)
3.46736850452534e+001	(1.08128537302510e+002dB,-8.99986358135598e+001°)
3.50751873952570e+001	(1.08028537293497e+002dB,-8.99986200170252e+001°)
3.54813389233578e+001	(1.07928537284274e+002dB,-8.99986040375753e+001°)
3.58921934645008e+001	(1.07828537274836e+002dB,-8.99985878730920e+001°)
3.63078054770104e+001	(1.07728537265178e+002dB,-8.99985715214330e+001°)
3.67282300498087e+001	(1.07628537255295e+002dB,-8.99985549804305e+001°)
3.71535229097175e+001	(1.07528537245182e+002dB,-8.99985382478924e+001°)
3.75837404288447e+001	(1.07428537234833e+002dB,-8.99985213216005e+001°)
3.80189396320564e+001	(1.07328537224244e+002dB,-8.99985041993114e+001°)
3.84591782045356e+001	(1.07228537213407e+002dB,-8.99984868787556e+001°)
3.89045144994284e+001	(1.07128537202319e+002dB,-8.99984693576371e+001°)
3.93550075455780e+001	(1.07028537190972e+002dB,-8.99984516336337e+001°)
3.98107170553500e+001	(1.06928537179360e+002dB,-8.99984337043960e+001°)
4.02717034325462e+001	(1.06828537167478e+002dB,-8.99984155675474e+001°)
4.07380277804116e+001	(1.06728537155320e+002dB,-8.99983972206841e+001°)
4.12097519097333e+001	(1.06628537142878e+002dB,-8.99983786613740e+001°)
4.16869383470339e+001	(1.06528537130146e+002dB,-8.99983598871573e+001°)
4.21696503428586e+001	(1.06428537117118e+002dB,-8.99983408955454e+001°)
4.26579518801596e+001	(1.06328537103787e+002dB,-8.99983216840210e+001°)
4.31519076827769e+001	(1.06228537090144e+002dB,-8.99983022500376e+001°)
4.36515832240170e+001	(1.06128537076185e+002dB,-8.99982825910193e+001°)
4.41570447353316e+001	(1.06028537061899e+002dB,-8.99982627043603e+001°)
4.46683592150967e+001	(1.05928537047282e+002dB,-8.99982425874245e+001°)
4.51855944374926e+001	(1.05828537032323e+002dB,-8.99982222375457e+001°)
4.57088189614879e+001	(1.05728537017017e+002dB,-8.99982016520263e+001°)
4.62381021399264e+001	(1.05628537001353e+002dB,-8.99981808281379e+001°)
4.67735141287202e+001	(1.05528536985325e+002dB,-8.99981597631202e+001°)
4.73151258961485e+001	(1.05428536968924e+002dB,-8.99981384541810e+001°)
4.78630092322643e+001	(1.05328536952140e+002dB,-8.99981168984960e+001°)
4.84172367584104e+001	(1.05228536934966e+002dB,-8.99980950932078e+001°)
4.89778819368451e+001	(1.05128536917391e+002dB,-8.99980730354264e+001°)
4.95450190804795e+001	(1.05028536899407e+002dB,-8.99980507222278e+001°)
5.01187233627277e+001	(1.04928536881005e+002dB,-8.99980281506545e+001°)
5.06990708274709e+001	(1.04828536862173e+002dB,-8.99980053177148e+001°)
5.12861383991370e+001	(1.04728536842903e+002dB,-8.99979822203820e+001°)
5.18800038928966e+001	(1.04628536823184e+002dB,-8.99979588555947e+001°)
5.24807460249778e+001	(1.04528536803006e+002dB,-8.99979352202560e+001°)
5.30884444230993e+001	(1.04428536782358e+002dB,-8.99979113112328e+001°)
5.37031796370258e+001	(1.04328536761228e+002dB,-8.99978871253563e+001°)
5.43250331492439e+001	(1.04228536739607e+002dB,-8.99978626594204e+001°)
5.49540873857630e+001	(1.04128536717482e+002dB,-8.99978379101824e+001°)
5.55904257270409e+001	(1.04028536694842e+002dB,-8.99978128743616e+001°)
5.62341325190355e+001	(1.03928536671674e+002dB,-8.99977875486397e+001°)
5.68852930843847e+001	(1.03828536647967e+002dB,-8.99977619296597e+001°)
5.75439937337163e+001	(1.03728536623707e+002dB,-8.99977360140259e+001°)
5.82103217770877e+001	(1.03628536598883e+002dB,-8.99977097983032e+001°)
5.88843655355595e+001	(1.03528536573480e+002dB,-8.99976832790167e+001°)
5.95662143529017e+001	(1.03428536547485e+002dB,-8.99976564526513e+001°)
6.02559586074364e+001	(1.03328536520885e+002dB,-8.99976293156512e+001°)
6.09536897240175e+001	(1.03228536493665e+002dB,-8.99976018644194e+001°)
6.16595001861489e+001	(1.03128536465812e+002dB,-8.99975740953174e+001°)
6.23734835482426e+001	(1.03028536437309e+002dB,-8.99975460046642e+001°)
6.30957344480200e+001	(1.02928536408143e+002dB,-8.99975175887366e+001°)
6.38263486190555e+001	(1.02828536378297e+002dB,-8.99974888437680e+001°)
6.45654229034662e+001	(1.02728536347756e+002dB,-8.99974597659483e+001°)
6.53130552647479e+001	(1.02628536316503e+002dB,-8.99974303514233e+001°)
6.60693448007603e+001	(1.02528536284523e+002dB,-8.99974005962942e+001°)
6.68343917568622e+001	(1.02428536251798e+002dB,-8.99973704966168e+001°)
6.76082975391989e+001	(1.02328536218310e+002dB,-8.99973400484016e+001°)
6.83911647281437e+001	(1.02228536184043e+002dB,-8.99973092476126e+001°)
6.91830970918944e+001	(1.02128536148977e+002dB,-8.99972780901672e+001°)
6.99841996002281e+001	(1.02028536113095e+002dB,-8.99972465719356e+001°)
7.07945784384146e+001	(1.01928536076376e+002dB,-8.99972146887401e+001°)
7.16143410212910e+001	(1.01828536038803e+002dB,-8.99971824363545e+001°)
7.24435960074998e+001	(1.01728536000354e+002dB,-8.99971498105038e+001°)
7.32824533138912e+001	(1.01628535961009e+002dB,-8.99971168068635e+001°)
7.41310241300926e+001	(1.01528535920748e+002dB,-8.99970834210590e+001°)
7.49894209332465e+001	(1.01428535879550e+002dB,-8.99970496486651e+001°)
7.58577575029193e+001	(1.01328535837392e+002dB,-8.99970154852053e+001°)
7.67361489361828e+001	(1.01228535794251e+002dB,-8.99969809261511e+001°)
7.76247116628701e+001	(1.01128535750106e+002dB,-8.99969459669220e+001°)
7.85235634610081e+001	(1.01028535704933e+002dB,-8.99969106028839e+001°)
7.94328234724291e+001	(1.00928535658707e+002dB,-8.99968748293496e+001°)
8.03526122185627e+001	(1.00828535611405e+002dB,-8.99968386415772e+001°)
8.12830516164109e+001	(1.00728535563000e+002dB,-8.99968020347701e+001°)
8.22242649947081e+001	(1.00628535513469e+002dB,-8.99967650040760e+001°)
8.31763771102681e+001	(1.00528535462783e+002dB,-8.99967275445867e+001°)
8.41395141645205e+001	(1.00428535410917e+002dB,-8.99966896513368e+001°)
8.51138038202387e+001	(1.00328535357843e+002dB,-8.99966513193037e+001°)
8.60993752184611e+001	(1.00228535303533e+002dB,-8.99966125434066e+001°)
8.70963589956091e+001	(1.00128535247957e+002dB,-8.99965733185056e+001°)
8.81048873008025e+001	(1.00028535191087e+002dB,-8.99965336394016e+001°)
8.91250938133757e+001	(9.99285351328926e+001dB,-8.99964935008351e+001°)
9.01571137605968e+001	(9.98285350733424e+001dB,-8.99964528974858e+001°)
9.12010839355921e+001	(9.97285350124051e+001dB,-8.99964118239719e+001°)
9.22571427154775e+001	(9.96285349500484e+001dB,-8.99963702748489e+001°)
9.33254300797003e+001	(9.95285348862393e+001dB,-8.99963282446097e+001°)
9.44060876285936e+001	(9.94285348209438e+001dB,-8.99962857276832e+001°)
9.54992586021448e+001	(9.93285347541274e+001dB,-8.99962427184338e+001°)
9.66050878989826e+001	(9.92285346857546e+001dB,-8.99961992111606e+001°)
9.77237220955824e+001	(9.91285346157893e+001dB,-8.99961552000968e+001°)
9.88553094656952e+001	(9.90285345441942e+001dB,-8.99961106794088e+001°)
1.00000000000001e+002	(9.89285344709315e+001dB,-8.99960656431955e+001°)
1.01157945425991e+002	(9.88285343959622e+001dB,-8.99960200854872e+001°)
1.02329299228077e+002	(9.87285343192467e+001dB,-8.99959740002454e+001°)
1.03514216667936e+002	(9.86285342407443e+001dB,-8.99959273813615e+001°)
1.04712854805091e+002	(9.85285341604133e+001dB,-8.99958802226563e+001°)
1.05925372517730e+002	(9.84285340782111e+001dB,-8.99958325178788e+001°)
1.07151930523762e+002	(9.83285339940942e+001dB,-8.99957842607059e+001°)
1.08392691402122e+002	(9.82285339080180e+001dB,-8.99957354447411e+001°)
1.09647819614320e+002	(9.81285338199368e+001dB,-8.99956860635140e+001°)
1.10917481526242e+002	(9.80285337298040e+001dB,-8.99956361104790e+001°)
1.12201845430198e+002	(9.79285336375717e+001dB,-8.99955855790150e+001°)
1.13501081567233e+002	(9.78285335431910e+001dB,-8.99955344624240e+001°)
1.14815362149690e+002	(9.77285334466119e+001dB,-8.99954827539306e+001°)
1.16144861384036e+002	(9.76285333477831e+001dB,-8.99954304466809e+001°)
1.17489755493955e+002	(9.75285332466524e+001dB,-8.99953775337416e+001°)
1.18850222743704e+002	(9.74285331431660e+001dB,-8.99953240080991e+001°)
1.20226443461743e+002	(9.73285330372691e+001dB,-8.99952698626587e+001°)
1.21618600064639e+002	(9.72285329289056e+001dB,-8.99952150902435e+001°)
1.23026877081240e+002	(9.71285328180179e+001dB,-8.99951596835933e+001°)
1.24451461177140e+002	(9.70285327045474e+001dB,-8.99951036353641e+001°)
1.25892541179419e+002	(9.69285325884337e+001dB,-8.99950469381268e+001°)
1.27350308101668e+002	(9.68285324696155e+001dB,-8.99949895843662e+001°)
1.28824955169315e+002	(9.67285323480296e+001dB,-8.99949315664801e+001°)
1.30316677845232e+002	(9.66285322236116e+001dB,-8.99948728767783e+001°)
1.31825673855643e+002	(9.65285320962955e+001dB,-8.99948135074815e+001°)
1.33352143216334e+002	(9.64285319660138e+001dB,-8.99947534507203e+001°)
1.34896288259167e+002	(9.63285318326975e+001dB,-8.99946926985343e+001°)
1.36458313658895e+002	(9.62285316962759e+001dB,-8.99946312428709e+001°)
1.38038426460291e+002	(9.61285315566766e+001dB,-8.99945690755841e+001°)
1.39636836105596e+002	(9.60285314138256e+001dB,-8.99945061884338e+001°)
1.41253754462278e+002	(9.59285312676471e+001dB,-8.99944425730842e+001°)
1.42889395851113e+002	(9.58285311180638e+001dB,-8.99943782211032e+001°)
1.44543977074595e+002	(9.57285309649962e+001dB,-8.99943131239611e+001°)
1.46217717445674e+002	(9.56285308083631e+001dB,-8.99942472730292e+001°)
1.47910838816823e+002	(9.55285306480817e+001dB,-8.99941806595791e+001°)
1.49623565609446e+002	(9.54285304840668e+001dB,-8.99941132747812e+001°)
1.51356124843623e+002	(9.53285303162315e+001dB,-8.99940451097037e+001°)
1.53108746168206e+002	(9.52285301444868e+001dB,-8.99939761553114e+001°)
1.54881661891251e+002	(9.51285299687416e+001dB,-8.99939064024644e+001°)
1.56675107010818e+002	(9.50285297889028e+001dB,-8.99938358419170e+001°)
1.58489319246114e+002	(9.49285296048750e+001dB,-8.99937644643165e+001°)
1.60324539069007e+002	(9.48285294165607e+001dB,-8.99936922602019e+001°)
1.62181009735896e+002	(9.47285292238600e+001dB,-8.99936192200026e+001°)
1.64058977319957e+002	(9.46285290266706e+001dB,-8.99935453340370e+001°)
1.65958690743759e+002	(9.45285288248882e+001dB,-8.99934705925118e+001°)
1.67880401812259e+002	(9.44285286184056e+001dB,-8.99933949855200e+001°)
1.69824365246177e+002	(9.43285284071134e+001dB,-8.99933185030398e+001°)
1.71790838715762e+002	(9.42285281908996e+001dB,-8.99932411349337e+001°)
1.73780082874941e+002	(9.41285279696495e+001dB,-8.99931628709465e+001°)
1.75792361395872e+002	(9.40285277432458e+001dB,-8.99930837007044e+001°)
1.77827941003895e+002	(9.39285275115685e+001dB,-8.99930036137134e+001°)
1.79887091512882e+002	(9.38285272744948e+001dB,-8.99929225993581e+001°)
1.81970085861002e+002	(9.37285270318988e+001dB,-8.99928406469001e+001°)
1.84077200146899e+002	(9.36285267836521e+001dB,-8.99927577454766e+001°)
1.86208713666290e+002	(9.35285265296230e+001dB,-8.99926738840991e+001°)
1.88364908948983e+002	(9.34285262696767e+001dB,-8.99925890516518e+001°)
1.90546071796328e+002	(9.33285260036756e+001dB,-8.99925032368902e+001°)
1.92752491319097e+002	(9.32285257314784e+001dB,-8.99924164284397e+001°)
1.94984459975808e+002	(9.31285254529409e+001dB,-8.99923286147939e+001°)
1.97242273611489e+002	(9.30285251679155e+001dB,-8.99922397843130e+001°)
1.99526231496892e+002	(9.29285248762510e+001dB,-8.99921499252227e+001°)
2.01836636368160e+002	(9.28285245777927e+001dB,-8.99920590256122e+001°)
2.04173794466957e+002	(9.27285242723825e+001dB,-8.99919670734328e+001°)
2.06538015581057e+002	(9.26285239598582e+001dB,-8.99918740564963e+001°)
2.08929613085408e+002	(9.25285236400544e+001dB,-8.99917799624733e+001°)
2.11348903983668e+002	(9.24285233128013e+001dB,-8.99916847788919e+001°)
2.13796208950227e+002	(9.23285229779256e+001dB,-8.99915884931353e+001°)
2.16271852372706e+002	(9.22285226352495e+001dB,-8.99914910924410e+001°)
2.18776162394959e+002	(9.21285222845915e+001dB,-8.99913925638986e+001°)
2.21309470960568e+002	(9.20285219257656e+001dB,-8.99912928944482e+001°)
2.23872113856838e+002	(9.19285215585816e+001dB,-8.99911920708785e+001°)
2.26464430759310e+002	(9.18285211828447e+001dB,-8.99910900798256e+001°)
2.29086765276782e+002	(9.17285207983558e+001dB,-8.99909869077706e+001°)
2.31739464996852e+002	(9.16285204049110e+001dB,-8.99908825410379e+001°)
2.34422881531997e+002	(9.15285200023016e+001dB,-8.99907769657940e+001°)
2.37137370566170e+002	(9.14285195903143e+001dB,-8.99906701680447e+001°)
2.39883291901954e+002	(9.13285191687305e+001dB,-8.99905621336342e+001°)
