Freq.	V(vo)
Step Information: 1=1  (Run: 1/11)
1.00000000000000e+001	(-4.48394980705334e+001dB,-9.00036937022891e+001°)
1.02329299228075e+001	(-4.46394980698107e+001dB,-9.00037797396683e+001°)
1.04712854805090e+001	(-4.44394980690538e+001dB,-9.00038677811156e+001°)
1.07151930523761e+001	(-4.42394980682613e+001dB,-9.00039578733117e+001°)
1.09647819614319e+001	(-4.40394980674314e+001dB,-9.00040500640247e+001°)
1.12201845430196e+001	(-4.38394980665624e+001dB,-9.00041444021352e+001°)
1.14815362149688e+001	(-4.36394980656525e+001dB,-9.00042409376627e+001°)
1.17489755493953e+001	(-4.34394980646997e+001dB,-9.00043397217915e+001°)
1.20226443461741e+001	(-4.32394980637019e+001dB,-9.00044408068983e+001°)
1.23026877081238e+001	(-4.30394980626572e+001dB,-9.00045442465797e+001°)
1.25892541179417e+001	(-4.28394980615632e+001dB,-9.00046500956809e+001°)
1.28824955169313e+001	(-4.26394980604177e+001dB,-9.00047584103244e+001°)
1.31825673855641e+001	(-4.24394980592182e+001dB,-9.00048692479402e+001°)
1.34896288259165e+001	(-4.22394980579621e+001dB,-9.00049826672957e+001°)
1.38038426460288e+001	(-4.20394980566468e+001dB,-9.00050987285274e+001°)
1.41253754462275e+001	(-4.18394980552696e+001dB,-9.00052174931726e+001°)
1.44543977074593e+001	(-4.16394980538274e+001dB,-9.00053390242018e+001°)
1.47910838816821e+001	(-4.14394980523173e+001dB,-9.00054633860525e+001°)
1.51356124843621e+001	(-4.12394980507360e+001dB,-9.00055906446628e+001°)
1.54881661891248e+001	(-4.10394980490802e+001dB,-9.00057208675071e+001°)
1.58489319246111e+001	(-4.08394980473464e+001dB,-9.00058541236311e+001°)
1.62181009735893e+001	(-4.06394980455308e+001dB,-9.00059904836891e+001°)
1.65958690743756e+001	(-4.04394980436297e+001dB,-9.00061300199810e+001°)
1.69824365246174e+001	(-4.02394980416390e+001dB,-9.00062728064908e+001°)
1.73780082874937e+001	(-4.00394980395544e+001dB,-9.00064189189257e+001°)
1.77827941003892e+001	(-3.98394980373716e+001dB,-9.00065684347566e+001°)
1.81970085860998e+001	(-3.96394980350860e+001dB,-9.00067214332588e+001°)
1.86208713666287e+001	(-3.94394980326926e+001dB,-9.00068779955540e+001°)
1.90546071796325e+001	(-3.92394980301864e+001dB,-9.00070382046537e+001°)
1.94984459975804e+001	(-3.90394980275622e+001dB,-9.00072021455029e+001°)
1.99526231496888e+001	(-3.88394980248142e+001dB,-9.00073699050252e+001°)
2.04173794466953e+001	(-3.86394980219367e+001dB,-9.00075415721690e+001°)
2.08929613085404e+001	(-3.84394980189237e+001dB,-9.00077172379545e+001°)
2.13796208950223e+001	(-3.82394980157686e+001dB,-9.00078969955219e+001°)
2.18776162394955e+001	(-3.80394980124648e+001dB,-9.00080809401812e+001°)
2.23872113856834e+001	(-3.78394980090053e+001dB,-9.00082691694623e+001°)
2.29086765276777e+001	(-3.76394980053828e+001dB,-9.00084617831669e+001°)
2.34422881531992e+001	(-3.74394980015896e+001dB,-9.00086588834213e+001°)
2.39883291901949e+001	(-3.72394979976176e+001dB,-9.00088605747307e+001°)
2.45470891568503e+001	(-3.70394979934583e+001dB,-9.00090669640345e+001°)
2.51188643150958e+001	(-3.68394979891031e+001dB,-9.00092781607632e+001°)
2.57039578276886e+001	(-3.66394979845426e+001dB,-9.00094942768961e+001°)
2.63026799189538e+001	(-3.64394979797672e+001dB,-9.00097154270207e+001°)
2.69153480392691e+001	(-3.62394979747668e+001dB,-9.00099417283940e+001°)
2.75422870333816e+001	(-3.60394979695306e+001dB,-9.00101733010039e+001°)
2.81838293126445e+001	(-3.58394979640477e+001dB,-9.00104102676333e+001°)
2.88403150312660e+001	(-3.56394979583064e+001dB,-9.00106527539251e+001°)
2.95120922666638e+001	(-3.54394979522945e+001dB,-9.00109008884489e+001°)
3.01995172040201e+001	(-3.52394979459993e+001dB,-9.00111548027688e+001°)
3.09029543251359e+001	(-3.50394979394074e+001dB,-9.00114146315137e+001°)
3.16227766016838e+001	(-3.48394979325049e+001dB,-9.00116805124482e+001°)
3.23593656929628e+001	(-3.46394979252770e+001dB,-9.00119525865461e+001°)
3.31131121482591e+001	(-3.44394979177085e+001dB,-9.00122309980646e+001°)
3.38844156139202e+001	(-3.42394979097833e+001dB,-9.00125158946214e+001°)
3.46736850452531e+001	(-3.40394979014846e+001dB,-9.00128074272725e+001°)
3.54813389233575e+001	(-3.38394978927948e+001dB,-9.00131057505924e+001°)
3.63078054770101e+001	(-3.36394978836954e+001dB,-9.00134110227561e+001°)
3.71535229097172e+001	(-3.34394978741672e+001dB,-9.00137234056232e+001°)
3.80189396320561e+001	(-3.32394978641900e+001dB,-9.00140430648232e+001°)
3.89045144994280e+001	(-3.30394978537425e+001dB,-9.00143701698439e+001°)
3.98107170553497e+001	(-3.28394978428027e+001dB,-9.00147048941207e+001°)
4.07380277804112e+001	(-3.26394978313473e+001dB,-9.00150474151291e+001°)
4.16869383470335e+001	(-3.24394978193520e+001dB,-9.00153979144783e+001°)
4.26579518801592e+001	(-3.22394978067914e+001dB,-9.00157565780079e+001°)
4.36515832240165e+001	(-3.20394977936388e+001dB,-9.00161235958863e+001°)
4.46683592150962e+001	(-3.18394977798664e+001dB,-9.00164991627113e+001°)
4.57088189614874e+001	(-3.16394977654449e+001dB,-9.00168834776136e+001°)
4.67735141287197e+001	(-3.14394977503437e+001dB,-9.00172767443623e+001°)
4.78630092322638e+001	(-3.12394977345308e+001dB,-9.00176791714729e+001°)
4.89778819368445e+001	(-3.10394977179727e+001dB,-9.00180909723177e+001°)
5.01187233627271e+001	(-3.08394977006343e+001dB,-9.00185123652393e+001°)
5.12861383991364e+001	(-3.06394976824787e+001dB,-9.00189435736660e+001°)
5.24807460249772e+001	(-3.04394976634674e+001dB,-9.00193848262306e+001°)
5.37031796370252e+001	(-3.02394976435602e+001dB,-9.00198363568913e+001°)
5.49540873857624e+001	(-3.00394976227148e+001dB,-9.00202984050560e+001°)
5.62341325190348e+001	(-2.98394976008870e+001dB,-9.00207712157091e+001°)
5.75439937337156e+001	(-2.96394975780304e+001dB,-9.00212550395414e+001°)
5.88843655355588e+001	(-2.94394975540967e+001dB,-9.00217501330832e+001°)
6.02559586074357e+001	(-2.92394975290350e+001dB,-9.00222567588400e+001°)
6.16595001861481e+001	(-2.90394975027922e+001dB,-9.00227751854321e+001°)
6.30957344480192e+001	(-2.88394974753126e+001dB,-9.00233056877364e+001°)
6.45654229034654e+001	(-2.86394974465379e+001dB,-9.00238485470330e+001°)
6.60693448007595e+001	(-2.84394974164071e+001dB,-9.00244040511536e+001°)
6.76082975391980e+001	(-2.82394973848563e+001dB,-9.00249724946344e+001°)
6.91830970918935e+001	(-2.80394973518185e+001dB,-9.00255541788723e+001°)
7.07945784384136e+001	(-2.78394973172238e+001dB,-9.00261494122849e+001°)
7.24435960074988e+001	(-2.76394972809986e+001dB,-9.00267585104734e+001°)
7.41310241300916e+001	(-2.74394972430662e+001dB,-9.00273817963906e+001°)
7.58577575029182e+001	(-2.72394972033461e+001dB,-9.00280196005118e+001°)
7.76247116628690e+001	(-2.70394971617540e+001dB,-9.00286722610102e+001°)
7.94328234724279e+001	(-2.68394971182017e+001dB,-9.00293401239359e+001°)
8.12830516164097e+001	(-2.66394970725970e+001dB,-9.00300235433999e+001°)
8.31763771102669e+001	(-2.64394970248429e+001dB,-9.00307228817613e+001°)
8.51138038202374e+001	(-2.62394969748382e+001dB,-9.00314385098199e+001°)
8.70963589956078e+001	(-2.60394969224769e+001dB,-9.00321708070123e+001°)
8.91250938133743e+001	(-2.58394968676479e+001dB,-9.00329201616138e+001°)
9.12010839355907e+001	(-2.56394968102349e+001dB,-9.00336869709435e+001°)
9.33254300796988e+001	(-2.54394967501160e+001dB,-9.00344716415756e+001°)
9.54992586021433e+001	(-2.52394966871639e+001dB,-9.00352745895546e+001°)
9.77237220955808e+001	(-2.50394966212449e+001dB,-9.00360962406159e+001°)
9.99999999999997e+001	(-2.48394965522193e+001dB,-9.00369370304119e+001°)
1.02329299228075e+002	(-2.46394964799406e+001dB,-9.00377974047425e+001°)
1.04712854805090e+002	(-2.44394964042554e+001dB,-9.00386778197920e+001°)
1.07151930523760e+002	(-2.42394963250034e+001dB,-9.00395787423705e+001°)
1.09647819614318e+002	(-2.40394962420163e+001dB,-9.00405006501618e+001°)
1.12201845430196e+002	(-2.38394961551182e+001dB,-9.00414440319764e+001°)
1.14815362149688e+002	(-2.36394960641247e+001dB,-9.00424093880109e+001°)
1.17489755493953e+002	(-2.34394959688428e+001dB,-9.00433972301130e+001°)
1.20226443461741e+002	(-2.32394958690704e+001dB,-9.00444080820532e+001°)
1.23026877081238e+002	(-2.30394957645959e+001dB,-9.00454424798024e+001°)
1.25892541179416e+002	(-2.28394956551976e+001dB,-9.00465009718159e+001°)
1.28824955169313e+002	(-2.26394955406436e+001dB,-9.00475841193246e+001°)
1.31825673855640e+002	(-2.24394954206908e+001dB,-9.00486924966320e+001°)
1.34896288259165e+002	(-2.22394952950848e+001dB,-9.00498266914195e+001°)
1.38038426460288e+002	(-2.20394951635592e+001dB,-9.00509873050575e+001°)
1.41253754462275e+002	(-2.18394950258349e+001dB,-9.00521749529244e+001°)
1.44543977074592e+002	(-2.16394948816200e+001dB,-9.00533902647327e+001°)
1.47910838816820e+002	(-2.14394947306084e+001dB,-9.00546338848635e+001°)
1.51356124843620e+002	(-2.12394945724798e+001dB,-9.00559064727075e+001°)
1.54881661891248e+002	(-2.10394944068989e+001dB,-9.00572087030152e+001°)
1.58489319246111e+002	(-2.08394942335144e+001dB,-9.00585412662542e+001°)
1.62181009735892e+002	(-2.06394940519585e+001dB,-9.00599048689758e+001°)
1.65958690743755e+002	(-2.04394938618462e+001dB,-9.00613002341893e+001°)
1.69824365246174e+002	(-2.02394936627742e+001dB,-9.00627281017459e+001°)
1.73780082874937e+002	(-2.00394934543202e+001dB,-9.00641892287301e+001°)
1.77827941003892e+002	(-1.98394932360420e+001dB,-9.00656843898623e+001°)
1.81970085860998e+002	(-1.96394930074768e+001dB,-9.00672143779087e+001°)
1.86208713666286e+002	(-1.94394927681396e+001dB,-9.00687800041023e+001°)
1.90546071796324e+002	(-1.92394925175228e+001dB,-9.00703820985725e+001°)
1.94984459975804e+002	(-1.90394922550948e+001dB,-9.00720215107861e+001°)
1.99526231496887e+002	(-1.88394919802990e+001dB,-9.00736991099970e+001°)
2.04173794466952e+002	(-1.86394916925525e+001dB,-9.00754157857076e+001°)
2.08929613085403e+002	(-1.84394913912449e+001dB,-9.00771724481405e+001°)
2.13796208950222e+002	(-1.82394910757371e+001dB,-9.00789700287208e+001°)
2.18776162394954e+002	(-1.80394907453600e+001dB,-9.00808094805708e+001°)
2.23872113856833e+002	(-1.78394903994126e+001dB,-9.00826917790145e+001°)
2.29086765276776e+002	(-1.76394900371613e+001dB,-9.00846179220958e+001°)
2.34422881531991e+002	(-1.74394896578376e+001dB,-9.00865889311070e+001°)
2.39883291901948e+002	(-1.72394892606370e+001dB,-9.00886058511310e+001°)
2.45470891568502e+002	(-1.70394888447169e+001dB,-9.00906697515950e+001°)
2.51188643150957e+002	(-1.68394884091952e+001dB,-9.00927817268384e+001°)
2.57039578276885e+002	(-1.66394879531480e+001dB,-9.00949428966924e+001°)
2.63026799189537e+002	(-1.64394874756079e+001dB,-9.00971544070744e+001°)
2.69153480392690e+002	(-1.62394869755622e+001dB,-9.00994174305957e+001°)
2.75422870333816e+002	(-1.60394864519500e+001dB,-9.01017331671833e+001°)
2.81838293126444e+002	(-1.58394859036609e+001dB,-9.01041028447162e+001°)
2.88403150312659e+002	(-1.56394853295317e+001dB,-9.01065277196771e+001°)
2.95120922666637e+002	(-1.54394847283447e+001dB,-9.01090090778184e+001°)
3.01995172040200e+002	(-1.52394840988247e+001dB,-9.01115482348443e+001°)
3.09029543251358e+002	(-1.50394834396364e+001dB,-9.01141465371089e+001°)
3.16227766016837e+002	(-1.48394827493816e+001dB,-9.01168053623296e+001°)
3.23593656929627e+002	(-1.46394820265962e+001dB,-9.01195261203192e+001°)
3.31131121482590e+002	(-1.44394812697471e+001dB,-9.01223102537321e+001°)
3.38844156139201e+002	(-1.42394804772288e+001dB,-9.01251592388311e+001°)
3.46736850452530e+002	(-1.40394796473605e+001dB,-9.01280745862695e+001°)
3.54813389233574e+002	(-1.38394787783818e+001dB,-9.01310578418927e+001°)
3.63078054770100e+002	(-1.36394778684495e+001dB,-9.01341105875585e+001°)
3.71535229097171e+002	(-1.34394769156336e+001dB,-9.01372344419759e+001°)
3.80189396320559e+002	(-1.32394759179131e+001dB,-9.01404310615645e+001°)
3.89045144994279e+002	(-1.30394748731716e+001dB,-9.01437021413324e+001°)
3.98107170553495e+002	(-1.28394737791931e+001dB,-9.01470494157761e+001°)
4.07380277804111e+002	(-1.26394726336573e+001dB,-9.01504746598006e+001°)
4.16869383470333e+002	(-1.24394714341343e+001dB,-9.01539796896611e+001°)
4.26579518801591e+002	(-1.22394701780798e+001dB,-9.01575663639267e+001°)
4.36515832240164e+002	(-1.20394688628295e+001dB,-9.01612365844667e+001°)
4.46683592150961e+002	(-1.18394674855938e+001dB,-9.01649922974594e+001°)
4.57088189614873e+002	(-1.16394660434513e+001dB,-9.01688354944255e+001°)
4.67735141287196e+002	(-1.14394645333430e+001dB,-9.01727682132844e+001°)
4.78630092322636e+002	(-1.12394629520660e+001dB,-9.01767925394357e+001°)
4.89778819368444e+002	(-1.10394612962662e+001dB,-9.01809106068665e+001°)
5.01187233627270e+002	(-1.08394595624315e+001dB,-9.01851245992835e+001°)
5.12861383991362e+002	(-1.06394577468842e+001dB,-9.01894367512721e+001°)
5.24807460249770e+002	(-1.04394558457735e+001dB,-9.01938493494826e+001°)
5.37031796370250e+002	(-1.02394538550668e+001dB,-9.01983647338440e+001°)
5.49540873857622e+002	(-1.00394517705418e+001dB,-9.02029852988062e+001°)
5.62341325190346e+002	(-9.83944958777691e+000dB,-9.02077134946110e+001°)
5.75439937337154e+002	(-9.63944730214241e+000dB,-9.02125518285931e+001°)
5.88843655355586e+002	(-9.43944490879026e+000dB,-9.02175028665111e+001°)
6.02559586074355e+002	(-9.23944240264398e+000dB,-9.02225692339103e+001°)
6.16595001861479e+002	(-9.03943977838786e+000dB,-9.02277536175166e+001°)
6.30957344480190e+002	(-8.83943703045565e+000dB,-9.02330587666631e+001°)
6.45654229034652e+002	(-8.63943415301881e+000dB,-9.02384874947507e+001°)
6.60693448007592e+002	(-8.43943113997411e+000dB,-9.02440426807421e+001°)
6.76082975391978e+002	(-8.23942798493070e+000dB,-9.02497272706909e+001°)
6.91830970918933e+002	(-8.03942468119654e+000dB,-9.02555442793071e+001°)
7.07945784384134e+002	(-7.83942122176427e+000dB,-9.02614967915581e+001°)
7.24435960074986e+002	(-7.63941759929623e+000dB,-9.02675879643082e+001°)
7.41310241300914e+002	(-7.43941380610900e+000dB,-9.02738210279959e+001°)
7.58577575029180e+002	(-7.23940983415708e+000dB,-9.02801992883508e+001°)
7.76247116628688e+002	(-7.03940567501580e+000dB,-9.02867261281503e+001°)
7.94328234724277e+002	(-6.83940131986351e+000dB,-9.02934050090176e+001°)
8.12830516164095e+002	(-6.63939675946278e+000dB,-9.03002394732624e+001°)
8.31763771102666e+002	(-6.43939198414092e+000dB,-9.03072331457636e+001°)
8.51138038202372e+002	(-6.23938698376937e+000dB,-9.03143897358974e+001°)
8.70963589956076e+002	(-6.03938174774228e+000dB,-9.03217130395092e+001°)
8.91250938133741e+002	(-5.83937626495402e+000dB,-9.03292069409335e+001°)
9.12010839355905e+002	(-5.63937052377557e+000dB,-9.03368754150593e+001°)
9.33254300796986e+002	(-5.43936451202993e+000dB,-9.03447225294455e+001°)
9.54992586021431e+002	(-5.23935821696628e+000dB,-9.03527524464852e+001°)
9.77237220955805e+002	(-5.03935162523288e+000dB,-9.03609694256209e+001°)
9.99999999999994e+002	(-4.83934472284887e+000dB,-9.03693778256120e+001°)
1.02329299228075e+003	(-4.63933749517450e+000dB,-9.03779821068554e+001°)
1.04712854805089e+003	(-4.43932992688019e+000dB,-9.03867868337607e+001°)
1.07151930523760e+003	(-4.23932200191396e+000dB,-9.03957966771815e+001°)
1.09647819614318e+003	(-4.03931370346743e+000dB,-9.04050164169034e+001°)
1.12201845430196e+003	(-3.83930501394015e+000dB,-9.04144509441914e+001°)
1.14815362149688e+003	(-3.63929591490232e+000dB,-9.04241052643963e+001°)
1.17489755493952e+003	(-3.43928638705566e+000dB,-9.04339844996237e+001°)
1.20226443461741e+003	(-3.23927641019256e+000dB,-9.04440938914650e+001°)
1.23026877081237e+003	(-3.03926596315316e+000dB,-9.04544388037932e+001°)
1.25892541179416e+003	(-2.83925502378055e+000dB,-9.04650247256250e+001°)
1.28824955169313e+003	(-2.63924356887378e+000dB,-9.04758572740501e+001°)
1.31825673855640e+003	(-2.43923157413864e+000dB,-9.04869421972300e+001°)
1.34896288259165e+003	(-2.23921901413619e+000dB,-9.04982853774677e+001°)
1.38038426460288e+003	(-2.03920586222883e+000dB,-9.05098928343500e+001°)
1.41253754462275e+003	(-1.83919209052381e+000dB,-9.05217707279647e+001°)
1.44543977074592e+003	(-1.63917766981411e+000dB,-9.05339253621937e+001°)
1.47910838816820e+003	(-1.43916256951655e+000dB,-9.05463631880839e+001°)
1.51356124843620e+003	(-1.23914675760692e+000dB,-9.05590908072993e+001°)
1.54881661891247e+003	(-1.03913020055212e+000dB,-9.05721149756542e+001°)
1.58489319246110e+003	(-8.39112863239097e-001dB,-9.05854426067309e+001°)
1.62181009735892e+003	(-6.39094708900413e-001dB,-9.05990807755836e+001°)
1.65958690743755e+003	(-4.39075699036304e-001dB,-9.06130367225306e+001°)
1.69824365246173e+003	(-2.39055793333100e-001dB,-9.06273178570368e+001°)
1.73780082874936e+003	(-3.90349495777853e-002dB,-9.06419317616899e+001°)
1.77827941003891e+003	(1.60986876431449e-001dB,-9.06568861962703e+001°)
1.81970085860997e+003	(3.61009730978903e-001dB,-9.06721891019200e+001°)
1.86208713666286e+003	(5.61033662529401e-001dB,-9.06878486054107e+001°)
1.90546071796323e+003	(7.61058721831022e-001dB,-9.07038730235145e+001°)
1.94984459975803e+003	(9.61084962022614e-001dB,-9.07202708674800e+001°)
1.99526231496887e+003	(1.16111243874636e+000dB,-9.07370508476166e+001°)
2.04173794466952e+003	(1.36114121026568e+000dB,-9.07542218779882e+001°)
2.08929613085403e+003	(1.56117133758865e+000dB,-9.07717930812220e+001°)
2.13796208950222e+003	(1.76120288459725e+000dB,-9.07897737934323e+001°)
2.18776162394954e+003	(1.96123591818267e+000dB,-9.08081735692650e+001°)
2.23872113856832e+003	(2.16127050838698e+000dB,-9.08270021870634e+001°)
2.29086765276776e+003	(2.36130672855147e+000dB,-9.08462696541611e+001°)
2.34422881531991e+003	(2.56134465547200e+000dB,-9.08659862123027e+001°)
2.39883291901947e+003	(2.76138436956159e+000dB,-9.08861623431983e+001°)
2.45470891568501e+003	(2.96142595502070e+000dB,-9.09068087742133e+001°)
2.51188643150956e+003	(3.16146950001551e+000dB,-9.09279364841979e+001°)
2.57039578276885e+003	(3.36151509686457e+000dB,-9.09495567094608e+001°)
2.63026799189536e+003	(3.56156284223421e+000dB,-9.09716809498892e+001°)
2.69153480392690e+003	(3.76161283734318e+000dB,-9.09943209752213e+001°)
2.75422870333815e+003	(3.96166518817686e+000dB,-9.10174888314738e+001°)
2.81838293126443e+003	(4.16172000571155e+000dB,-9.10411968475293e+001°)
2.88403150312659e+003	(4.36177740614929e+000dB,-9.10654576418884e+001°)
2.95120922666636e+003	(4.56183751116374e+000dB,-9.10902841295900e+001°)
3.01995172040199e+003	(4.76190044815755e+000dB,-9.11156895293060e+001°)
3.09029543251357e+003	(4.96196635053190e+000dB,-9.11416873706148e+001°)
3.16227766016836e+003	(5.16203535796859e+000dB,-9.11682915014577e+001°)
3.23593656929626e+003	(5.36210761672540e+000dB,-9.11955160957851e+001°)
3.31131121482589e+003	(5.56218327994543e+000dB,-9.12233756613973e+001°)
3.38844156139200e+003	(5.76226250798076e+000dB,-9.12518850479849e+001°)
3.46736850452529e+003	(5.96234546873142e+000dB,-9.12810594553766e+001°)
3.54813389233573e+003	(6.16243233800024e+000dB,-9.13109144419983e+001°)
3.63078054770099e+003	(6.36252329986430e+000dB,-9.13414659335518e+001°)
3.71535229097170e+003	(6.56261854706380e+000dB,-9.13727302319182e+001°)
3.80189396320558e+003	(6.76271828140920e+000dB,-9.14047240242947e+001°)
3.89045144994278e+003	(6.96282271420739e+000dB,-9.14374643925700e+001°)
3.98107170553494e+003	(7.16293206670779e+000dB,-9.14709688229474e+001°)
4.07380277804110e+003	(7.36304657056944e+000dB,-9.15052552158228e+001°)
4.16869383470332e+003	(7.56316646834984e+000dB,-9.15403418959253e+001°)
4.26579518801589e+003	(7.76329201401673e+000dB,-9.15762476227299e+001°)
4.36515832240162e+003	(7.96342347348377e+000dB,-9.16129916011504e+001°)
4.46683592150960e+003	(8.16356112517136e+000dB,-9.16505934925218e+001°)
4.57088189614871e+003	(8.36370526059351e+000dB,-9.16890734258823e+001°)
4.67735141287194e+003	(8.56385618497226e+000dB,-9.17284520095649e+001°)
4.78630092322634e+003	(8.76401421788079e+000dB,-9.17687503431081e+001°)
4.89778819368442e+003	(8.96417969391644e+000dB,-9.18099900294987e+001°)
5.01187233627268e+003	(9.16435296340529e+000dB,-9.18521931877569e+001°)
5.12861383991361e+003	(9.36453439313945e+000dB,-9.18953824658753e+001°)
5.24807460249768e+003	(9.56472436714883e+000dB,-9.19395810541268e+001°)
5.37031796370248e+003	(9.76492328750881e+000dB,-9.19848126987516e+001°)
