Freq.	V(vo)
Step Information: 1=1  (Run: 1/11)
1.00000000000000e+001	(-44.8394980705334dB,-90.0036937022891°)
1.02329299228075e+001	(-44.6394980698107dB,-90.0037797396683°)
1.04712854805090e+001	(-44.4394980690538dB,-90.0038677811156°)
1.07151930523761e+001	(-44.2394980682613dB,-90.0039578733117°)
1.09647819614319e+001	(-44.0394980674314dB,-90.0040500640247°)
1.12201845430196e+001	(-43.8394980665624dB,-90.0041444021352°)
1.14815362149688e+001	(-43.6394980656525dB,-90.0042409376627°)
1.17489755493953e+001	(-43.4394980646997dB,-90.0043397217915°)
1.20226443461741e+001	(-43.2394980637019dB,-90.0044408068983°)
1.23026877081238e+001	(-43.0394980626572dB,-90.0045442465797°)
1.25892541179417e+001	(-42.8394980615632dB,-90.0046500956809°)
1.28824955169313e+001	(-42.6394980604177dB,-90.0047584103244°)
1.31825673855641e+001	(-42.4394980592182dB,-90.0048692479402°)
1.34896288259165e+001	(-42.2394980579621dB,-90.0049826672957°)
1.38038426460288e+001	(-42.0394980566468dB,-90.0050987285274°)
1.41253754462275e+001	(-41.8394980552696dB,-90.0052174931726°)
1.44543977074593e+001	(-41.6394980538274dB,-90.0053390242018°)
1.47910838816821e+001	(-41.4394980523173dB,-90.0054633860525°)
1.51356124843621e+001	(-41.239498050736dB,-90.0055906446628°)
1.54881661891248e+001	(-41.0394980490802dB,-90.0057208675071°)
1.58489319246111e+001	(-40.8394980473464dB,-90.0058541236311°)
1.62181009735893e+001	(-40.6394980455308dB,-90.0059904836891°)
1.65958690743756e+001	(-40.4394980436297dB,-90.006130019981°)
1.69824365246174e+001	(-40.239498041639dB,-90.0062728064908°)
1.73780082874937e+001	(-40.0394980395544dB,-90.0064189189257°)
1.77827941003892e+001	(-39.8394980373716dB,-90.0065684347566°)
1.81970085860998e+001	(-39.639498035086dB,-90.0067214332588°)
1.86208713666287e+001	(-39.4394980326926dB,-90.006877995554°)
1.90546071796325e+001	(-39.2394980301864dB,-90.0070382046537°)
1.94984459975804e+001	(-39.0394980275622dB,-90.0072021455029°)
1.99526231496888e+001	(-38.8394980248142dB,-90.0073699050252°)
2.04173794466953e+001	(-38.6394980219367dB,-90.007541572169°)
2.08929613085404e+001	(-38.4394980189237dB,-90.0077172379545°)
2.13796208950223e+001	(-38.2394980157686dB,-90.0078969955219°)
2.18776162394955e+001	(-38.0394980124648dB,-90.0080809401812°)
2.23872113856834e+001	(-37.8394980090053dB,-90.0082691694623°)
2.29086765276777e+001	(-37.6394980053828dB,-90.0084617831669°)
2.34422881531992e+001	(-37.4394980015896dB,-90.0086588834213°)
2.39883291901949e+001	(-37.2394979976176dB,-90.0088605747307°)
2.45470891568503e+001	(-37.0394979934583dB,-90.0090669640345°)
2.51188643150958e+001	(-36.8394979891031dB,-90.0092781607632°)
2.57039578276886e+001	(-36.6394979845426dB,-90.0094942768961°)
2.63026799189538e+001	(-36.4394979797672dB,-90.0097154270207°)
2.69153480392691e+001	(-36.2394979747668dB,-90.009941728394°)
2.75422870333816e+001	(-36.0394979695306dB,-90.0101733010039°)
2.81838293126445e+001	(-35.8394979640477dB,-90.0104102676333°)
2.88403150312660e+001	(-35.6394979583064dB,-90.0106527539251°)
2.95120922666638e+001	(-35.4394979522945dB,-90.0109008884489°)
3.01995172040201e+001	(-35.2394979459993dB,-90.0111548027688°)
3.09029543251359e+001	(-35.0394979394074dB,-90.0114146315137°)
3.16227766016838e+001	(-34.8394979325049dB,-90.0116805124482°)
3.23593656929628e+001	(-34.639497925277dB,-90.0119525865461°)
3.31131121482591e+001	(-34.4394979177085dB,-90.0122309980646°)
3.38844156139202e+001	(-34.2394979097833dB,-90.0125158946214°)
3.46736850452531e+001	(-34.0394979014846dB,-90.0128074272725°)
3.54813389233575e+001	(-33.8394978927948dB,-90.0131057505924°)
3.63078054770101e+001	(-33.6394978836954dB,-90.0134110227561°)
3.71535229097172e+001	(-33.4394978741672dB,-90.0137234056232°)
3.80189396320561e+001	(-33.23949786419dB,-90.0140430648232°)
3.89045144994280e+001	(-33.0394978537425dB,-90.0143701698439°)
3.98107170553497e+001	(-32.8394978428027dB,-90.0147048941207°)
4.07380277804112e+001	(-32.6394978313473dB,-90.0150474151291°)
4.16869383470335e+001	(-32.439497819352dB,-90.0153979144783°)
4.26579518801592e+001	(-32.2394978067914dB,-90.0157565780079°)
4.36515832240165e+001	(-32.0394977936388dB,-90.0161235958863°)
4.46683592150962e+001	(-31.8394977798664dB,-90.0164991627113°)
4.57088189614874e+001	(-31.6394977654449dB,-90.0168834776136°)
4.67735141287197e+001	(-31.4394977503437dB,-90.0172767443623°)
4.78630092322638e+001	(-31.2394977345308dB,-90.0176791714729°)
4.89778819368445e+001	(-31.0394977179727dB,-90.0180909723177°)
5.01187233627271e+001	(-30.8394977006343dB,-90.0185123652393°)
5.12861383991364e+001	(-30.6394976824787dB,-90.018943573666°)
5.24807460249772e+001	(-30.4394976634674dB,-90.0193848262306°)
5.37031796370252e+001	(-30.2394976435602dB,-90.0198363568913°)
5.49540873857624e+001	(-30.0394976227148dB,-90.020298405056°)
5.62341325190348e+001	(-29.839497600887dB,-90.0207712157091°)
5.75439937337156e+001	(-29.6394975780304dB,-90.0212550395414°)
5.88843655355588e+001	(-29.4394975540967dB,-90.0217501330832°)
6.02559586074357e+001	(-29.239497529035dB,-90.02225675884°)
6.16595001861481e+001	(-29.0394975027922dB,-90.0227751854321°)
6.30957344480192e+001	(-28.8394974753126dB,-90.0233056877364°)
6.45654229034654e+001	(-28.6394974465379dB,-90.023848547033°)
6.60693448007595e+001	(-28.4394974164071dB,-90.0244040511536°)
6.76082975391980e+001	(-28.2394973848563dB,-90.0249724946344°)
6.91830970918935e+001	(-28.0394973518185dB,-90.0255541788723°)
7.07945784384136e+001	(-27.8394973172238dB,-90.0261494122849°)
7.24435960074988e+001	(-27.6394972809986dB,-90.0267585104734°)
7.41310241300916e+001	(-27.4394972430662dB,-90.0273817963906°)
7.58577575029182e+001	(-27.2394972033461dB,-90.0280196005118°)
7.76247116628690e+001	(-27.039497161754dB,-90.0286722610102°)
7.94328234724279e+001	(-26.8394971182017dB,-90.0293401239359°)
8.12830516164097e+001	(-26.639497072597dB,-90.0300235433999°)
8.31763771102669e+001	(-26.4394970248429dB,-90.0307228817613°)
8.51138038202374e+001	(-26.2394969748382dB,-90.0314385098199°)
8.70963589956078e+001	(-26.0394969224769dB,-90.0321708070123°)
8.91250938133743e+001	(-25.8394968676479dB,-90.0329201616138°)
9.12010839355907e+001	(-25.6394968102349dB,-90.0336869709435°)
9.33254300796988e+001	(-25.439496750116dB,-90.0344716415756°)
9.54992586021433e+001	(-25.2394966871639dB,-90.0352745895546°)
9.77237220955808e+001	(-25.0394966212449dB,-90.0360962406159°)
9.99999999999997e+001	(-24.8394965522193dB,-90.0369370304119°)
1.02329299228075e+002	(-24.6394964799406dB,-90.0377974047425°)
1.04712854805090e+002	(-24.4394964042554dB,-90.038677819792°)
1.07151930523760e+002	(-24.2394963250034dB,-90.0395787423705°)
1.09647819614318e+002	(-24.0394962420163dB,-90.0405006501618°)
1.12201845430196e+002	(-23.8394961551182dB,-90.0414440319764°)
1.14815362149688e+002	(-23.6394960641247dB,-90.0424093880109°)
1.17489755493953e+002	(-23.4394959688428dB,-90.043397230113°)
1.20226443461741e+002	(-23.2394958690704dB,-90.0444080820532°)
1.23026877081238e+002	(-23.0394957645959dB,-90.0454424798024°)
1.25892541179416e+002	(-22.8394956551976dB,-90.0465009718159°)
1.28824955169313e+002	(-22.6394955406436dB,-90.0475841193246°)
1.31825673855640e+002	(-22.4394954206908dB,-90.048692496632°)
1.34896288259165e+002	(-22.2394952950848dB,-90.0498266914195°)
1.38038426460288e+002	(-22.0394951635592dB,-90.0509873050575°)
1.41253754462275e+002	(-21.8394950258349dB,-90.0521749529244°)
1.44543977074592e+002	(-21.63949488162dB,-90.0533902647327°)
1.47910838816820e+002	(-21.4394947306084dB,-90.0546338848635°)
1.51356124843620e+002	(-21.2394945724798dB,-90.0559064727075°)
1.54881661891248e+002	(-21.0394944068989dB,-90.0572087030152°)
1.58489319246111e+002	(-20.8394942335144dB,-90.0585412662542°)
1.62181009735892e+002	(-20.6394940519585dB,-90.0599048689758°)
1.65958690743755e+002	(-20.4394938618462dB,-90.0613002341893°)
1.69824365246174e+002	(-20.2394936627742dB,-90.0627281017459°)
1.73780082874937e+002	(-20.0394934543202dB,-90.0641892287301°)
1.77827941003892e+002	(-19.839493236042dB,-90.0656843898623°)
1.81970085860998e+002	(-19.6394930074768dB,-90.0672143779087°)
1.86208713666286e+002	(-19.4394927681396dB,-90.0687800041023°)
1.90546071796324e+002	(-19.2394925175228dB,-90.0703820985725°)
1.94984459975804e+002	(-19.0394922550948dB,-90.0720215107861°)
1.99526231496887e+002	(-18.839491980299dB,-90.073699109997°)
2.04173794466952e+002	(-18.6394916925525dB,-90.0754157857076°)
2.08929613085403e+002	(-18.4394913912449dB,-90.0771724481405°)
2.13796208950222e+002	(-18.2394910757371dB,-90.0789700287208°)
2.18776162394954e+002	(-18.03949074536dB,-90.0808094805708°)
2.23872113856833e+002	(-17.8394903994126dB,-90.0826917790145°)
2.29086765276776e+002	(-17.6394900371613dB,-90.0846179220958°)
2.34422881531991e+002	(-17.4394896578376dB,-90.086588931107°)
2.39883291901948e+002	(-17.239489260637dB,-90.088605851131°)
2.45470891568502e+002	(-17.0394888447169dB,-90.090669751595°)
2.51188643150957e+002	(-16.8394884091952dB,-90.0927817268384°)
2.57039578276885e+002	(-16.639487953148dB,-90.0949428966924°)
2.63026799189537e+002	(-16.4394874756079dB,-90.0971544070744°)
2.69153480392690e+002	(-16.2394869755622dB,-90.0994174305957°)
2.75422870333816e+002	(-16.03948645195dB,-90.1017331671833°)
2.81838293126444e+002	(-15.8394859036609dB,-90.1041028447162°)
2.88403150312659e+002	(-15.6394853295317dB,-90.1065277196771°)
2.95120922666637e+002	(-15.4394847283447dB,-90.1090090778184°)
3.01995172040200e+002	(-15.2394840988247dB,-90.1115482348443°)
3.09029543251358e+002	(-15.0394834396364dB,-90.1141465371089°)
3.16227766016837e+002	(-14.8394827493816dB,-90.1168053623296°)
3.23593656929627e+002	(-14.6394820265962dB,-90.1195261203192°)
3.31131121482590e+002	(-14.4394812697471dB,-90.1223102537321°)
3.38844156139201e+002	(-14.2394804772288dB,-90.1251592388311°)
3.46736850452530e+002	(-14.0394796473605dB,-90.1280745862695°)
3.54813389233574e+002	(-13.8394787783818dB,-90.1310578418927°)
3.63078054770100e+002	(-13.6394778684495dB,-90.1341105875585°)
3.71535229097171e+002	(-13.4394769156336dB,-90.1372344419759°)
3.80189396320559e+002	(-13.2394759179131dB,-90.1404310615645°)
3.89045144994279e+002	(-13.0394748731716dB,-90.1437021413324°)
3.98107170553495e+002	(-12.8394737791931dB,-90.1470494157761°)
4.07380277804111e+002	(-12.6394726336573dB,-90.1504746598006°)
4.16869383470333e+002	(-12.4394714341343dB,-90.1539796896611°)
4.26579518801591e+002	(-12.2394701780798dB,-90.1575663639267°)
4.36515832240164e+002	(-12.0394688628295dB,-90.1612365844667°)
4.46683592150961e+002	(-11.8394674855938dB,-90.1649922974594°)
4.57088189614873e+002	(-11.6394660434513dB,-90.1688354944255°)
4.67735141287196e+002	(-11.439464533343dB,-90.1727682132844°)
4.78630092322636e+002	(-11.239462952066dB,-90.1767925394357°)
4.89778819368444e+002	(-11.0394612962662dB,-90.1809106068665°)
5.01187233627270e+002	(-10.8394595624315dB,-90.1851245992835°)
5.12861383991362e+002	(-10.6394577468842dB,-90.1894367512721°)
5.24807460249770e+002	(-10.4394558457735dB,-90.1938493494826°)
5.37031796370250e+002	(-10.2394538550668dB,-90.198364733844°)
5.49540873857622e+002	(-10.0394517705418dB,-90.2029852988062°)
5.62341325190346e+002	(-9.83944958777691dB,-90.207713494611°)
5.75439937337154e+002	(-9.63944730214241dB,-90.2125518285931°)
5.88843655355586e+002	(-9.43944490879026dB,-90.2175028665111°)
6.02559586074355e+002	(-9.23944240264398dB,-90.2225692339103°)
6.16595001861479e+002	(-9.03943977838786dB,-90.2277536175166°)
6.30957344480190e+002	(-8.83943703045565dB,-90.2330587666631°)
6.45654229034652e+002	(-8.63943415301881dB,-90.2384874947507°)
6.60693448007592e+002	(-8.43943113997411dB,-90.2440426807421°)
6.76082975391978e+002	(-8.2394279849307dB,-90.2497272706909°)
6.91830970918933e+002	(-8.03942468119654dB,-90.2555442793071°)
7.07945784384134e+002	(-7.83942122176427dB,-90.2614967915581°)
7.24435960074986e+002	(-7.63941759929623dB,-90.2675879643082°)
7.41310241300914e+002	(-7.439413806109dB,-90.2738210279959°)
7.58577575029180e+002	(-7.23940983415708dB,-90.2801992883508°)
7.76247116628688e+002	(-7.0394056750158dB,-90.2867261281503°)
7.94328234724277e+002	(-6.83940131986351dB,-90.2934050090176°)
8.12830516164095e+002	(-6.63939675946278dB,-90.3002394732624°)
8.31763771102666e+002	(-6.43939198414092dB,-90.3072331457636°)
8.51138038202372e+002	(-6.23938698376937dB,-90.3143897358974°)
8.70963589956076e+002	(-6.03938174774228dB,-90.3217130395092°)
8.91250938133741e+002	(-5.83937626495402dB,-90.3292069409335°)
9.12010839355905e+002	(-5.63937052377557dB,-90.3368754150593°)
9.33254300796986e+002	(-5.43936451202993dB,-90.3447225294455°)
9.54992586021431e+002	(-5.23935821696628dB,-90.3527524464852°)
9.77237220955805e+002	(-5.03935162523288dB,-90.3609694256209°)
9.99999999999994e+002	(-4.83934472284887dB,-90.369377825612°)
1.02329299228075e+003	(-4.6393374951745dB,-90.3779821068554°)
1.04712854805089e+003	(-4.43932992688019dB,-90.3867868337607°)
1.07151930523760e+003	(-4.23932200191396dB,-90.3957966771815°)
1.09647819614318e+003	(-4.03931370346743dB,-90.4050164169034°)
1.12201845430196e+003	(-3.83930501394015dB,-90.4144509441914°)
1.14815362149688e+003	(-3.63929591490232dB,-90.4241052643963°)
1.17489755493952e+003	(-3.43928638705566dB,-90.4339844996237°)
1.20226443461741e+003	(-3.23927641019256dB,-90.444093891465°)
1.23026877081237e+003	(-3.03926596315316dB,-90.4544388037932°)
1.25892541179416e+003	(-2.83925502378055dB,-90.465024725625°)
1.28824955169313e+003	(-2.63924356887378dB,-90.4758572740501°)
1.31825673855640e+003	(-2.43923157413864dB,-90.48694219723°)
1.34896288259165e+003	(-2.23921901413619dB,-90.4982853774677°)
1.38038426460288e+003	(-2.03920586222883dB,-90.50989283435°)
1.41253754462275e+003	(-1.83919209052381dB,-90.5217707279647°)
1.44543977074592e+003	(-1.63917766981411dB,-90.5339253621937°)
1.47910838816820e+003	(-1.43916256951655dB,-90.5463631880839°)
1.51356124843620e+003	(-1.23914675760692dB,-90.5590908072993°)
1.54881661891247e+003	(-1.03913020055212dB,-90.5721149756542°)
1.58489319246110e+003	(-0.839112863239097dB,-90.5854426067309°)
1.62181009735892e+003	(-0.639094708900413dB,-90.5990807755836°)
1.65958690743755e+003	(-0.439075699036304dB,-90.6130367225306°)
1.69824365246173e+003	(-0.2390557933331dB,-90.6273178570368°)
1.73780082874936e+003	(-0.0390349495777853dB,-90.6419317616899°)
1.77827941003891e+003	(0.160986876431449dB,-90.6568861962703°)
1.81970085860997e+003	(0.361009730978903dB,-90.67218910192°)
1.86208713666286e+003	(0.561033662529401dB,-90.6878486054107°)
1.90546071796323e+003	(0.761058721831022dB,-90.7038730235145°)
1.94984459975803e+003	(0.961084962022614dB,-90.72027086748°)
1.99526231496887e+003	(1.16111243874636dB,-90.7370508476166°)
2.04173794466952e+003	(1.36114121026568dB,-90.7542218779882°)
2.08929613085403e+003	(1.56117133758865dB,-90.771793081222°)
2.13796208950222e+003	(1.76120288459725dB,-90.7897737934323°)
2.18776162394954e+003	(1.96123591818267dB,-90.808173569265°)
2.23872113856832e+003	(2.16127050838698dB,-90.8270021870634°)
2.29086765276776e+003	(2.36130672855147dB,-90.8462696541611°)
2.34422881531991e+003	(2.561344655472dB,-90.8659862123027°)
2.39883291901947e+003	(2.76138436956159dB,-90.8861623431983°)
2.45470891568501e+003	(2.9614259550207dB,-90.9068087742133°)
2.51188643150956e+003	(3.16146950001551dB,-90.9279364841979°)
2.57039578276885e+003	(3.36151509686457dB,-90.9495567094608°)
2.63026799189536e+003	(3.56156284223421dB,-90.9716809498892°)
2.69153480392690e+003	(3.76161283734318dB,-90.9943209752213°)
2.75422870333815e+003	(3.96166518817686dB,-91.0174888314738°)
2.81838293126443e+003	(4.16172000571155dB,-91.0411968475293°)
2.88403150312659e+003	(4.36177740614929dB,-91.0654576418884°)
2.95120922666636e+003	(4.56183751116374dB,-91.09028412959°)
3.01995172040199e+003	(4.76190044815755dB,-91.115689529306°)
3.09029543251357e+003	(4.9619663505319dB,-91.1416873706148°)
3.16227766016836e+003	(5.16203535796859dB,-91.1682915014577°)
3.23593656929626e+003	(5.3621076167254dB,-91.1955160957851°)
3.31131121482589e+003	(5.56218327994543dB,-91.2233756613973°)
3.38844156139200e+003	(5.76226250798076dB,-91.2518850479849°)
3.46736850452529e+003	(5.96234546873142dB,-91.2810594553766°)
3.54813389233573e+003	(6.16243233800024dB,-91.3109144419983°)
3.63078054770099e+003	(6.3625232998643dB,-91.3414659335518°)
3.71535229097170e+003	(6.5626185470638dB,-91.3727302319182°)
3.80189396320558e+003	(6.7627182814092dB,-91.4047240242947°)
3.89045144994278e+003	(6.96282271420739dB,-91.43746439257°)
3.98107170553494e+003	(7.16293206670779dB,-91.4709688229474°)
4.07380277804110e+003	(7.36304657056944dB,-91.5052552158228°)
4.16869383470332e+003	(7.56316646834984dB,-91.5403418959253°)
4.26579518801589e+003	(7.76329201401673dB,-91.5762476227299°)
4.36515832240162e+003	(7.96342347348377dB,-91.6129916011504°)
4.46683592150960e+003	(8.16356112517136dB,-91.6505934925218°)
4.57088189614871e+003	(8.36370526059351dB,-91.6890734258823°)
4.67735141287194e+003	(8.56385618497226dB,-91.7284520095649°)
4.78630092322634e+003	(8.76401421788079dB,-91.7687503431081°)
4.89778819368442e+003	(8.96417969391644dB,-91.8099900294987°)
5.01187233627268e+003	(9.16435296340529dB,-91.8521931877569°)
5.12861383991361e+003	(9.36453439313945dB,-91.8953824658753°)
5.24807460249768e+003	(9.56472436714883dB,-91.9395810541268°)
5.37031796370248e+003	(9.76492328750881dB,-91.9848126987516°)
5.49540873857620e+003	(9.96513157518551dB,-92.03110171604°)
5.62341325190344e+003	(10.1653496709204dB,-92.078473006824°)
5.75439937337152e+003	(10.3655780361562dB,-92.1269520713937°)
5.88843655355584e+003	(10.5658171540054dB,-92.1765650248545°)
6.02559586074353e+003	(10.7660675302642dB,-92.2273386129421°)
6.16595001861477e+003	(10.9663296944734dB,-92.2793002283136°)
6.30957344480188e+003	(11.1666042010283dB,-92.3324779273323°)
6.45654229034650e+003	(11.3668916303401dB,-92.3869004473679°)
6.60693448007590e+003	(11.5671925900512dB,-92.4425972246312°)
6.76082975391976e+003	(11.7675077163068dB,-92.4995984125661°)
6.91830970918931e+003	(11.9678376750848dB,-92.5579349008223°)
7.07945784384132e+003	(12.1681831635875dB,-92.6176383348332°)
7.24435960074984e+003	(12.3685449116972dB,-92.6787411360235°)
7.41310241300911e+003	(12.5689236834996dB,-92.7412765226766°)
7.58577575029177e+003	(12.769320278876dB,-92.8052785314873°)
7.76247116628685e+003	(12.9697355351699dB,-92.8707820398334°)
7.94328234724275e+003	(13.1701703289294dB,-92.9378227887965°)
8.12830516164092e+003	(13.3706255777295dB,-93.0064374069668°)
8.31763771102664e+003	(13.5711022420784dB,-93.0766634350687°)
8.51138038202369e+003	(13.7716013274101dB,-93.1485393514449°)
8.70963589956073e+003	(13.9721238861686dB,-93.222104598439°)
8.91250938133738e+003	(14.1726710199864dB,-93.2973996097221°)
9.12010839355902e+003	(14.3732438819628dB,-93.3744658386064°)
9.33254300796983e+003	(14.5738436790449dB,-93.4533457873959°)
9.54992586021428e+003	(14.7744716745171dB,-93.5340830378262°)
9.77237220955802e+003	(14.9751291906024dB,-93.6167222826467°)
9.99999999999991e+003	(15.1758176111815dB,-93.7013093584046°)
1.02329299228075e+004	(15.3765383846344dB,-93.7878912794925°)
1.04712854805089e+004	(15.577293026809dB,-93.8765162735252°)
1.07151930523760e+004	(15.7780831241228dB,-93.9672338181158°)
1.09647819614318e+004	(15.9789103368033dB,-94.0600946791266°)
1.12201845430195e+004	(16.1797764022721dB,-94.1551509504724°)
1.14815362149687e+004	(16.3806831386793dB,-94.2524560955635°)
1.17489755493952e+004	(16.5816324485945dB,-94.3520649904767°)
1.20226443461740e+004	(16.7826263228597dB,-94.4540339689511°)
1.23026877081237e+004	(16.9836668446121dB,-94.5584208693119°)
1.25892541179416e+004	(17.1847561934813dB,-94.6652850834314°)
1.28824955169312e+004	(17.3858966499706dB,-94.7746876078442°)
1.31825673855640e+004	(17.5870906000273dB,-94.8866910971418°)
1.34896288259164e+004	(17.7883405398093dB,-95.0013599197793°)
1.38038426460287e+004	(17.9896490806574dB,-95.1187602164379°)
1.41253754462274e+004	(18.1910189542775dB,-95.2389599610954°)
1.44543977074591e+004	(18.3924530181441dB,-95.3620290249664°)
1.47910838816819e+004	(18.5939542611297dB,-95.4880392434889°)
1.51356124843619e+004	(18.7955258093694dB,-95.617064486542°)
