Freq.	V(n002)/-I(R2)
Step Information: 1=1  (Run: 1/11)
1.00000000000000e+001	(883948.3382408887dB,-89.9963449021228°)
1.02329299228075e+001	(863827.2174594271dB,-89.9962597637727°)
1.04712854805090e+001	(844164.1093027627dB,-89.996172642535°)
1.07151930523761e+001	(824948.5881306387dB,-89.9960834918495°)
1.09647819614319e+001	(806170.465619539dB,-89.9959922647148°)
1.12201845430196e+001	(787819.7853601442dB,-89.9958989124808°)
1.14815362149688e+001	(769886.8175790451dB,-89.9958033859206°)
1.17489755493953e+001	(752362.053979172dB,-89.9957056342364°)
1.20226443461741e+001	(735236.2026991558dB,-89.9956056057241°)
1.23026877081238e+001	(718500.1833857147dB,-89.9955032470857°)
1.25892541179417e+001	(702145.1223799845dB,-89.9953985042144°)
1.28824955169313e+001	(686162.348012156dB,-89.9952913215939°)
1.31825673855641e+001	(670543.3860036612dB,-89.9951816423408°)
1.34896288259165e+001	(655279.9549741398dB,-89.9950694085016°)
1.38038426460288e+001	(640363.9620503975dB,-89.9949545602614°)
1.41253754462275e+001	(625787.4985755349dB,-89.9948370368519°)
1.44543977074593e+001	(611542.8359156689dB,-89.9947167759276°)
1.47910838816821e+001	(597622.4213621838dB,-89.9945937138058°)
1.51356124843621e+001	(584018.8741269636dB,-89.9944677852549°)
1.54881661891248e+001	(570724.9814291585dB,-89.9943389234802°)
1.58489319246111e+001	(557733.694670995dB,-89.9942070599667°)
1.62181009735893e+001	(545038.1257002477dB,-89.9940721251252°)
1.65958690743756e+001	(532631.543158131dB,-89.9939340471522°)
1.69824365246174e+001	(520507.3689104245dB,-89.993792753027°)
1.73780082874937e+001	(508659.1745594108dB,-89.9936481676424°)
1.77827941003892e+001	(497080.6780357009dB,-89.9935002144468°)
1.81970085860998e+001	(485765.7402670953dB,-89.9933488149523°)
1.86208713666287e+001	(474708.3619238655dB,-89.9931938889483°)
1.90546071796325e+001	(463902.6802376557dB,-89.9930353543183°)
1.94984459975804e+001	(453342.96589291363dB,-89.9928731269855°)
1.99526231496888e+001	(443023.61998945574dB,-89.9927071206691°)
2.04173794466953e+001	(432939.1710734258dB,-89.9925372477065°)
2.08929613085404e+001	(423084.27223648125dB,-89.9923634178636°)
2.13796208950223e+001	(413453.69828088215dB,-89.9921855390397°)
2.18776162394955e+001	(404042.3429488238dB,-89.9920035167996°)
2.23872113856834e+001	(394845.21621513396dB,-89.9918172547405°)
2.29086765276777e+001	(385857.44164149347dB,-89.9916266541748°)
2.34422881531992e+001	(377074.2537907978dB,-89.9914316138755°)
2.39883291901949e+001	(368490.9957006328dB,-89.9912320305446°)
2.45470891568503e+001	(360103.1164139634dB,-89.9910277982285°)
2.51188643150958e+001	(351906.16856615624dB,-89.9908188087924°)
2.57039578276886e+001	(343895.8060269286dB,-89.9906049514301°)
2.63026799189538e+001	(336067.7815960604dB,-89.9903861126511°)
2.69153480392691e+001	(328417.94475138397dB,-89.9901621764165°)
2.75422870333816e+001	(320942.23944813106dB,-89.9899330240059°)
2.81838293126445e+001	(313636.7019683996dB,-89.9896985340828°)
2.88403150312660e+001	(306497.45881953946dB,-89.9894585821027°)
2.95120922666638e+001	(299520.7246803025dB,-89.9892130408936°)
3.01995172040201e+001	(292702.80039392516dB,-89.9889617803504°)
3.09029543251359e+001	(286040.07100671413dB,-89.9887046671537°)
3.16227766016838e+001	(279529.00385132065dB,-89.9884415651182°)
3.23593656929628e+001	(273166.14667377505dB,-89.98817233447°)
3.31131121482591e+001	(266948.1258029867dB,-89.9878968327581°)
3.38844156139202e+001	(260871.64436195488dB,-89.9876149137314°)
3.46736850452531e+001	(254933.48051984012dB,-89.9873264280136°)
3.54813389233575e+001	(249130.4857834985dB,-89.98703122263°)
3.63078054770101e+001	(243459.58332837943dB,-89.9867291409711°)
3.71535229097172e+001	(237917.76636691488dB,-89.9864200229409°)
3.80189396320561e+001	(232502.09655437226dB,-89.9861037046376°)
3.89045144994280e+001	(227209.70243096308dB,-89.9857800183091°)
3.98107170553497e+001	(222037.77789924506dB,-89.9854487923716°)
4.07380277804112e+001	(216983.58073640196dB,-89.9851098511687°)
4.16869383470335e+001	(212044.43114017713dB,-89.9847630149941°)
4.26579518801592e+001	(207217.71030808557dB,-89.9844080999929°)
4.36515832240165e+001	(202500.85904884286dB,-89.9840449179868°)
4.46683592150962e+001	(197891.37642549447dB,-89.9836732763323°)
4.57088189614874e+001	(193386.81842931898dB,-89.9832929780734°)
4.67735141287197e+001	(188984.79668405282dB,-89.9829038214749°)
4.78630092322638e+001	(184682.97717949675dB,-89.9825056002888°)
4.89778819368445e+001	(180479.07903401786dB,-89.9820981033429°)
5.01187233627271e+001	(176370.8732851724dB,-89.9816811145576°)
5.12861383991364e+001	(172356.18170786632dB,-89.9812544128474°)
5.24807460249772e+001	(168432.87565951276dB,-89.980817772004°)
5.37031796370252e+001	(164598.87495131648dB,-89.9803709604621°)
5.49540873857624e+001	(160852.14674533482dB,-89.9799137413167°)
5.62341325190348e+001	(157190.70447669888dB,-89.9794458721705°)
5.75439937337156e+001	(153612.6068002186dB,-89.9789671049831°)
5.88843655355588e+001	(150115.9565611856dB,-89.9784771858444°)
6.02559586074357e+001	(146698.8997893339dB,-89.9779758550408°)
6.16595001861481e+001	(143359.62471594958dB,-89.9774628467278°)
6.30957344480192e+001	(140096.36081316194dB,-89.9769378889114°)
6.45654229034654e+001	(136907.37785527366dB,-89.9764007032196°)
6.60693448007595e+001	(133790.98500132145dB,-89.9758510048978°)
6.76082975391980e+001	(130745.52989854255dB,-89.9752885024402°)
6.91830970918935e+001	(127769.39780634076dB,-89.9747128976013°)
7.07945784384136e+001	(124861.0107400837dB,-89.9741238852025°)
7.24435960074988e+001	(122018.82663443904dB,-89.9735211529246°)
7.41310241300916e+001	(119241.33852579555dB,-89.9729043812074°)
7.58577575029182e+001	(116527.0737531949dB,-89.9722732430114°)
7.76247116628690e+001	(113874.59317749925dB,-89.9716274037179°)
7.94328234724279e+001	(111282.49041842278dB,-89.9709665208793°)
8.12830516164097e+001	(108749.3911087592dB,-89.9702902440993°)
8.31763771102669e+001	(106273.95216574219dB,-89.9695982147811°)
8.51138038202374e+001	(103854.86107885178dB,-89.968890066021°)
8.70963589956078e+001	(101490.8352139939dB,-89.9681654223396°)
8.91250938133743e+001	(99180.62113335368dB,-89.9674238995303°)
9.12010839355907e+001	(96922.99393084958dB,-89.9666651044037°)
9.33254300796988e+001	(94716.75658265581dB,-89.9658886346667°)
9.54992586021433e+001	(92560.739312526dB,-89.9650940785946°)
9.77237220955808e+001	(90453.79897156713dB,-89.9642810149186°)
9.99999999999997e+001	(88394.81843211918dB,-89.9634490125287°)
1.02329299228075e+002	(86382.70599544895dB,-89.9625976303065°)
1.04712854805090e+002	(84416.39481290715dB,-89.9617264168054°)
1.07151930523760e+002	(82494.84232027858dB,-89.9608349100938°)
1.09647819614318e+002	(80617.02968499601dB,-89.9599226375153°)
1.12201845430196e+002	(78781.96126594533dB,-89.9589891153379°)
1.14815362149688e+002	(76988.66408556029dB,-89.9580338486028°)
1.17489755493953e+002	(75236.18731393917dB,-89.957056330809°)
1.20226443461741e+002	(73523.60176470019dB,-89.9560560436491°)
1.23026877081238e+002	(71849.99940231728dB,-89.9550324567784°)
1.25892541179416e+002	(70214.4928606641dB,-89.9539850274552°)
1.28824955169313e+002	(68616.21497252508dB,-89.9529132003282°)
1.31825673855640e+002	(67054.31830980662dB,-89.9518164070776°)
1.34896288259165e+002	(65527.974734225456dB,-89.9506940661938°)
1.38038426460288e+002	(64036.37495821364dB,-89.9495455825577°)
1.41253754462275e+002	(62578.72811582675dB,-89.9483703472316°)
1.44543977074592e+002	(61154.261343413455dB,-89.947167737094°)
1.47910838816820e+002	(59762.2193698375dB,-89.9459371145045°)
1.51356124843620e+002	(58401.86411601783dB,-89.9446778269449°)
1.54881661891248e+002	(57072.47430359188dB,-89.9433892067211°)
1.58489319246111e+002	(55773.34507248614dB,-89.9420705705897°)
1.62181009735892e+002	(54503.78760718484dB,-89.9407212193732°)
1.65958690743755e+002	(53263.12877151596dB,-89.9393404376406°)
1.69824365246174e+002	(52050.710751743456dB,-89.937927493242°)
1.73780082874937e+002	(50865.890707783205dB,-89.9364816370294°)
1.77827941003892e+002	(49708.04043236645dB,-89.9350021023633°)
1.81970085860998e+002	(48576.54601795026dB,-89.9334881047769°)
1.86208713666286e+002	(47470.807531219674dB,-89.9319388415099°)
1.90546071796324e+002	(46390.23869499299dB,-89.9303534911162°)
1.94984459975804e+002	(45334.26657736987dB,-89.9287312129736°)
1.99526231496887e+002	(44302.3312879554dB,-89.9270711469564°)
2.04173794466952e+002	(43293.88568100129dB,-89.9253724128417°)
2.08929613085403e+002	(42308.39506529771dB,-89.9236341099039°)
2.13796208950222e+002	(41345.33692067535dB,-89.9218553164819°)
2.18776162394954e+002	(40404.20062095873dB,-89.9200350893949°)
2.23872113856833e+002	(39484.48716322453dB,-89.9181724634998°)
2.29086765276776e+002	(38585.70890322351dB,-89.9162664512203°)
2.34422881531991e+002	(37707.38929682518dB,-89.9143160419052°)
2.39883291901948e+002	(36849.06264734851dB,-89.9123202014164°)
2.45470891568502e+002	(36010.27385864275dB,-89.9102778714891°)
2.51188643150957e+002	(35190.578193789224dB,-89.9081879692202°)
2.57039578276885e+002	(34389.54103929679dB,-89.9060493864927°)
2.63026799189537e+002	(33606.737674663076dB,-89.9038609893527°)
2.69153480392690e+002	(32841.75304718228dB,-89.9016216174598°)
2.75422870333816e+002	(32094.181551879665dB,-89.8993300834075°)
2.81838293126444e+002	(31363.626816452765dB,-89.8969851721681°)
2.88403150312659e+002	(30649.701491111085dB,-89.8945856403785°)
2.95120922666637e+002	(29952.027043196867dB,-89.8921302157255°)
3.01995172040200e+002	(29270.23355648333dB,-89.8896175962549°)
3.09029543251358e+002	(28603.959535039277dB,-89.8870464496893°)
3.16227766016837e+002	(27952.8517115592dB,-89.8844154127039°)
3.23593656929627e+002	(27316.56486005685dB,-89.8817230902213°)
3.31131121482590e+002	(26694.76161282125dB,-89.8789680546597°)
3.38844156139201e+002	(26087.11228154048dB,-89.8761488451891°)
3.46736850452530e+002	(25493.29468249545dB,-89.8732639669433°)
3.54813389233574e+002	(24912.993965735423dB,-89.8703118902375°)
3.63078054770100e+002	(24345.90244813904dB,-89.8672910497317°)
3.71535229097171e+002	(23791.719450277615dB,-89.8641998436479°)
3.80189396320559e+002	(23250.15113699003dB,-89.861036632868°)
3.89045144994279e+002	(22720.910361588438dB,-89.8577997400971°)
3.98107170553495e+002	(22203.716513608106dB,-89.8544874489702°)
4.07380277804111e+002	(21698.295370024905dB,-89.8510980031299°)
4.16869383470333e+002	(21204.37894985914dB,-89.8476296052937°)
4.26579518801591e+002	(20721.70537208667dB,-89.8440804163321°)
4.36515832240164e+002	(20250.018716787716dB,-89.8404485542377°)
4.46683592150961e+002	(19789.06888945426dB,-89.8367320931722°)
4.57088189614873e+002	(19338.61148838672dB,-89.8329290624306°)
4.67735141287196e+002	(18898.407675108676dB,-89.8290374453883°)
4.78630092322636e+002	(18468.224047731237dB,-89.8250551784378°)
4.89778819368444e+002	(18047.83251720153dB,-89.8209801498964°)
5.01187233627270e+002	(17637.01018636529dB,-89.8168101988705°)
5.12861383991362e+002	(17235.5392317853dB,-89.8125431141294°)
5.24807460249770e+002	(16843.206788247284dB,-89.8081766329159°)
5.37031796370250e+002	(16459.80483589671dB,-89.8037084397591°)
5.49540873857622e+002	(16085.130089943721dB,-89.7991361652229°)
5.62341325190346e+002	(15718.983892878558dB,-89.794457384675°)
5.75439937337154e+002	(15361.172109141624dB,-89.7896696169811°)
5.88843655355586e+002	(15011.505022188818dB,-89.7847703231911°)
6.02559586074355e+002	(14669.797233902542dB,-89.7797569051977°)
6.16595001861479e+002	(14335.867566290506dB,-89.7746267043471°)
6.30957344480190e+002	(14009.53896542333dB,-89.7693770000366°)
6.45654229034652e+002	(13690.63840755747dB,-89.764005008262°)
6.60693448007592e+002	(13378.996807396361dB,-89.7585078801415°)
6.76082975391978e+002	(13074.448928438671dB,-89.7528827004103°)
6.91830970918933e+002	(12776.833295368198dB,-89.7471264858552°)
7.07945784384134e+002	(12485.99210843726dB,-89.7412361837391°)
7.24435960074986e+002	(12201.771159798924dB,-89.7352086701857°)
7.41310241300914e+002	(11924.019751744787dB,-89.7290407485116°)
7.58577575029180e+002	(11652.590616802148dB,-89.7227291475256°)
7.76247116628688e+002	(11387.339839651084dB,-89.716270519794°)
7.94328234724277e+002	(11128.126780819157dB,-89.7096614398555°)
8.12830516164095e+002	(10874.814002112145dB,-89.7028984024164°)
8.31763771102666e+002	(10627.267193741996dB,-89.6959778204686°)
8.51138038202372e+002	(10385.355103115004dB,-89.6888960233879°)
8.70963589956076e+002	(10148.949465239231dB,-89.6816492549883°)
8.91250938133741e+002	(9917.92493471686dB,-89.6742336715102°)
9.12010839355905e+002	(9692.159019284547dB,-89.6666453395938°)
9.33254300796986e+002	(9471.532014866398dB,-89.6588802341762°)
9.54992586021431e+002	(9255.926942105041dB,-89.6509342363389°)
9.77237220955805e+002	(9045.229484337804dB,-89.6428031311422°)
9.99999999999994e+002	(8839.327926984828dB,-89.6344826053533°)
1.02329299228075e+003	(8638.113098315735dB,-89.6259682451712°)
1.04712854805089e+003	(8441.478311566116dB,-89.6172555338626°)
1.07151930523760e+003	(8249.319308370308dB,-89.6083398493625°)
1.09647819614318e+003	(8061.534203482754dB,-89.599216461811°)
1.12201845430196e+003	(7878.023430756214dB,-89.5898805310307°)
1.14815362149688e+003	(7698.6896903514535dB,-89.5803271039457°)
1.17489755493952e+003	(7523.43789714709dB,-89.5705511119502°)
1.20226443461741e+003	(7352.175130324119dB,-89.5605473681926°)
1.23026877081237e+003	(7184.810584098387dB,-89.5503105648152°)
1.25892541179416e+003	(7021.255519574103dB,-89.5398352701247°)
1.28824955169313e+003	(6861.423217692936dB,-89.5291159256866°)
1.31825673855640e+003	(6705.228933254964dB,-89.5181468433658°)
1.34896288259165e+003	(6552.58984998542dB,-89.5069222022771°)
1.38038426460288e+003	(6403.425036624243dB,-89.4954360456882°)
1.41253754462275e+003	(6257.655404015631dB,-89.4836822778244°)
1.44543977074592e+003	(6115.203663173618dB,-89.4716546606228°)
1.47910838816820e+003	(5975.9942843026665dB,-89.4593468103791°)
1.51356124843620e+003	(5839.953456750506dB,-89.4467521943492°)
1.54881661891247e+003	(5707.009049873193dB,-89.4338641272379°)
1.58489319246110e+003	(5577.090574790092dB,-89.4206757676277°)
1.62181009735892e+003	(5450.129147009939dB,-89.4071801143105°)
1.65958690743755e+003	(5326.057449907423dB,-89.3933700025324°)
1.69824365246173e+003	(5204.809699030936dB,-89.379238100155°)
1.73780082874936e+003	(5086.321607222858dB,-89.3647769037169°)
1.77827941003891e+003	(4970.530350533712dB,-89.349978734409°)
1.81970085860997e+003	(4857.374534912019dB,-89.3348357339445°)
1.86208713666286e+003	(4746.794163652552dB,-89.3193398603377°)
1.90546071796323e+003	(4638.730605585136dB,-89.3034828835788°)
1.94984459975803e+003	(4533.126563987553dB,-89.2872563812029°)
1.99526231496887e+003	(4429.926046206539dB,-89.2706517337488°)
2.04173794466952e+003	(4329.074333969355dB,-89.2536601201208°)
2.08929613085403e+003	(4230.517954371534dB,-89.236272512826°)
2.13796208950222e+003	(4134.204651525132dB,-89.2184796730963°)
2.18776162394954e+003	(4040.083358851703dB,-89.2002721459039°)
2.23872113856832e+003	(3948.10417200633dB,-89.1816402548434°)
2.29086765276776e+003	(3858.218322417731dB,-89.1625740968917°)
2.34422881531991e+003	(3770.3781514304637dB,-89.1430635370461°)
2.39883291901947e+003	(3684.5370850358745dB,-89.1230982028257°)
2.45470891568501e+003	(3600.649609177891dB,-89.1026674786386°)
2.51188643150956e+003	(3518.671245621019dB,-89.0817605000109°)
2.57039578276885e+003	(3438.5585283673668dB,-89.0603661476757°)
2.63026799189536e+003	(3360.268980610572dB,-89.0384730415124°)
2.69153480392690e+003	(3283.7610922140234dB,-89.016069534343°)
2.75422870333815e+003	(3208.9942977017695dB,-88.993143705563°)
2.81838293126443e+003	(3135.9289547502667dB,-88.969683354625°)
2.88403150312659e+003	(3064.526323169638dB,-88.9456759943539°)
2.95120922666636e+003	(2994.7485443630885dB,-88.921108844094°)
3.01995172040199e+003	(2926.5586212539956dB,-88.8959688226895°)
3.09029543251357e+003	(2859.920398669608dB,-88.8702425412801°)
3.16227766016836e+003	(2794.798544171332dB,-88.8439162959225°)
3.23593656929626e+003	(2731.1585293210933dB,-88.8169760600178°)
3.31131121482589e+003	(2668.966611373973dB,-88.7894074765506°)
3.38844156139200e+003	(2608.189815387635dB,-88.7611958501282°)
3.46736850452529e+003	(2548.7959167386853dB,-88.7323261388156°)
3.54813389233573e+003	(2490.7534240369255dB,-88.7027829457581°)
3.63078054770099e+003	(2434.0315624284967dB,-88.6725505105895°)
3.71535229097170e+003	(2378.6002572787015dB,-88.6416127006179°)
3.80189396320558e+003	(2324.430118226306dB,-88.6099530017758°)
3.89045144994278e+003	(2271.4924236007514dB,-88.5775545093394°)
3.98107170553494e+003	(2219.7591051936297dB,-88.5443999183967°)
4.07380277804110e+003	(2169.2027333769083dB,-88.5104715140688°)
4.16869383470332e+003	(2119.7965025597114dB,-88.4757511614649°)
4.26579518801589e+003	(2071.5142169758365dB,-88.4402202953734°)
4.36515832240162e+003	(2024.3302767949133dB,-88.4038599096688°)
4.46683592150960e+003	(1978.2196645492788dB,-88.3666505464386°)
4.57088189614871e+003	(1933.1579318698368dB,-88.328572284805°)
4.67735141287194e+003	(1889.1211865235896dB,-88.2896047294477°)
4.78630092322634e+003	(1846.086079746165dB,-88.2497269988046°)
4.89778819368442e+003	(1804.0297938624094dB,-88.2089177129449°)
5.01187233627268e+003	(1762.930030188767dB,-88.1671549811022°)
5.12861383991361e+003	(1722.7649972106249dB,-88.1244163888574°)
5.24807460249768e+003	(1683.5133990289737dB,-88.0806789849546°)
5.37031796370248e+003	(1645.1544240694589dB,-88.0359192677417°)
5.49540873857620e+003	(1607.6677340486287dB,-87.9901131712155°)
5.62341325190344e+003	(1571.0334531910298dB,-87.9432360506668°)
5.75439937337152e+003	(1535.232157691534dB,-87.8952626678956°)
5.88843655355584e+003	(1500.2448654174464dB,-87.8461671759979°)
6.02559586074353e+003	(1466.05302584488dB,-87.7959231036892°)
6.16595001861477e+003	(1432.638510223941dB,-87.744503339162°)
6.30957344480188e+003	(1399.983601967643dB,-87.691880113449°)
6.45654229034650e+003	(1368.070987259536dB,-87.638024983277°)
6.60693448007590e+003	(1336.8837458747728dB,-87.5829088133875°)
6.76082975391976e+003	(1306.4053422101695dB,-87.5265017583043°)
6.91830970918931e+003	(1276.6196165181198dB,-87.4687732435267°)
7.07945784384132e+003	(1247.5107763399117dB,-87.4096919461182°)
7.24435960074984e+003	(1219.063388134062dB,-87.3492257746698°)
7.41310241300911e+003	(1191.2623690948358dB,-87.2873418486095°)
7.58577575029177e+003	(1164.0929791569595dB,-87.2240064768289°)
7.76247116628685e+003	(1137.5408131822214dB,-87.1591851355956°)
7.94328234724275e+003	(1111.5917933237808dB,-87.0928424457218°)
8.12830516164092e+003	(1086.2321615640578dB,-87.0249421489499°)
8.31763771102664e+003	(1061.4484724225415dB,-86.9554470835271°)
8.51138038202369e+003	(1037.2275858293162dB,-86.884319158922°)
8.70963589956073e+003	(1013.5566601608332dB,-86.811519329648°)
8.91250938133738e+003	(990.4231454340055dB,-86.7370075681503°)
9.12010839355902e+003	(967.8147766552869dB,-86.6607428367071°)
9.33254300796983e+003	(945.7195673209563dB,-86.582683058302°)
9.54992586021428e+003	(924.1258030653817dB,-86.50278508641°)
9.77237220955802e+003	(903.022035453809dB,-86.4210046736495°)
9.99999999999991e+003	(882.3970759164719dB,-86.3372964392345°)
1.02329299228075e+004	(862.2399898207331dB,-86.251613835171°)
1.04712854805089e+004	(842.5400906782584dB,-86.1639091111302°)
1.07151930523760e+004	(823.2869344840992dB,-86.0741332779267°)
1.09647819614318e+004	(804.4703141846313dB,-85.9822360695297°)
1.12201845430195e+004	(786.0802542716962dB,-85.8881659035266°)
1.14815362149687e+004	(768.1070054998146dB,-85.7918698399541°)
1.17489755493952e+004	(750.5410397238672dB,-85.6932935384081°)
1.20226443461740e+004	(733.3730448545867dB,-85.5923812133342°)
1.23026877081237e+004	(716.5939199290096dB,-85.4890755873978°)
1.25892541179416e+004	(700.194770293577dB,-85.3833178428251°)
1.28824955169312e+004	(684.1669028972001dB,-85.2750475705951°)
1.31825673855640e+004	(668.5018216918558dB,-85.1642027173608°)
1.34896288259164e+004	(653.1912231384152dB,-85.0507195299662°)
1.38038426460287e+004	(638.2269918153079dB,-84.9345324974136°)
