Freq.	V(n002)/-I(C1)
Step Information: 1=1  (Run: 1/11)
1.00000000000000e+001	(883948.3364993262dB,-89.9999954724449°)
1.01157945425990e+001	(873829.8634873079dB,-89.9999954200184°)
1.02329299228075e+001	(863827.2156772517dB,-89.9999953669847°)
1.03514216667934e+001	(853939.0672289669dB,-89.9999953133369°)
1.04712854805090e+001	(844164.1074791278dB,-89.999995259068°)
1.05925372517729e+001	(834501.0407673485dB,-89.9999952041706°)
1.07151930523761e+001	(824948.5862645542dB,-89.9999951486375°)
1.08392691402120e+001	(815505.4778033852dB,-89.9999950924614°)
1.09647819614319e+001	(806170.4637099882dB,-89.9999950356349°)
1.10917481526240e+001	(796942.3066383108dB,-89.9999949781503°)
1.12201845430196e+001	(787819.7834060786dB,-89.99999492°)
1.13501081567232e+001	(778801.6848329483dB,-89.9999948611764°)
1.14815362149688e+001	(769886.8155794956dB,-89.9999948016717°)
1.16144861384034e+001	(761073.9939895006dB,-89.999994741478°)
1.17489755493953e+001	(752362.0519330613dB,-89.9999946805872°)
1.18850222743702e+001	(743749.834651733dB,-89.9999946189914°)
1.20226443461741e+001	(735236.2006053242dB,-89.9999945566823°)
1.21618600064637e+001	(726820.0213209919dB,-89.9999944936517°)
1.23026877081238e+001	(718500.1812431748dB,-89.9999944298912°)
1.24451461177139e+001	(710275.5775861251dB,-89.9999943653924°)
1.25892541179417e+001	(702145.1201875111dB,-89.9999943001468°)
1.27350308101666e+001	(694107.731364056dB,-89.9999942341457°)
1.28824955169314e+001	(686162.3457686321dB,-89.9999941673803°)
1.30316677845230e+001	(678307.9102488726dB,-89.9999940998418°)
1.31825673855641e+001	(670543.3837079119dB,-89.9999940315213°)
1.33352143216333e+001	(662867.7369660658dB,-89.9999939624096°)
1.34896288259166e+001	(655279.9526248781dB,-89.9999938924977°)
1.36458313658893e+001	(647779.0249315798dB,-89.9999938217762°)
1.38038426460289e+001	(640363.9596463852dB,-89.9999937502358°)
1.39636836105594e+001	(633033.7739104019dB,-89.9999936778671°)
1.41253754462276e+001	(625787.4961155085dB,-89.9999936046603°)
1.42889395851111e+001	(618624.1657754143dB,-89.9999935306058°)
1.44543977074593e+001	(611542.8333984276dB,-89.9999934556939°)
1.46217717445672e+001	(604542.5603615288dB,-89.9999933799145°)
1.47910838816821e+001	(597622.4187862378dB,-89.9999933032576°)
1.49623565609444e+001	(590781.4914152735dB,-89.9999932257131°)
1.51356124843621e+001	(584018.8714910452dB,-89.9999931472706°)
1.53108746168203e+001	(577333.6626356029dB,-89.9999930679199°)
1.54881661891249e+001	(570724.9787318797dB,-89.9999929876503°)
1.56675107010815e+001	(564191.9438058469dB,-89.9999929064512°)
1.58489319246112e+001	(557733.6919108646dB,-89.9999928243119°)
1.60324539069005e+001	(551349.3670126371dB,-89.9999927412215°)
1.62181009735893e+001	(545038.1228757515dB,-89.9999926571689°)
1.64058977319954e+001	(538799.1229517629dB,-89.999992572143°)
1.65958690743757e+001	(532631.540267866dB,-89.9999924861327°)
1.67880401812257e+001	(526534.5573177226dB,-89.9999923991263°)
1.69824365246175e+001	(520507.3659528544dB,-89.9999923111125°)
1.71790838715759e+001	(514549.1672755205dB,-89.9999922220795°)
1.73780082874938e+001	(508659.17153300944dB,-89.9999921320156°)
1.75792361395870e+001	(502836.59801265656dB,-89.9999920409088°)
1.77827941003893e+001	(497080.6749387788dB,-89.999991948747°)
1.79887091512879e+001	(491390.6393699054dB,-89.9999918555181°)
1.81970085860999e+001	(485765.7370980014dB,-89.9999917612096°)
1.84077200146896e+001	(480205.22254843364dB,-89.9999916658091°)
1.86208713666287e+001	(474708.3586809866dB,-89.9999915693039°)
1.88364908948981e+001	(469274.4168922701dB,-89.9999914716812°)
1.90546071796325e+001	(463902.6769192086dB,-89.9999913729281°)
1.92752491319094e+001	(458592.4267434563dB,-89.9999912730316°)
1.94984459975805e+001	(453342.96249718213dB,-89.9999911719783°)
1.97242273611486e+001	(448153.588369558dB,-89.9999910697548°)
1.99526231496889e+001	(443023.6165146397dB,-89.9999909663477°)
2.01836636368157e+001	(437952.36696019117dB,-89.9999908617431°)
2.04173794466954e+001	(432939.16751765745dB,-89.9999907559274°)
2.06538015581054e+001	(427983.3536928142dB,-89.9999906488863°)
2.08929613085405e+001	(423084.2685978909dB,-89.9999905406058°)
2.11348903983666e+001	(418241.2628645492dB,-89.9999904310714°)
2.13796208950224e+001	(413453.6945575616dB,-89.9999903202688°)
2.16271852372703e+001	(408720.9290899275dB,-89.9999902081831°)
2.18776162394956e+001	(404042.3391387484dB,-89.9999900947995°)
2.21309470960565e+001	(399417.30456198717dB,-89.999989980103°)
2.23872113856835e+001	(394845.21231631737dB,-89.9999898640784°)
2.26464430759307e+001	(390325.4563758611dB,-89.9999897467103°)
2.29086765276778e+001	(385857.43765186536dB,-89.9999896279831°)
2.31739464996849e+001	(381440.56391324534dB,-89.9999895078812°)
2.34422881531993e+001	(377074.24970821955dB,-89.9999893863885°)
2.37137370566167e+001	(372757.9162865769dB,-89.9999892634891°)
2.39883291901950e+001	(368490.9915230043dB,-89.9999891391666°)
2.42661009508243e+001	(364272.9098411737dB,-89.9999890134045°)
2.45470891568504e+001	(360103.1121390217dB,-89.9999888861861°)
2.48313310529558e+001	(355981.0457142707dB,-89.9999887574947°)
2.51188643150959e+001	(351906.1641915822dB,-89.9999886273131°)
2.54097270554932e+001	(347877.9274497985dB,-89.9999884956241°)
2.57039578276888e+001	(343895.8015504855dB,-89.9999883624102°)
2.60015956316529e+001	(339959.2586671515dB,-89.9999882276537°)
2.63026799189540e+001	(336067.7770153273dB,-89.9999880913369°)
2.66072505979882e+001	(332220.8407833623dB,-89.9999879534416°)
2.69153480392693e+001	(328417.9400639768dB,-89.9999878139497°)
2.72270130807793e+001	(324658.5707867952dB,-89.9999876728424°)
2.75422870333818e+001	(320942.2346515241dB,-89.9999875301013°)
2.78612116862979e+001	(317268.43906183454dB,-89.9999873857073°)
2.81838293126447e+001	(313636.6970600998dB,-89.9999872396413°)
2.85101826750393e+001	(310046.5272628198dB,-89.999987091884°)
2.88403150312662e+001	(306497.4537968836dB,-89.9999869424158°)
2.91742701400118e+001	(302989.0062364914dB,-89.9999867912168°)
2.95120922666640e+001	(299520.7195406608dB,-89.9999866382671°)
2.98538261891798e+001	(296092.133991795dB,-89.9999864835463°)
3.01995172040203e+001	(292702.79513457604dB,-89.9999863270339°)
3.05492111321553e+001	(289352.25371579494dB,-89.9999861687093°)
3.09029543251361e+001	(286040.0656248377dB,-89.9999860085513°)
3.12607936712397e+001	(282765.7918347515dB,-89.9999858465389°)
3.16227766016840e+001	(279528.99834408524dB,-89.9999856826505°)
3.19889510969142e+001	(276329.2561193979dB,-89.9999855168644°)
3.23593656929630e+001	(273166.14103826013dB,-89.9999853491586°)
3.27340694878840e+001	(270039.23383325926dB,-89.9999851795108°)
3.31131121482593e+001	(266948.1200362072dB,-89.9999850078987°)
3.34965439157830e+001	(263892.38992329687dB,-89.9999848342995°)
3.38844156139205e+001	(260871.63846085285dB,-89.9999846586901°)
3.42767786546453e+001	(257885.4652515262dB,-89.9999844810473°)
3.46736850452534e+001	(254933.4744812796dB,-89.9999843013475°)
3.50751873952570e+001	(252015.27486692573dB,-89.9999841195669°)
3.54813389233578e+001	(249130.47960429036dB,-89.9999839356815°)
3.58921934645008e+001	(246278.70631688344dB,-89.9999837496668°)
3.63078054770104e+001	(243459.57700524514dB,-89.9999835614982°)
3.67282300498087e+001	(240672.717996816dB,-89.9999833711508°)
3.71535229097175e+001	(237917.75989648816dB,-89.9999831785993°)
3.75837404288447e+001	(235194.3375375049dB,-89.9999829838182°)
3.80189396320564e+001	(232502.08993322516dB,-89.9999827867817°)
3.84591782045356e+001	(229840.66022913426dB,-89.9999825874637°)
3.89045144994284e+001	(227209.69565560218dB,-89.9999823858378°)
3.93550075455780e+001	(224608.8474810964dB,-89.9999821818772°)
3.98107170553500e+001	(222037.77096606212dB,-89.9999819755549°)
4.02717034325462e+001	(219496.125317071dB,-89.9999817668436°)
4.07380277804116e+001	(216983.57364172823dB,-89.9999815557156°)
4.12097519097333e+001	(214499.78290404353dB,-89.9999813421429°)
4.16869383470339e+001	(212044.42388023617dB,-89.9999811260972°)
4.21696503428586e+001	(209617.17111514683dB,-89.9999809075499°)
4.26579518801596e+001	(207217.7028790479dB,-89.9999806864721°)
4.31519076827769e+001	(204845.70112500383dB,-89.9999804628343°)
4.36515832240170e+001	(202500.85144675794dB,-89.999980236607°)
4.41570447353316e+001	(200182.84303703535dB,-89.9999800077603°)
4.46683592150967e+001	(197891.36864632348dB,-89.9999797762637°)
4.51855944374926e+001	(195626.12454219244dB,-89.9999795420865°)
4.57088189614879e+001	(193386.8104689657dB,-89.9999793051979°)
4.62381021399264e+001	(191173.12960799335dB,-89.9999790655663°)
4.67735141287202e+001	(188984.7885382827dB,-89.99997882316°)
4.73151258961485e+001	(186821.497197585dB,-89.9999785779468°)
4.78630092322643e+001	(184682.96884397184dB,-89.9999783298943°)
4.84172367584104e+001	(182568.9200178678dB,-89.9999780789697°)
4.89778819368451e+001	(180479.07050433068dB,-89.9999778251396°)
4.95450190804795e+001	(178413.14329612066dB,-89.9999775683704°)
5.01187233627277e+001	(176370.8645567949dB,-89.999977308628°)
5.06990708274709e+001	(174351.96358453596dB,-89.9999770458782°)
5.12861383991370e+001	(172356.17277620675dB,-89.9999767800859°)
5.18800038928966e+001	(170383.22759186357dB,-89.9999765112161°)
5.24807460249778e+001	(168432.86651980956dB,-89.999976239233°)
5.30884444230993e+001	(166504.83104175306dB,-89.9999759641007°)
5.37031796370258e+001	(164598.86559869983dB,-89.9999756857827°)
5.43250331492439e+001	(162714.717557dB,-89.999975404242°)
5.49540873857630e+001	(160852.13717488138dB,-89.9999751194414°)
5.55904257270409e+001	(159010.87756929075dB,-89.9999748313432°)
5.62341325190355e+001	(157190.69468330097dB,-89.9999745399091°)
5.68852930843847e+001	(155391.34725362915dB,-89.9999742451005°)
5.75439937337163e+001	(153612.59677871715dB,-89.9999739468785°)
5.82103217770877e+001	(151854.2074871324dB,-89.9999736452034°)
5.88843655355595e+001	(150115.94630624866dB,-89.9999733400352°)
5.95662143529017e+001	(148397.5828314557dB,-89.9999730313336°)
6.02559586074364e+001	(146698.8892955346dB,-89.9999727190575°)
6.09536897240175e+001	(145019.64053848278dB,-89.9999724031658°)
6.16595001861489e+001	(143359.6139777056dB,-89.9999720836164°)
6.23734835482426e+001	(141718.58957847807dB,-89.999971760367°)
6.30957344480200e+001	(140096.34982479713dB,-89.9999714333749°)
6.38263486190555e+001	(138492.67969054953dB,-89.9999711025966°)
6.45654229034662e+001	(136907.3666109628dB,-89.9999707679883°)
6.53130552647479e+001	(135340.20045454166dB,-89.9999704295058°)
6.60693448007603e+001	(133790.9734950893dB,-89.999970087104°)
6.68343917568622e+001	(132259.48038426638dB,-89.9999697407378°)
6.76082975391989e+001	(130745.51812429636dB,-89.9999693903611°)
6.83911647281437e+001	(129248.88604114995dB,-89.9999690359276°)
6.91830970918944e+001	(127769.38575783987dB,-89.9999686773903°)
6.99841996002281e+001	(126306.8211682169dB,-89.9999683147016°)
7.07945784384146e+001	(124860.99841093064dB,-89.9999679478136°)
7.16143410212910e+001	(123431.72584374917dB,-89.9999675766776°)
7.24435960074998e+001	(122018.81401811447dB,-89.9999672012444°)
7.32824533138912e+001	(120622.07565412931dB,-89.9999668214642°)
7.41310241300926e+001	(119241.32561560898dB,-89.9999664372869°)
7.49894209332465e+001	(117876.38088563789dB,-89.9999660486614°)
7.58577575029193e+001	(116527.06054227056dB,-89.9999656555362°)
7.67361489361828e+001	(115193.18573457698dB,-89.9999652578593°)
7.76247116628701e+001	(113874.57965886954dB,-89.9999648555781°)
7.85235634610081e+001	(112571.06753534885dB,-89.999964448639°)
7.94328234724291e+001	(111282.47658489631dB,-89.9999640369884°)
8.03526122185627e+001	(110008.63600618544dB,-89.9999636205716°)
8.12830516164109e+001	(108749.37695301767dB,-89.9999631993335°)
8.22242649947081e+001	(107504.5325119676dB,-89.9999627732182°)
8.31763771102681e+001	(106273.93768025802dB,-89.9999623421693°)
8.41395141645205e+001	(105057.42934387746dB,-89.9999619061296°)
8.51138038202387e+001	(103854.84625595993dB,-89.9999614650415°)
8.60993752184611e+001	(102666.0290154232dB,-89.9999610188465°)
8.70963589956091e+001	(101490.82004582977dB,-89.9999605674854°)
8.81048873008025e+001	(100329.06357449958dB,-89.9999601108985°)
8.91250938133757e+001	(99180.60561188144dB,-89.9999596490253°)
9.01571137605968e+001	(98045.29393110207dB,-89.9999591818046°)
9.12010839355921e+001	(96922.97804783602dB,-89.9999587091744°)
9.22571427154775e+001	(95813.50920032588dB,-89.9999582310723°)
9.33254300797003e+001	(94716.74032967887dB,-89.9999577474348°)
9.44060876285936e+001	(93632.52606036855dB,-89.9999572581978°)
9.54992586021448e+001	(92560.72268096945dB,-89.9999567632967°)
9.66050878989826e+001	(91501.18812510178dB,-89.9999562626657°)
9.77237220955824e+001	(90453.78195261075dB,-89.9999557562387°)
9.88553094656952e+001	(89418.36533094043dB,-89.9999552439485°)
1.00000000000001e+002	(88394.80101674053dB,-89.9999547257272°)
1.01157945425991e+002	(87382.95333766911dB,-89.9999542015063°)
1.02329299228077e+002	(86382.68817441353dB,-89.9999536712162°)
1.03514216667936e+002	(85393.8729429087dB,-89.9999531347867°)
1.04712854805091e+002	(84416.37657676602dB,-89.9999525921469°)
1.05925372517730e+002	(83450.06950990272dB,-89.9999520432247°)
1.07151930523762e+002	(82494.82365936274dB,-89.9999514879476°)
1.08392691402122e+002	(81550.51240834374dB,-89.9999509262419°)
1.09647819614320e+002	(80617.01058941199dB,-89.9999503580333°)
1.10917481526242e+002	(79694.19446791218dB,-89.9999497832465°)
1.12201845430198e+002	(78781.94172556834dB,-89.9999492018054°)
1.13501081567233e+002	(77880.13144426508dB,-89.999948613633°)
1.14815362149690e+002	(76988.64409002867dB,-89.9999480186514°)
1.16144861384036e+002	(76107.36149717546dB,-89.9999474167818°)
1.17489755493955e+002	(75236.16685265166dB,-89.9999468079445°)
1.18850222743704e+002	(74374.94468055152dB,-89.9999461920588°)
1.20226443461743e+002	(73523.580826808dB,-89.9999455690433°)
1.21618600064639e+002	(72681.9624440655dB,-89.9999449388154°)
1.23026877081240e+002	(71849.97797671841dB,-89.9999443012916°)
1.24451461177140e+002	(71027.51714612718dB,-89.9999436563876°)
1.25892541179419e+002	(70214.4709359992dB,-89.999943004018°)
1.27350308101668e+002	(69410.73157793967dB,-89.9999423440963°)
1.28824955169315e+002	(68616.19253716814dB,-89.9999416765352°)
1.30316677845232e+002	(67830.74849839484dB,-89.9999410012463°)
1.31825673855643e+002	(67054.29535186334dB,-89.9999403181403°)
1.33352143216334e+002	(66286.73017954965dB,-89.9999396271266°)
1.34896288259167e+002	(65527.9512415224dB,-89.9999389281138°)
1.36458313658895e+002	(64777.85796245468dB,-89.9999382210093°)
1.38038426460291e+002	(64036.350918294775dB,-89.9999375057196°)
1.39636836105596e+002	(63303.331823087225dB,-89.99993678215°)
1.41253754462278e+002	(62578.70351594557dB,-89.9999360502046°)
1.42889395851113e+002	(61862.369948171436dB,-89.9999353097866°)
1.44543977074595e+002	(61154.23617052711dB,-89.9999345607979°)
1.46217717445674e+002	(60454.208320647616dB,-89.9999338031395°)
1.47910838816823e+002	(59762.19361059835dB,-89.9999330367111°)
1.49623565609446e+002	(59078.10031458084dB,-89.9999322614112°)
1.51356124843623e+002	(58401.83775676855dB,-89.9999314771372°)
1.53108746168206e+002	(57733.31629929214dB,-89.9999306837853°)
1.54881661891251e+002	(57072.447330356634dB,-89.9999298812505°)
1.56675107010818e+002	(56419.14325249663dB,-89.9999290694266°)
1.58489319246114e+002	(55773.31747096296dB,-89.9999282482063°)
1.60324539069007e+002	(55134.88438224817dB,-89.9999274174808°)
1.62181009735896e+002	(54503.75936273908dB,-89.9999265771401°)
1.64058977319957e+002	(53879.85875749643dB,-89.9999257270732°)
1.65958690743759e+002	(53263.09986917193dB,-89.9999248671676°)
1.67880401812259e+002	(52653.400947042dB,-89.9999239973094°)
1.69824365246177e+002	(52050.681176176055dB,-89.9999231173836°)
1.71790838715762e+002	(51454.86066672011dB,-89.9999222272739°)
1.73780082874941e+002	(50865.86044331182dB,-89.9999213268623°)
1.75792361395872e+002	(50283.60243460905dB,-89.99992041603°)
1.77827941003895e+002	(49708.00946294349dB,-89.9999194946563°)
1.79887091512882e+002	(49139.00523409095dB,-89.9999185626194°)
1.81970085861002e+002	(48576.514327156045dB,-89.999917619796°)
1.84077200146899e+002	(48020.46218457915dB,-89.9999166660614°)
1.86208713666290e+002	(47470.77510225142dB,-89.9999157012896°)
1.88364908948983e+002	(46927.38021974411dB,-89.9999147253529°)
1.90546071796328e+002	(46390.20551065532dB,-89.9999137381223°)
1.92752491319097e+002	(45859.17977305876dB,-89.9999127394673°)
1.94984459975808e+002	(45334.232620068215dB,-89.9999117292558°)
1.97242273611489e+002	(44815.29447050742dB,-89.9999107073542°)
1.99526231496892e+002	(44302.29653968616dB,-89.9999096736275°)
2.01836636368160e+002	(43795.17083028448dB,-89.999908627939°)
2.04173794466957e+002	(43293.85012333919dB,-89.9999075701505°)
2.06538015581057e+002	(42798.26796933341dB,-89.9999065001221°)
2.08929613085408e+002	(42308.35867938966dB,-89.9999054177125°)
2.11348903983668e+002	(41824.057316561986dB,-89.9999043227787°)
2.13796208950227e+002	(41345.299687228915dB,-89.9999032151758°)
2.16271852372706e+002	(40872.022332586195dB,-89.9999020947576°)
2.18776162394959e+002	(40404.162520232385dB,-89.999900961376°)
2.21309470960568e+002	(39941.65823585654dB,-89.9998998148812°)
2.23872113856838e+002	(39484.44817501664dB,-89.9998986551219°)
2.26464430759310e+002	(39032.471735013976dB,-89.9998974819448°)
2.29086765276782e+002	(38585.66900686137dB,-89.9998962951949°)
2.31739464996852e+002	(38143.980767341025dB,-89.9998950947156°)
2.34422881531997e+002	(37707.3484711555dB,-89.9998938803481°)
2.37137370566170e+002	(37275.71424316631dB,-89.9998926519323°)
2.39883291901954e+002	(36849.02087072441dB,-89.9998914093059°)
2.42661009508246e+002	(36427.21179608559dB,-89.9998901523047°)
2.45470891568508e+002	(36010.23110891343dB,-89.999888880763°)
2.48313310529562e+002	(35598.0235388702dB,-89.9998875945127°)
2.51188643150963e+002	(35190.53444828835dB,-89.9998862933842°)
2.54097270554935e+002	(34787.70982493085dB,-89.9998849772057°)
2.57039578276891e+002	(34389.49627482947dB,-89.9998836458035°)
2.60015956316532e+002	(33995.841015210186dB,-89.9998822990019°)
2.63026799189543e+002	(33606.69186749434dB,-89.9998809366233°)
2.66072505979886e+002	(33221.997250384404dB,-89.9998795584878°)
2.69153480392697e+002	(32841.706173024744dB,-89.9998781644138°)
2.72270130807797e+002	(32465.768228245226dB,-89.9998767542172°)
2.75422870333822e+002	(32094.133585878877dB,-89.9998753277122°)
2.78612116862983e+002	(31726.752986156323dB,-89.9998738847106°)
2.81838293126451e+002	(31363.577733176677dB,-89.9998724250222°)
2.85101826750397e+002	(31004.559688453657dB,-89.9998709484545°)
2.88403150312666e+002	(30649.6512645345dB,-89.9998694548129°)
2.91742701400123e+002	(30298.805418691954dB,-89.9998679439005°)
2.95120922666645e+002	(29951.975646688872dB,-89.9998664155182°)
2.98538261891802e+002	(29609.115976615292dB,-89.9998648694645°)
3.01995172040208e+002	(29270.18096279227dB,-89.999863305536°)
3.05492111321558e+002	(28935.125679752044dB,-89.9998617235264°)
3.09029543251365e+002	(28603.905716279172dB,-89.9998601232274°)
3.12607936712402e+002	(28276.47716952607dB,-89.9998585044283°)
3.16227766016844e+002	(27952.79663919389dB,-89.999856866916°)
3.19889510969146e+002	(27632.82122177871dB,-89.9998552104748°)
3.23593656929635e+002	(27316.50850488564dB,-89.9998535348868°)
3.27340694878845e+002	(27003.81656160686dB,-89.9998518399313°)
3.31131121482598e+002	(26694.70394496355dB,-89.9998501253854°)
3.34965439157835e+002	(26389.129682413648dB,-89.9998483910235°)
3.38844156139210e+002	(26087.05327041918dB,-89.9998466366174°)
3.42767786546458e+002	(25788.4346690794dB,-89.9998448619364°)
3.46736850452539e+002	(25493.234296821687dB,-89.9998430667472°)
3.50751873952575e+002	(25201.413025156846dB,-89.9998412508137°)
3.54813389233583e+002	(24912.932173491234dB,-89.9998394138972°)
3.58921934645013e+002	(24627.753504000564dB,-89.9998375557564°)
3.63078054770109e+002	(24345.83921656058dB,-89.999835676147°)
3.67282300498093e+002	(24067.15194373875dB,-89.9998337748223°)
3.71535229097181e+002	(23791.654745837983dB,-89.9998318515324°)
