Freq.	V(n002)/-I(R1)
Step Information: 1=1  (Run: 1/11)
1.00000000000000e+000	(7.41058274036229e+001dB,-5.09400814236467e-003°)
1.02329299228075e+000	(7.41058255935829e+001dB,-5.21205361400650e-003°)
1.04712854805090e+000	(7.41058236986918e+001dB,-5.33280530303010e-003°)
1.07151930523761e+000	(7.41058217149942e+001dB,-5.45632315932456e-003°)
1.09647819614318e+000	(7.41058196383525e+001dB,-5.58266831078784e-003°)
1.12201845430196e+000	(7.41058174644387e+001dB,-5.71190307542547e-003°)
1.14815362149688e+000	(7.41058151887258e+001dB,-5.84409097266765e-003°)
1.17489755493953e+000	(7.41058128064791e+001dB,-5.97929673381465e-003°)
1.20226443461741e+000	(7.41058103127465e+001dB,-6.11758631151335e-003°)
1.23026877081238e+000	(7.41058077023494e+001dB,-6.25902688816096e-003°)
1.25892541179417e+000	(7.41058049698720e+001dB,-6.40368688312398e-003°)
1.28824955169313e+000	(7.41058021096515e+001dB,-6.55163595865244e-003°)
1.31825673855641e+000	(7.41057991157667e+001dB,-6.70294502436094e-003°)
1.34896288259165e+000	(7.41057959820268e+001dB,-6.85768624013861e-003°)
1.38038426460288e+000	(7.41057927019598e+001dB,-7.01593301734057e-003°)
1.41253754462275e+000	(7.41057892687998e+001dB,-7.17776001810291e-003°)
1.44543977074593e+000	(7.41057856754746e+001dB,-7.34324315261287e-003°)
1.47910838816821e+000	(7.41057819145924e+001dB,-7.51245957415342e-003°)
1.51356124843621e+000	(7.41057779784277e+001dB,-7.68548767173026e-003°)
1.54881661891248e+000	(7.41057738589075e+001dB,-7.86240706007543e-003°)
1.58489319246111e+000	(7.41057695475960e+001dB,-8.04329856680891e-003°)
1.62181009735893e+000	(7.41057650356795e+001dB,-8.22824421652458e-003°)
1.65958690743756e+000	(7.41057603139503e+001dB,-8.41732721155233e-003°)
1.69824365246174e+000	(7.41057553727902e+001dB,-8.61063190913179e-003°)
1.73780082874937e+000	(7.41057502021533e+001dB,-8.80824379471684e-003°)
1.77827941003892e+000	(7.41057447915482e+001dB,-9.01024945111239e-003°)
1.81970085860998e+000	(7.41057391300198e+001dB,-9.21673652312631e-003°)
1.86208713666287e+000	(7.41057332061304e+001dB,-9.42779367740092e-003°)
1.90546071796325e+000	(7.41057270079396e+001dB,-9.64351055706770e-003°)
1.94984459975804e+000	(7.41057205229849e+001dB,-9.86397773084833e-003°)
1.99526231496888e+000	(7.41057137382598e+001dB,-1.00892866362036e-002°)
2.04173794466953e+000	(7.41057066401931e+001dB,-1.03195295161092e-002°)
2.08929613085404e+000	(7.41056992146265e+001dB,-1.05547993490127e-002°)
2.13796208950223e+000	(7.41056914467916e+001dB,-1.07951897715060e-002°)
2.18776162394955e+000	(7.41056833212867e+001dB,-1.10407949932156e-002°)
2.23872113856834e+000	(7.41056748220528e+001dB,-1.12917097033962e-002°)
2.29086765276777e+000	(7.41056659323488e+001dB,-1.15480289686791e-002°)
2.34422881531992e+000	(7.41056566347261e+001dB,-1.18098481214062e-002°)
2.39883291901949e+000	(7.41056469110033e+001dB,-1.20772626379488e-002°)
2.45470891568503e+000	(7.41056367422396e+001dB,-1.23503680063875e-002°)
2.51188643150958e+000	(7.41056261087075e+001dB,-1.26292595828979e-002°)
2.57039578276886e+000	(7.41056149898665e+001dB,-1.29140324361618e-002°)
2.63026799189538e+000	(7.41056033643342e+001dB,-1.32047811790974e-002°)
2.69153480392691e+000	(7.41055912098590e+001dB,-1.35015997871713e-002°)
2.75422870333816e+000	(7.41055785032914e+001dB,-1.38045814025341e-002°)
2.81838293126445e+000	(7.41055652205553e+001dB,-1.41138181231935e-002°)
2.88403150312660e+000	(7.41055513366193e+001dB,-1.44294007764160e-002°)
2.95120922666638e+000	(7.41055368254676e+001dB,-1.47514186755279e-002°)
3.01995172040201e+000	(7.41055216600712e+001dB,-1.50799593592646e-002°)
3.09029543251359e+000	(7.41055058123594e+001dB,-1.54151083128042e-002°)
3.16227766016837e+000	(7.41054892531910e+001dB,-1.57569486696047e-002°)
3.23593656929628e+000	(7.41054719523265e+001dB,-1.61055608931571e-002°)
3.31131121482591e+000	(7.41054538784004e+001dB,-1.64610224377616e-002°)
3.38844156139202e+000	(7.41054349988948e+001dB,-1.68234073874347e-002°)
3.46736850452531e+000	(7.41054152801131e+001dB,-1.71927860720624e-002°)
3.54813389233575e+000	(7.41053946871555e+001dB,-1.75692246599288e-002°)
3.63078054770101e+000	(7.41053731838959e+001dB,-1.79527847257723e-002°)
3.71535229097172e+000	(7.41053507329596e+001dB,-1.83435227935516e-002°)
3.80189396320560e+000	(7.41053272957038e+001dB,-1.87414898531490e-002°)
3.89045144994280e+000	(7.41053028322000e+001dB,-1.91467308502875e-002°)
3.98107170553496e+000	(7.41052773012181e+001dB,-1.95592841490102e-002°)
4.07380277804112e+000	(7.41052506602147e+001dB,-1.99791809661450e-002°)
4.16869383470335e+000	(7.41052228653230e+001dB,-2.04064447772812e-002°)
4.26579518801592e+000	(7.41051938713478e+001dB,-2.08410906938922e-002°)
4.36515832240165e+000	(7.41051636317630e+001dB,-2.12831248113767e-002°)
4.46683592150962e+000	(7.41051320987149e+001dB,-2.17325435279402e-002°)
4.57088189614874e+000	(7.41050992230289e+001dB,-2.21893328344174e-002°)
4.67735141287197e+000	(7.41050649542229e+001dB,-2.26534675753336e-002°)
4.78630092322637e+000	(7.41050292405258e+001dB,-2.31249106817312e-002°)
4.89778819368445e+000	(7.41049920289025e+001dB,-2.36036123765363e-002°)
5.01187233627271e+000	(7.41049532650862e+001dB,-2.40895093535256e-002°)
5.12861383991364e+000	(7.41049128936179e+001dB,-2.45825239312623e-002°)
5.24807460249771e+000	(7.41048708578942e+001dB,-2.50825631837154e-002°)
5.37031796370252e+000	(7.41048271002242e+001dB,-2.55895180496497e-002°)
5.49540873857623e+000	(7.41047815618954e+001dB,-2.61032624232843e-002°)
5.62341325190348e+000	(7.41047341832501e+001dB,-2.66236522291608e-002°)
5.75439937337156e+000	(7.41046849037718e+001dB,-2.71505244846356e-002°)
5.88843655355588e+000	(7.41046336621844e+001dB,-2.76836963539245e-002°)
6.02559586074356e+000	(7.41045803965619e+001dB,-2.82229641981658e-002°)
6.16595001861481e+000	(7.41045250444520e+001dB,-2.87681026265420e-002°)
6.30957344480192e+000	(7.41044675430119e+001dB,-2.93188635541021e-002°)
6.45654229034654e+000	(7.41044078291594e+001dB,-2.98749752725482e-002°)
6.60693448007594e+000	(7.41043458397370e+001dB,-3.04361415408975e-002°)
6.76082975391980e+000	(7.41042815116916e+001dB,-3.10020407035921e-002°)
6.91830970918935e+000	(7.41042147822695e+001dB,-3.15723248442942e-002°)
7.07945784384136e+000	(7.41041455892273e+001dB,-3.21466189842788e-002°)
7.24435960074988e+000	(7.41040738710578e+001dB,-3.27245203349942e-002°)
7.41310241300916e+000	(7.41039995672328e+001dB,-3.33055976150050e-002°)
7.58577575029182e+000	(7.41039226184621e+001dB,-3.38893904421445e-002°)
7.76247116628690e+000	(7.41038429669672e+001dB,-3.44754088122750e-002°)
7.94328234724279e+000	(7.41037605567722e+001dB,-3.50631326765636e-002°)
8.12830516164097e+000	(7.41036753340089e+001dB,-3.56520116296219e-002°)
8.31763771102669e+000	(7.41035872472367e+001dB,-3.62414647212065e-002°)
8.51138038202374e+000	(7.41034962477760e+001dB,-3.68308804044160e-002°)
8.70963589956078e+000	(7.41034022900550e+001dB,-3.74196166334354e-002°)
8.91250938133743e+000	(7.41033053319666e+001dB,-3.80070011238479e-002°)
9.12010839355907e+000	(7.41032053352361e+001dB,-3.85923317883361e-002°)
9.33254300796988e+000	(7.41031022657962e+001dB,-3.91748773602168e-002°)
9.54992586021433e+000	(7.41029960941683e+001dB,-3.97538782166708e-002°)
9.77237220955808e+000	(7.41028867958472e+001dB,-4.03285474127323e-002°)
9.99999999999997e+000	(7.41027743516865e+001dB,-4.08980719360680e-002°)
1.02329299228075e+001	(7.41026587482825e+001dB,-4.14616141913021e-002°)
1.04712854805090e+001	(7.41025399783526e+001dB,-4.20183137211107e-002°)
1.07151930523760e+001	(7.41024180411057e+001dB,-4.25672891695237e-002°)
1.09647819614318e+001	(7.41022929426005e+001dB,-4.31076404908224e-002°)
1.12201845430196e+001	(7.41021646960879e+001dB,-4.36384514051229e-002°)
1.14815362149688e+001	(7.41020333223341e+001dB,-4.41587920991952e-002°)
1.17489755493953e+001	(7.41018988499196e+001dB,-4.46677221682981e-002°)
1.20226443461741e+001	(7.41017613155108e+001dB,-4.51642937918499e-002°)
1.23026877081238e+001	(7.41016207640999e+001dB,-4.56475551326188e-002°)
1.25892541179416e+001	(7.41014772492080e+001dB,-4.61165539458578e-002°)
1.28824955169313e+001	(7.41013308330488e+001dB,-4.65703413814640e-002°)
1.31825673855640e+001	(7.41011815866490e+001dB,-4.70079759588705e-002°)
1.34896288259165e+001	(7.41010295899202e+001dB,-4.74285276910316e-002°)
1.38038426460288e+001	(7.41008749316811e+001dB,-4.78310823306126e-002°)
1.41253754462275e+001	(7.41007177096257e+001dB,-4.82147457084020e-002°)
1.44543977074592e+001	(7.41005580302353e+001dB,-4.85786481311003e-002°)
1.47910838816820e+001	(7.41003960086333e+001dB,-4.89219488030827e-002°)
1.51356124843620e+001	(7.41002317683792e+001dB,-4.92438402345345e-002°)
1.54881661891248e+001	(7.41000654412044e+001dB,-4.95435525966119e-002°)
1.58489319246111e+001	(7.40998971666854e+001dB,-4.98203579830174e-002°)
1.62181009735892e+001	(7.40997270918599e+001dB,-5.00735745366771e-002°)
1.65958690743755e+001	(7.40995553707821e+001dB,-5.03025704000975e-002°)
1.69824365246174e+001	(7.40993821640239e+001dB,-5.05067674484993e-002°)
1.73780082874937e+001	(7.40992076381215e+001dB,-5.06856447659914e-002°)
1.77827941003892e+001	(7.40990319649727e+001dB,-5.08387418268779e-002°)
1.81970085860998e+001	(7.40988553211881e+001dB,-5.09656613466531e-002°)
1.86208713666286e+001	(7.40986778874025e+001dB,-5.10660717703333e-002°)
1.90546071796324e+001	(7.40984998475507e+001dB,-5.11397093694449e-002°)
1.94984459975804e+001	(7.40983213881140e+001dB,-5.11863799231805e-002°)
1.99526231496887e+001	(7.40981426973442e+001dB,-5.12059599638867e-002°)
2.04173794466952e+001	(7.40979639644724e+001dB,-5.11983975720718e-002°)
2.08929613085403e+001	(7.40977853789077e+001dB,-5.11637127114269e-002°)
2.13796208950222e+001	(7.40976071294356e+001dB,-5.11019970998427e-002°)
2.18776162394954e+001	(7.40974294034212e+001dB,-5.10134136179698e-002°)
2.23872113856833e+001	(7.40972523860255e+001dB,-5.08981952624047e-002°)
2.29086765276776e+001	(7.40970762594412e+001dB,-5.07566436559873e-002°)
2.34422881531991e+001	(7.40969012021546e+001dB,-5.05891271328502e-002°)
2.39883291901948e+001	(7.40967273882406e+001dB,-5.03960784206960e-002°)
2.45470891568502e+001	(7.40965549866956e+001dB,-5.01779919471776e-002°)
2.51188643150957e+001	(7.40963841608133e+001dB,-4.99354208011734e-002°)
2.57039578276885e+001	(7.40962150676096e+001dB,-4.96689733830991e-002°)
2.63026799189537e+001	(7.40960478572986e+001dB,-4.93793097811490e-002°)
2.69153480392690e+001	(7.40958826728240e+001dB,-4.90671379124711e-002°)
2.75422870333815e+001	(7.40957196494473e+001dB,-4.87332094697414e-002°)
2.81838293126444e+001	(7.40955589143962e+001dB,-4.83783157144063e-002°)
2.88403150312659e+001	(7.40954005865724e+001dB,-4.80032831580332e-002°)
2.95120922666637e+001	(7.40952447763192e+001dB,-4.76089691727605e-002°)
3.01995172040200e+001	(7.40950915852504e+001dB,-4.71962575708213e-002°)
3.09029543251358e+001	(7.40949411061362e+001dB,-4.67660541915768e-002°)
3.16227766016837e+001	(7.40947934228471e+001dB,-4.63192825324876e-002°)
3.23593656929627e+001	(7.40946486103526e+001dB,-4.58568794580468e-002°)
3.31131121482590e+001	(7.40945067347710e+001dB,-4.53797910179624e-002°)
3.38844156139201e+001	(7.40943678534690e+001dB,-4.48889684028771e-002°)
3.46736850452530e+001	(7.40942320152064e+001dB,-4.43853640627222e-002°)
3.54813389233574e+001	(7.40940992603222e+001dB,-4.38699280094952e-002°)
3.63078054770100e+001	(7.40939696209588e+001dB,-4.33436043228768e-002°)
3.71535229097171e+001	(7.40938431213199e+001dB,-4.28073278737434e-002°)
3.80189396320559e+001	(7.40937197779579e+001dB,-4.22620212773260e-002°)
3.89045144994279e+001	(7.40935996000867e+001dB,-4.17085920845696e-002°)
3.98107170553495e+001	(7.40934825899159e+001dB,-4.11479302172083e-002°)
4.07380277804111e+001	(7.40933687430030e+001dB,-4.05809056492072e-002°)
4.16869383470333e+001	(7.40932580486182e+001dB,-4.00083663345842e-002°)
4.26579518801591e+001	(7.40931504901203e+001dB,-3.94311363792128e-002°)
4.36515832240164e+001	(7.40930460453380e+001dB,-3.88500144520459e-002°)
4.46683592150961e+001	(7.40929446869555e+001dB,-3.82657724293015e-002°)
4.57088189614873e+001	(7.40928463828974e+001dB,-3.76791542635006e-002°)
4.67735141287196e+001	(7.40927510967124e+001dB,-3.70908750678642e-002°)
4.78630092322636e+001	(7.40926587879505e+001dB,-3.65016204054346e-002°)
4.89778819368444e+001	(7.40925694125351e+001dB,-3.59120457713862e-002°)
5.01187233627270e+001	(7.40924829231242e+001dB,-3.53227762563137e-002°)
5.12861383991362e+001	(7.40923992694624e+001dB,-3.47344063778215e-002°)
5.24807460249770e+001	(7.40923183987201e+001dB,-3.41475000674587e-002°)
5.37031796370250e+001	(7.40922402558194e+001dB,-3.35625907999457e-002°)
5.49540873857622e+001	(7.40921647837463e+001dB,-3.29801818516873e-002°)
5.62341325190346e+001	(7.40920919238475e+001dB,-3.24007466757551e-002°)
5.75439937337154e+001	(7.40920216161122e+001dB,-3.18247293808236e-002°)
5.88843655355586e+001	(7.40919537994374e+001dB,-3.12525453019472e-002°)
6.02559586074355e+001	(7.40918884118780e+001dB,-3.06845816515447e-002°)
6.16595001861479e+001	(7.40918253908800e+001dB,-3.01211982395037e-002°)
6.30957344480190e+001	(7.40917646734986e+001dB,-2.95627282519156e-002°)
6.45654229034652e+001	(7.40917061965994e+001dB,-2.90094790785785e-002°)
6.60693448007593e+001	(7.40916498970457e+001dB,-2.84617331800644e-002°)
6.76082975391978e+001	(7.40915957118687e+001dB,-2.79197489858123e-002°)
6.91830970918933e+001	(7.40915435784252e+001dB,-2.73837618153783e-002°)
7.07945784384134e+001	(7.40914934345391e+001dB,-2.68539848156419e-002°)
7.24435960074986e+001	(7.40914452186310e+001dB,-2.63306099074166e-002°)
7.41310241300914e+001	(7.40913988698342e+001dB,-2.58138087355504e-002°)
7.58577575029180e+001	(7.40913543280979e+001dB,-2.53037336172130e-002°)
7.76247116628688e+001	(7.40913115342794e+001dB,-2.48005184836497e-002°)
7.94328234724277e+001	(7.40912704302250e+001dB,-2.43042798112409e-002°)
8.12830516164095e+001	(7.40912309588404e+001dB,-2.38151175382268e-002°)
8.31763771102667e+001	(7.40911930641518e+001dB,-2.33331159639506e-002°)
8.51138038202372e+001	(7.40911566913571e+001dB,-2.28583446279302e-002°)
8.70963589956076e+001	(7.40911217868693e+001dB,-2.23908591664911e-002°)
8.91250938133741e+001	(7.40910882983522e+001dB,-2.19307021450863e-002°)
9.12010839355905e+001	(7.40910561747479e+001dB,-2.14779038647831e-002°)
9.33254300796986e+001	(7.40910253662991e+001dB,-2.10324831417251e-002°)
9.54992586021431e+001	(7.40909958245637e+001dB,-2.05944480586692e-002°)
9.77237220955805e+001	(7.40909675024249e+001dB,-2.01637966879663e-002°)
9.99999999999995e+001	(7.40909403540960e+001dB,-1.97405177855878e-002°)
1.02329299228075e+002	(7.40909143351203e+001dB,-1.93245914560144e-002°)
1.04712854805089e+002	(7.40908894023673e+001dB,-1.89159897879868e-002°)
1.07151930523760e+002	(7.40908655140246e+001dB,-1.85146774612836e-002°)
1.09647819614318e+002	(7.40908426295868e+001dB,-1.81206123248328e-002°)
1.12201845430196e+002	(7.40908207098418e+001dB,-1.77337459465838e-002°)
1.14815362149688e+002	(7.40907997168537e+001dB,-1.73540241356745e-002°)
1.17489755493952e+002	(7.40907796139441e+001dB,-1.69813874375129e-002°)
1.20226443461741e+002	(7.40907603656709e+001dB,-1.66157716024656e-002°)
1.23026877081237e+002	(7.40907419378059e+001dB,-1.62571080289065e-002°)
1.25892541179416e+002	(7.40907242973103e+001dB,-1.59053241814250e-002°)
1.28824955169313e+002	(7.40907074123098e+001dB,-1.55603439850277e-002°)
1.31825673855640e+002	(7.40906912520677e+001dB,-1.52220881961968e-002°)
1.34896288259165e+002	(7.40906757869582e+001dB,-1.48904747516839e-002°)
1.38038426460288e+002	(7.40906609884383e+001dB,-1.45654190959294e-002°)
1.41253754462275e+002	(7.40906468290196e+001dB,-1.42468344879991e-002°)
1.44543977074592e+002	(7.40906332822396e+001dB,-1.39346322889319e-002°)
1.47910838816820e+002	(7.40906203226329e+001dB,-1.36287222303788e-002°)
1.51356124843620e+002	(7.40906079257024e+001dB,-1.33290126654086e-002°)
1.54881661891247e+002	(7.40905960678904e+001dB,-1.30354108023352e-002°)
1.58489319246110e+002	(7.40905847265497e+001dB,-1.27478229224065e-002°)
1.62181009735892e+002	(7.40905738799151e+001dB,-1.24661545821734e-002°)
1.65958690743755e+002	(7.40905635070754e+001dB,-1.21903108013347e-002°)
1.69824365246173e+002	(7.40905535879452e+001dB,-1.19201962368289e-002°)
1.73780082874936e+002	(7.40905441032373e+001dB,-1.16557153439196e-002°)
1.77827941003891e+002	(7.40905350344362e+001dB,-1.13967725249944e-002°)
1.81970085860997e+002	(7.40905263637707e+001dB,-1.11432722667702e-002°)
1.86208713666286e+002	(7.40905180741886e+001dB,-1.08951192665690e-002°)
1.90546071796323e+002	(7.40905101493306e+001dB,-1.06522185483055e-002°)
1.94984459975803e+002	(7.40905025735061e+001dB,-1.04144755687937e-002°)
1.99526231496887e+002	(7.40904953316680e+001dB,-1.01817963149584e-002°)
2.04173794466952e+002	(7.40904884093897e+001dB,-9.95408739250743e-003°)
2.08929613085403e+002	(7.40904817928419e+001dB,-9.73125610659568e-003°)
2.13796208950222e+002	(7.40904754687698e+001dB,-9.51321053498463e-003°)
2.18776162394954e+002	(7.40904694244717e+001dB,-9.29985959417782e-003°)
2.23872113856832e+002	(7.40904636477778e+001dB,-9.09111309898668e-003°)
2.29086765276776e+002	(7.40904581270293e+001dB,-8.88688181595849e-003°)
2.34422881531991e+002	(7.40904528510590e+001dB,-8.68707751107472e-003°)
2.39883291901947e+002	(7.40904478091718e+001dB,-8.49161299210625e-003°)
2.45470891568501e+002	(7.40904429911259e+001dB,-8.30040214599072e-003°)
2.51188643150956e+002	(7.40904383871153e+001dB,-8.11335997157667e-003°)
2.57039578276885e+002	(7.40904339877518e+001dB,-7.93040260805964e-003°)
2.63026799189536e+002	(7.40904297840486e+001dB,-7.75144735941698e-003°)
2.69153480392690e+002	(7.40904257674038e+001dB,-7.57641271512977e-003°)
2.75422870333815e+002	(7.40904219295852e+001dB,-7.40521836746359e-003°)
2.81838293126443e+002	(7.40904182627145e+001dB,-7.23778522556344e-003°)
2.88403150312659e+002	(7.40904147592533e+001dB,-7.07403542660276e-003°)
2.95120922666637e+002	(7.40904114119890e+001dB,-6.91389234421172e-003°)
3.01995172040200e+002	(7.40904082140212e+001dB,-6.75728059439617e-003°)
3.09029543251357e+002	(7.40904051587489e+001dB,-6.60412603914516e-003°)
3.16227766016836e+002	(7.40904022398576e+001dB,-6.45435578791287e-003°)
3.23593656929626e+002	(7.40903994513077e+001dB,-6.30789819714841e-003°)
3.31131121482589e+002	(7.40903967873230e+001dB,-6.16468286803610e-003°)
3.38844156139200e+002	(7.40903942423791e+001dB,-6.02464064259827e-003°)
3.46736850452529e+002	(7.40903918111934e+001dB,-5.88770359830253e-003°)
3.54813389233573e+002	(7.40903894887142e+001dB,-5.75380504130583e-003°)
3.63078054770099e+002	(7.40903872701113e+001dB,-5.62287949845940e-003°)
3.71535229097170e+002	(7.40903851507664e+001dB,-5.49486270818952e-003°)
3.80189396320558e+002	(7.40903831262643e+001dB,-5.36969161036170e-003°)
3.89045144994278e+002	(7.40903811923835e+001dB,-5.24730433522843e-003°)
3.98107170553494e+002	(7.40903793450889e+001dB,-5.12764019155343e-003°)
4.07380277804110e+002	(7.40903775805227e+001dB,-5.01063965399900e-003°)
4.16869383470332e+002	(7.40903758949976e+001dB,-4.89624434985700e-003°)
4.26579518801589e+002	(7.40903742849889e+001dB,-4.78439704519796e-003°)
4.36515832240163e+002	(7.40903727471278e+001dB,-4.67504163050775e-003°)
4.46683592150960e+002	(7.40903712781945e+001dB,-4.56812310587587e-003°)
4.57088189614872e+002	(7.40903698751115e+001dB,-4.46358756579493e-003°)
4.67735141287195e+002	(7.40903685349379e+001dB,-4.36138218362626e-003°)
4.78630092322635e+002	(7.40903672548628e+001dB,-4.26145519578257e-003°)
4.89778819368443e+002	(7.40903660322003e+001dB,-4.16375588567464e-003°)
5.01187233627268e+002	(7.40903648643836e+001dB,-4.06823456746527e-003°)
5.12861383991361e+002	(7.40903637489598e+001dB,-3.97484256967059e-003°)
5.24807460249769e+002	(7.40903626835853e+001dB,-3.88353221864535e-003°)
5.37031796370249e+002	(7.40903616660204e+001dB,-3.79425682198609e-003°)
5.49540873857620e+002	(7.40903606941251e+001dB,-3.70697065188315e-003°)
5.62341325190345e+002	(7.40903597658548e+001dB,-3.62162892845001e-003°)
5.75439937337152e+002	(7.40903588792558e+001dB,-3.53818780305598e-003°)
