Freq.	V(n002)/-I(R1)
Step Information: 1=1  (Run: 1/11)
1.00000000000000e+000	(5073.309648181991dB,-0.00509400814236467°)
1.02329299228075e+000	(5073.308590962438dB,-0.0052120536140065°)
1.04712854805090e+000	(5073.307484182738dB,-0.0053328053030301°)
1.07151930523761e+000	(5073.306325532664dB,-0.00545632315932456°)
1.09647819614318e+000	(5073.3051125955135dB,-0.00558266831078784°)
1.12201845430196e+000	(5073.30384284341dB,-0.00571190307542547°)
1.14815362149688e+000	(5073.302513632246dB,-0.00584409097266765°)
1.17489755493953e+000	(5073.301122196587dB,-0.00597929673381465°)
1.20226443461741e+000	(5073.299665644057dB,-0.00611758631151335°)
1.23026877081238e+000	(5073.298140949946dB,-0.00625902688816096°)
1.25892541179417e+000	(5073.296544951043dB,-0.00640368688312398°)
1.28824955169313e+000	(5073.294874339865dB,-0.00655163595865244°)
1.31825673855641e+000	(5073.293125657986dB,-0.00670294502436094°)
1.34896288259165e+000	(5073.291295289552dB,-0.00685768624013861°)
1.38038426460288e+000	(5073.28937945445dB,-0.00701593301734057°)
1.41253754462275e+000	(5073.287374200937dB,-0.00717776001810291°)
1.44543977074593e+000	(5073.28527539836dB,-0.00734324315261287°)
1.47910838816821e+000	(5073.283078729394dB,-0.00751245957415342°)
1.51356124843621e+000	(5073.280779681849dB,-0.00768548767173026°)
1.54881661891248e+000	(5073.278373540559dB,-0.00786240706007543°)
1.58489319246111e+000	(5073.275855378477dB,-0.00804329856680891°)
1.62181009735893e+000	(5073.273220047835dB,-0.00822824421652458°)
1.65958690743756e+000	(5073.270462170772dB,-0.00841732721155233°)
1.69824365246174e+000	(5073.267576129679dB,-0.00861063190913179°)
1.73780082874937e+000	(5073.264556057147dB,-0.00880824379471684°)
1.77827941003892e+000	(5073.26139582559dB,-0.00901024945111239°)
1.81970085860998e+000	(5073.258089036612dB,-0.00921673652312631°)
1.86208713666287e+000	(5073.254629009965dB,-0.00942779367740092°)
1.90546071796325e+000	(5073.251008771833dB,-0.0096435105570677°)
1.94984459975804e+000	(5073.247221043443dB,-0.00986397773084833°)
1.99526231496888e+000	(5073.243258228376dB,-0.0100892866362036°)
2.04173794466953e+000	(5073.239112400402dB,-0.0103195295161092°)
2.08929613085404e+000	(5073.234775290399dB,-0.0105547993490127°)
2.13796208950223e+000	(5073.230238272988dB,-0.010795189771506°)
2.18776162394955e+000	(5073.225492352932dB,-0.0110407949932156°)
2.23872113856834e+000	(5073.220528151128dB,-0.0112917097033962°)
2.29086765276777e+000	(5073.215335890158dB,-0.0115480289686791°)
2.34422881531992e+000	(5073.2099053794345dB,-0.0118098481214062°)
2.39883291901949e+000	(5073.204226000436dB,-0.0120772626379488°)
2.45470891568503e+000	(5073.19828669117dB,-0.0123503680063875°)
2.51188643150958e+000	(5073.192075930263dB,-0.0126292595828979°)
2.57039578276886e+000	(5073.185581721573dB,-0.0129140324361618°)
2.63026799189538e+000	(5073.178791577349dB,-0.0132047811790974°)
2.69153480392691e+000	(5073.171692502268dB,-0.0135015997871713°)
2.75422870333816e+000	(5073.164270976713dB,-0.0138045814025341°)
2.81838293126445e+000	(5073.1565129400105dB,-0.0141138181231935°)
2.88403150312660e+000	(5073.148403773646dB,-0.014429400776416°)
2.95120922666638e+000	(5073.139928284357dB,-0.0147514186755279°)
3.01995172040201e+000	(5073.131070687262dB,-0.0150799593592646°)
3.09029543251359e+000	(5073.121814589252dB,-0.0154151083128042°)
3.16227766016837e+000	(5073.112142972196dB,-0.0157569486696047°)
3.23593656929628e+000	(5073.102038176714dB,-0.0161055608931571°)
3.31131121482591e+000	(5073.091481886023dB,-0.0164610224377616°)
3.38844156139202e+000	(5073.080455110533dB,-0.0168234073874347°)
3.46736850452531e+000	(5073.0689381725315dB,-0.0171927860720624°)
3.54813389233575e+000	(5073.05691069186dB,-0.0175692246599288°)
3.63078054770101e+000	(5073.044351572509dB,-0.0179527847257723°)
3.71535229097172e+000	(5073.031238989546dB,-0.0183435227935516°)
3.80189396320560e+000	(5073.017550377865dB,-0.018741489853149°)
3.89045144994280e+000	(5073.00326242182dB,-0.0191467308502875°)
3.98107170553496e+000	(5072.988351046066dB,-0.0195592841490102°)
4.07380277804112e+000	(5072.972791408735dB,-0.019979180966145°)
4.16869383470335e+000	(5072.956557895585dB,-0.0204064447772812°)
4.26579518801592e+000	(5072.939624117085dB,-0.0208410906938922°)
4.36515832240165e+000	(5072.921962907098dB,-0.0212831248113767°)
4.46683592150962e+000	(5072.9035463247355dB,-0.0217325435279402°)
4.57088189614874e+000	(5072.884345658431dB,-0.0221893328344174°)
4.67735141287197e+000	(5072.86433143377dB,-0.0226534675753336°)
4.78630092322637e+000	(5072.84347342437dB,-0.0231249106817312°)
4.89778819368445e+000	(5072.821740666544dB,-0.0236036123765363°)
5.01187233627271e+000	(5072.799101478215dB,-0.0240895093535256°)
5.12861383991364e+000	(5072.775523482094dB,-0.0245825239312623°)
5.24807460249771e+000	(5072.750973633643dB,-0.0250825631837154°)
5.37031796370252e+000	(5072.725418254375dB,-0.0255895180496497°)
5.49540873857623e+000	(5072.698823070448dB,-0.0261032624232843°)
5.62341325190348e+000	(5072.671153257367dB,-0.0266236522291608°)
5.75439937337156e+000	(5072.64237349049dB,-0.0271505244846356°)
5.88843655355588e+000	(5072.612448003102dB,-0.0276836963539245°)
6.02559586074356e+000	(5072.581340650543dB,-0.0282229641981658°)
6.16595001861481e+000	(5072.549014982494dB,-0.028768102626542°)
6.30957344480192e+000	(5072.515434322364dB,-0.0293188635541021°)
6.45654229034654e+000	(5072.480561855646dB,-0.0298749752725482°)
6.60693448007594e+000	(5072.4443607258545dB,-0.0304361415408975°)
6.76082975391980e+000	(5072.406794139539dB,-0.0310020407035921°)
6.91830970918935e+000	(5072.367825480256dB,-0.0315723248442942°)
7.07945784384136e+000	(5072.327418431853dB,-0.0321466189842788°)
7.24435960074988e+000	(5072.2855371104415dB,-0.0327245203349942°)
7.41310241300916e+000	(5072.2421462062775dB,-0.033305597615005°)
7.58577575029182e+000	(5072.1972111351115dB,-0.0338893904421445°)
7.76247116628690e+000	(5072.15069819808dB,-0.034475408812275°)
7.94328234724279e+000	(5072.102574751591dB,-0.0350631326765636°)
8.12830516164097e+000	(5072.052809385619dB,-0.0356520116296219°)
8.31763771102669e+000	(5072.001372110507dB,-0.0362414647212065°)
8.51138038202374e+000	(5071.948234551657dB,-0.036830880404416°)
8.70963589956078e+000	(5071.893370152098dB,-0.0374196166334354°)
8.91250938133743e+000	(5071.836754380818dB,-0.0380070011238479°)
9.12010839355907e+000	(5071.778364947519dB,-0.0385923317883361°)
9.33254300796988e+000	(5071.718182021459dB,-0.0391748773602168°)
9.54992586021433e+000	(5071.656188454067dB,-0.0397538782166708°)
9.77237220955808e+000	(5071.592370003444dB,-0.0403285474127323°)
9.99999999999997e+000	(5071.526715559287dB,-0.040898071936068°)
1.02329299228075e+001	(5071.459217366847dB,-0.0414616141913021°)
1.04712854805090e+001	(5071.389871247715dB,-0.0420183137211107°)
1.07151930523760e+001	(5071.318676815825dB,-0.0425672891695237°)
1.09647819614318e+001	(5071.245637686422dB,-0.0431076404908224°)
1.12201845430196e+001	(5071.170761675626dB,-0.0436384514051229°)
1.14815362149688e+001	(5071.094060988808dB,-0.0441587920991952°)
1.17489755493953e+001	(5071.015552394722dB,-0.0446677221682981°)
1.20226443461741e+001	(5070.935257383686dB,-0.0451642937918499°)
1.23026877081238e+001	(5070.853202307214dB,-0.0456475551326188°)
1.25892541179416e+001	(5070.7694184960665dB,-0.0461165539458578°)
1.28824955169313e+001	(5070.68394235536dB,-0.046570341381464°)
1.31825673855640e+001	(5070.596815434257dB,-0.0470079759588705°)
1.34896288259165e+001	(5070.5080844674dB,-0.0474285276910316°)
1.38038426460288e+001	(5070.417801387277dB,-0.0478310823306126°)
1.41253754462275e+001	(5070.326023305014dB,-0.048214745708402°)
1.44543977074592e+001	(5070.232812458424dB,-0.0485786481311003°)
1.47910838816820e+001	(5070.138236126545dB,-0.0489219488030827°)
1.51356124843620e+001	(5070.042366508801dB,-0.0492438402345345°)
1.54881661891248e+001	(5069.945280570109dB,-0.0495435525966119°)
1.58489319246111e+001	(5069.847059849491dB,-0.0498203579830174°)
1.62181009735892e+001	(5069.747790235415dB,-0.0500735745366771°)
1.65958690743755e+001	(5069.647561705542dB,-0.0503025704000975°)
1.69824365246174e+001	(5069.5464680351315dB,-0.0505067674484993°)
1.73780082874937e+001	(5069.444606473429dB,-0.0506856447659914°)
1.77827941003892e+001	(5069.3420773914395dB,-0.0508387418268779°)
1.81970085860998e+001	(5069.238983902819dB,-0.0509656613466531°)
1.86208713666286e+001	(5069.135431461608dB,-0.0510660717703333°)
1.90546071796324e+001	(5069.031527439219dB,-0.0511397093694449°)
1.94984459975804e+001	(5068.927380684464dB,-0.0511863799231805°)
1.99526231496887e+001	(5068.823101070456dB,-0.0512059599638867°)
2.04173794466952e+001	(5068.718799032765dB,-0.0511983975720718°)
2.08929613085403e+001	(5068.614585101765dB,-0.0511637127114269°)
2.13796208950222e+001	(5068.510569434827dB,-0.0511019970998427°)
2.18776162394954e+001	(5068.406861351468dB,-0.0510134136179698°)
2.23872113856833e+001	(5068.303568876198dB,-0.0508981952624047°)
2.29086765276776e+001	(5068.200798292798dB,-0.0507566436559873°)
2.34422881531991e+001	(5068.098653713943dB,-0.0505891271328502°)
2.39883291901948e+001	(5067.997236670161dB,-0.050396078420696°)
2.45470891568502e+001	(5067.896645721047dB,-0.0501779919471776°)
2.51188643150957e+001	(5067.796976091471dB,-0.0499354208011734°)
2.57039578276885e+001	(5067.698319336555dB,-0.0496689733830991°)
2.63026799189537e+001	(5067.600763036491dB,-0.049379309781149°)
2.69153480392690e+001	(5067.504390523744dB,-0.0490671379124711°)
2.75422870333815e+001	(5067.40928064335dB,-0.0487332094697414°)
2.81838293126444e+001	(5067.315507548444dB,-0.0483783157144063°)
2.88403150312659e+001	(5067.223140530434dB,-0.0480032831580332°)
2.95120922666637e+001	(5067.132243884028dB,-0.0476089691727605°)
3.01995172040200e+001	(5067.042876808065dB,-0.0471962575708213°)
3.09029543251358e+001	(5066.955093339625dB,-0.0467660541915768°)
3.16227766016837e+001	(5066.868942321878dB,-0.0463192825324876°)
3.23593656929627e+001	(5066.784467403953dB,-0.0458568794580468°)
3.31131121482590e+001	(5066.701707070554dB,-0.0453797910179624°)
3.38844156139201e+001	(5066.62069470064dB,-0.0448889684028771°)
3.46736850452530e+001	(5066.541458652359dB,-0.0443853640627222°)
3.54813389233574e+001	(5066.4640223720635dB,-0.0438699280094952°)
3.63078054770100e+001	(5066.388404525606dB,-0.0433436043228768°)
3.71535229097171e+001	(5066.314619149155dB,-0.0428073278737434°)
3.80189396320559e+001	(5066.242675817239dB,-0.042262021277326°)
3.89045144994279e+001	(5066.172579825563dB,-0.0417085920845696°)
3.98107170553495e+001	(5066.104332386237dB,-0.0411479302172083°)
4.07380277804111e+001	(5066.0379308335005dB,-0.0405809056492072°)
4.16869383470333e+001	(5065.973368836729dB,-0.0400083663345842°)
4.26579518801591e+001	(5065.910636619883dB,-0.0394311363792128°)
4.36515832240164e+001	(5065.849721184104dB,-0.0388500144520459°)
4.46683592150961e+001	(5065.790606532736dB,-0.0382657724293015°)
4.57088189614873e+001	(5065.733273895914dB,-0.0376791542635006°)
4.67735141287196e+001	(5065.677701954477dB,-0.0370908750678642°)
4.78630092322636e+001	(5065.623867059993dB,-0.0365016204054346°)
4.89778819368444e+001	(5065.5717434518265dB,-0.0359120457713862°)
5.01187233627270e+001	(5065.521303467786dB,-0.0353227762563137°)
5.12861383991362e+001	(5065.472517749451dB,-0.0347344063778215°)
5.24807460249770e+001	(5065.425355439926dB,-0.0341475000674587°)
5.37031796370250e+001	(5065.379784373923dB,-0.0335625907999457°)
5.49540873857622e+001	(5065.335771259729dB,-0.0329801818516873°)
5.62341325190346e+001	(5065.293281852297dB,-0.0324007466757551°)
5.75439937337154e+001	(5065.252281117455dB,-0.0318247293808236°)
5.88843655355586e+001	(5065.212733386589dB,-0.0312525453019472°)
6.02559586074355e+001	(5065.174602502403dB,-0.0306845816515447°)
6.16595001861479e+001	(5065.137851954816dB,-0.0301211982395037°)
6.30957344480190e+001	(5065.102445008068dB,-0.0295627282519156°)
6.45654229034652e+001	(5065.068344817942dB,-0.0290094790785785°)
6.60693448007593e+001	(5065.0355145409dB,-0.0284617331800644°)
6.76082975391978e+001	(5065.003917433271dB,-0.0279197489858123°)
6.91830970918933e+001	(5064.973516943032dB,-0.0273837618153783°)
7.07945784384134e+001	(5064.9442767923265dB,-0.0268539848156419°)
7.24435960074986e+001	(5064.9161610528745dB,-0.0263306099074166°)
7.41310241300914e+001	(5064.889134213551dB,-0.0258138087355504°)
7.58577575029180e+001	(5064.863161240474dB,-0.025303733617213°)
7.76247116628688e+001	(5064.838207630656dB,-0.0248005184836497°)
7.94328234724277e+001	(5064.814239459134dB,-0.0243042798112409°)
8.12830516164095e+001	(5064.79122341992dB,-0.0238151175382268°)
8.31763771102667e+001	(5064.769126861532dB,-0.0233331159639506°)
8.51138038202372e+001	(5064.747917816794dB,-0.0228583446279302°)
8.70963589956076e+001	(5064.7275650280635dB,-0.0223908591664911°)
8.91250938133741e+001	(5064.708037968004dB,-0.0219307021450863°)
9.12010839355905e+001	(5064.689306855494dB,-0.0214779038647831°)
9.33254300796986e+001	(5064.671342668639dB,-0.0210324831417251°)
9.54992586021431e+001	(5064.654117153175dB,-0.0205944480586692°)
9.77237220955805e+001	(5064.637602828332dB,-0.0201637966879663°)
9.99999999999995e+001	(5064.621772989564dB,-0.0197405177855878°)
1.02329299228075e+002	(5064.606601708443dB,-0.0193245914560144°)
1.04712854805089e+002	(5064.592063830405dB,-0.0189159897879868°)
1.07151930523760e+002	(5064.578134969975dB,-0.0185146774612836°)
1.09647819614318e+002	(5064.564791504258dB,-0.0181206123248328°)
1.12201845430196e+002	(5064.552010564897dB,-0.0177337459465838°)
1.14815362149688e+002	(5064.539770028117dB,-0.0173540241356745°)
1.17489755493952e+002	(5064.528048503713dB,-0.0169813874375129°)
1.20226443461741e+002	(5064.516825322727dB,-0.0166157716024656°)
1.23026877081237e+002	(5064.506080524296dB,-0.0162571080289065°)
1.25892541179416e+002	(5064.4957948413985dB,-0.015905324181425°)
1.28824955169313e+002	(5064.4859496862655dB,-0.0155603439850277°)
1.31825673855640e+002	(5064.476527134711dB,-0.0152220881961968°)
1.34896288259165e+002	(5064.467509910505dB,-0.0148904747516839°)
1.38038426460288e+002	(5064.458881368983dB,-0.0145654190959294°)
1.41253754462275e+002	(5064.450625480605dB,-0.0142468344879991°)
1.44543977074592e+002	(5064.442726814164dB,-0.0139346322889319°)
1.47910838816820e+002	(5064.435170520032dB,-0.0136287222303788°)
1.51356124843620e+002	(5064.42794231329dB,-0.0133290126654086°)
1.54881661891247e+002	(5064.421028456919dB,-0.0130354108023352°)
1.58489319246110e+002	(5064.414415744891dB,-0.0127478229224065°)
1.62181009735892e+002	(5064.408091485592dB,-0.0124661545821734°)
1.65958690743755e+002	(5064.402043485431dB,-0.0121903108013347°)
1.69824365246173e+002	(5064.39626003242dB,-0.0119201962368289°)
1.73780082874936e+002	(5064.390729880076dB,-0.0116557153439196°)
1.77827941003891e+002	(5064.385442231926dB,-0.0113967725249944°)
1.81970085860997e+002	(5064.380386725582dB,-0.0111432722667702°)
1.86208713666286e+002	(5064.375553417908dB,-0.010895119266569°)
1.90546071796323e+002	(5064.370932769884dB,-0.0106522185483055°)
1.94984459975803e+002	(5064.366515632404dB,-0.0104144755687937°)
1.99526231496887e+002	(5064.36229323163dB,-0.0101817963149584°)
2.04173794466952e+002	(5064.358257155576dB,-0.00995408739250743°)
2.08929613085403e+002	(5064.354399340527dB,-0.00973125610659568°)
2.13796208950222e+002	(5064.350712057814dB,-0.00951321053498463°)
2.18776162394954e+002	(5064.347187901288dB,-0.00929985959417782°)
2.23872113856832e+002	(5064.343819774927dB,-0.00909111309898668°)
2.29086765276776e+002	(5064.3406008807415dB,-0.00888688181595849°)
2.34422881531991e+002	(5064.337524707362dB,-0.00868707751107472°)
2.39883291901947e+002	(5064.3345850187225dB,-0.00849161299210625°)
2.45470891568501e+002	(5064.331775843062dB,-0.00830040214599072°)
2.51188643150956e+002	(5064.329091462769dB,-0.00811335997157667°)
2.57039578276885e+002	(5064.326526403821dB,-0.00793040260805964°)
2.63026799189536e+002	(5064.324075426275dB,-0.00775144735941698°)
2.69153480392690e+002	(5064.321733514614dB,-0.00757641271512977°)
2.75422870333815e+002	(5064.319495868886dB,-0.00740521836746359°)
2.81838293126443e+002	(5064.317357895498dB,-0.00723778522556344°)
2.88403150312659e+002	(5064.315315199068dB,-0.00707403542660276°)
2.95120922666637e+002	(5064.313363574154dB,-0.00691389234421172°)
3.01995172040200e+002	(5064.311498997379dB,-0.00675728059439617°)
3.09029543251357e+002	(5064.30971761993dB,-0.00660412603914516°)
3.16227766016836e+002	(5064.308015760052dB,-0.00645435578791287°)
3.23593656929626e+002	(5064.306389896275dB,-0.00630789819714841°)
3.31131121482589e+002	(5064.304836660716dB,-0.0061646828680361°)
3.38844156139200e+002	(5064.303352832306dB,-0.00602464064259827°)
3.46736850452529e+002	(5064.3019353309655dB,-0.00588770359830253°)
3.54813389233573e+002	(5064.300581211256dB,-0.00575380504130583°)
3.63078054770099e+002	(5064.299287656882dB,-0.0056228794984594°)
3.71535229097170e+002	(5064.298051975106dB,-0.00549486270818952°)
3.80189396320558e+002	(5064.296871591606dB,-0.0053696916103617°)
3.89045144994278e+002	(5064.295744044999dB,-0.00524730433522843°)
3.98107170553494e+002	(5064.294666982593dB,-0.00512764019155343°)
4.07380277804110e+002	(5064.293638155069dB,-0.005010639653999°)
4.16869383470332e+002	(5064.292655412539dB,-0.004896244349857°)
4.26579518801589e+002	(5064.291716699881dB,-0.00478439704519796°)
4.36515832240163e+002	(5064.290820052926dB,-0.00467504163050775°)
4.46683592150960e+002	(5064.289963594333dB,-0.00456812310587587°)
4.57088189614872e+002	(5064.289145529767dB,-0.00446358756579493°)
4.67735141287195e+002	(5064.288364144507dB,-0.00436138218362626°)
4.78630092322635e+002	(5064.2876177996595dB,-0.00426145519578257°)
4.89778819368443e+002	(5064.286904929199dB,-0.00416375588567464°)
5.01187233627268e+002	(5064.286224036556dB,-0.00406823456746527°)
5.12861383991361e+002	(5064.285573691543dB,-0.00397484256967059°)
5.24807460249769e+002	(5064.284952527718dB,-0.00388353221864535°)
5.37031796370249e+002	(5064.2843592392355dB,-0.00379425682198609°)
5.49540873857620e+002	(5064.2837925783515dB,-0.00370697065188315°)
5.62341325190345e+002	(5064.2832513529665dB,-0.00362162892845001°)
5.75439937337152e+002	(5064.282734423968dB,-0.00353818780305598°)
5.88843655355584e+002	(5064.282240703088dB,-0.00345660434168605°)
6.02559586074353e+002	(5064.281769150466dB,-0.00337683650834966°)
6.16595001861477e+002	(5064.281318772695dB,-0.00329884314855797°)
6.30957344480188e+002	(5064.2808886206285dB,-0.00322258397288788°)
6.45654229034650e+002	(5064.280477787559dB,-0.00314801954064875°)
6.60693448007591e+002	(5064.280085407139dB,-0.00307511124366678°)
6.76082975391976e+002	(5064.2797106517855dB,-0.00300382129020013°)
6.91830970918931e+002	(5064.279352730943dB,-0.00293411268899673°)
7.07945784384132e+002	(5064.279010889218dB,-0.0028659492335055°)
7.24435960074984e+002	(5064.27868440519dB,-0.00279929548625025°)
7.41310241300911e+002	(5064.278372589583dB,-0.00273411676337493°)
7.58577575029177e+002	(5064.278074783857dB,-0.0026703791193674°)
7.76247116628685e+002	(5064.277790359172dB,-0.00260804933196834°)
7.94328234724275e+002	(5064.277518714595dB,-0.0025470948872708°)
8.12830516164092e+002	(5064.277259276232dB,-0.00248748396501538°)
8.31763771102664e+002	(5064.277011495773dB,-0.00242918542408492°)
8.51138038202369e+002	(5064.276774849586dB,-0.0023721687882024°)
8.70963589956073e+002	(5064.276548837423dB,-0.00231640423183451°)
8.91250938133738e+002	(5064.276332981412dB,-0.00226186256630344°)
9.12010839355902e+002	(5064.276126825088dB,-0.00220851522610841°)
9.33254300796983e+002	(5064.275929932508dB,-0.00215633425545816°)
9.54992586021428e+002	(5064.2757418871815dB,-0.00210529229501523°)
9.77237220955802e+002	(5064.275562291377dB,-0.00205536256885239°)
9.99999999999991e+002	(5064.275390765057dB,-0.00200651887162108°)
1.02329299228075e+003	(5064.275226945388dB,-0.00195873555593171°)
1.04712854805089e+003	(5064.275070485575dB,-0.00191198751994498°)
1.07151930523760e+003	(5064.27492105457dB,-0.0018662501951733°)
1.09647819614318e+003	(5064.274778336109dB,-0.00182149953449114°)
