Freq.	V(vo)
Step Information: 1=1  (Run: 1/11)
1.00000000000000e+000	(3.87750140380078e+001dB,1.77147969692511e+002°)
1.02329299228075e+000	(3.87745073437888e+001dB,1.77081650908228e+002°)
1.04712854805090e+000	(3.87739768331604e+001dB,1.77013795463573e+002°)
1.07151930523761e+000	(3.87734213897851e+001dB,1.76944368142493e+002°)
1.09647819614318e+000	(3.87728398452995e+001dB,1.76873332949685e+002°)
1.12201845430196e+000	(3.87722309769187e+001dB,1.76800653095347e+002°)
1.14815362149688e+000	(3.87715935049328e+001dB,1.76726290979774e+002°)
1.17489755493953e+000	(3.87709260900915e+001dB,1.76650208177826e+002°)
1.20226443461741e+000	(3.87702273308720e+001dB,1.76572365423255e+002°)
1.23026877081238e+000	(3.87694957606247e+001dB,1.76492722592921e+002°)
1.25892541179417e+000	(3.87687298445926e+001dB,1.76411238690905e+002°)
1.28824955169313e+000	(3.87679279767986e+001dB,1.76327871832542e+002°)
1.31825673855641e+000	(3.87670884767947e+001dB,1.76242579228378e+002°)
1.34896288259165e+000	(3.87662095862689e+001dB,1.76155317168085e+002°)
1.38038426460288e+000	(3.87652894655030e+001dB,1.76066041004343e+002°)
1.41253754462275e+000	(3.87643261896751e+001dB,1.75974705136724e+002°)
1.44543977074593e+000	(3.87633177450020e+001dB,1.75881262995593e+002°)
1.47910838816821e+000	(3.87622620247131e+001dB,1.75785667026055e+002°)
1.51356124843621e+000	(3.87611568248516e+001dB,1.75687868671985e+002°)
1.54881661891248e+000	(3.87599998398943e+001dB,1.75587818360166e+002°)
1.58489319246111e+000	(3.87587886581842e+001dB,1.75485465484570e+002°)
1.62181009735893e+000	(3.87575207571685e+001dB,1.75380758390829e+002°)
1.65958690743756e+000	(3.87561934984354e+001dB,1.75273644360921e+002°)
1.69824365246174e+000	(3.87548041225408e+001dB,1.75164069598133e+002°)
1.73780082874937e+000	(3.87533497436188e+001dB,1.75051979212339e+002°)
1.77827941003892e+000	(3.87518273437682e+001dB,1.74937317205643e+002°)
1.81970085860998e+000	(3.87502337672062e+001dB,1.74820026458446e+002°)
1.86208713666287e+000	(3.87485657141821e+001dB,1.74700048716004e+002°)
1.90546071796325e+000	(3.87468197346427e+001dB,1.74577324575522e+002°)
1.94984459975804e+000	(3.87449922216422e+001dB,1.74451793473879e+002°)
1.99526231496888e+000	(3.87430794044862e+001dB,1.74323393676025e+002°)
2.04173794466953e+000	(3.87410773416041e+001dB,1.74192062264168e+002°)
2.08929613085404e+000	(3.87389819131401e+001dB,1.74057735127801e+002°)
2.13796208950223e+000	(3.87367888132546e+001dB,1.73920346954679e+002°)
2.18776162394955e+000	(3.87344935421296e+001dB,1.73779831222840e+002°)
2.23872113856834e+000	(3.87320913976666e+001dB,1.73636120193764e+002°)
2.29086765276777e+000	(3.87295774668735e+001dB,1.73489144906798e+002°)
2.34422881531992e+000	(3.87269466169287e+001dB,1.73338835174943e+002°)
2.39883291901949e+000	(3.87241934859172e+001dB,1.73185119582144e+002°)
2.45470891568503e+000	(3.87213124732321e+001dB,1.73027925482207e+002°)
2.51188643150958e+000	(3.87182977296317e+001dB,1.72867178999492e+002°)
2.57039578276886e+000	(3.87151431469498e+001dB,1.72702805031519e+002°)
2.63026799189538e+000	(3.87118423474504e+001dB,1.72534727253660e+002°)
2.69153480392691e+000	(3.87083886728228e+001dB,1.72362868126072e+002°)
2.75422870333816e+000	(3.87047751728128e+001dB,1.72187148903055e+002°)
2.81838293126445e+000	(3.87009945934866e+001dB,1.72007489645027e+002°)
2.88403150312660e+000	(3.86970393651236e+001dB,1.71823809233297e+002°)
2.95120922666638e+000	(3.86929015897377e+001dB,1.71636025387864e+002°)
3.01995172040201e+000	(3.86885730282269e+001dB,1.71444054688447e+002°)
3.09029543251359e+000	(3.86840450871505e+001dB,1.71247812598980e+002°)
3.16227766016837e+000	(3.86793088051391e+001dB,1.71047213495820e+002°)
3.23593656929628e+000	(3.86743548389390e+001dB,1.70842170699902e+002°)
3.31131121482591e+000	(3.86691734490995e+001dB,1.70632596513131e+002°)
3.38844156139202e+000	(3.86637544853093e+001dB,1.70418402259265e+002°)
3.46736850452531e+000	(3.86580873713942e+001dB,1.70199498329581e+002°)
3.54813389233575e+000	(3.86521610899880e+001dB,1.69975794233635e+002°)
3.63078054770101e+000	(3.86459641668932e+001dB,1.69747198655405e+002°)
3.71535229097172e+000	(3.86394846551497e+001dB,1.69513619515154e+002°)
3.80189396320560e+000	(3.86327101188347e+001dB,1.69274964037335e+002°)
3.89045144994280e+000	(3.86256276166177e+001dB,1.69031138824881e+002°)
3.98107170553496e+000	(3.86182236851022e+001dB,1.68782049940225e+002°)
4.07380277804112e+000	(3.86104843219865e+001dB,1.68527602993413e+002°)
4.16869383470335e+000	(3.86023949690822e+001dB,1.68267703237672e+002°)
4.26579518801592e+000	(3.85939404952334e+001dB,1.68002255672797e+002°)
4.36515832240165e+000	(3.85851051791843e+001dB,1.67731165156737e+002°)
4.46683592150962e+000	(3.85758726924503e+001dB,1.67454336525753e+002°)
4.57088189614874e+000	(3.85662260822498e+001dB,1.67171674723522e+002°)
4.67735141287197e+000	(3.85561477545636e+001dB,1.66883084939559e+002°)
4.78630092322637e+000	(3.85456194573943e+001dB,1.66588472757329e+002°)
4.89778819368445e+000	(3.85346222643036e+001dB,1.66287744312405e+002°)
5.01187233627271e+000	(3.85231365583139e+001dB,1.65980806461017e+002°)
5.12861383991364e+000	(3.85111420162676e+001dB,1.65667566959335e+002°)
5.24807460249771e+000	(3.84986175937454e+001dB,1.65347934653781e+002°)
5.37031796370252e+000	(3.84855415106530e+001dB,1.65021819682679e+002°)
5.49540873857623e+000	(3.84718912375918e+001dB,1.64689133689486e+002°)
5.62341325190348e+000	(3.84576434831419e+001dB,1.64349790047832e+002°)
5.75439937337156e+000	(3.84427741821887e+001dB,1.64003704098562e+002°)
5.88843655355588e+000	(3.84272584854370e+001dB,1.63650793398904e+002°)
6.02559586074356e+000	(3.84110707502634e+001dB,1.63290977983850e+002°)
6.16595001861481e+000	(3.83941845330650e+001dB,1.62924180639781e+002°)
6.30957344480192e+000	(3.83765725832733e+001dB,1.62550327190269e+002°)
6.45654229034654e+000	(3.83582068392060e+001dB,1.62169346793959e+002°)
6.60693448007594e+000	(3.83390584259409e+001dB,1.61781172254304e+002°)
6.76082975391980e+000	(3.83190976553985e+001dB,1.61385740340857e+002°)
6.91830970918935e+000	(3.82982940288300e+001dB,1.60982992121727e+002°)
7.07945784384136e+000	(3.82766162419081e+001dB,1.60572873306672e+002°)
7.24435960074988e+000	(3.82540321926254e+001dB,1.60155334600217e+002°)
7.41310241300916e+000	(3.82305089922056e+001dB,1.59730332064020e+002°)
7.58577575029182e+000	(3.82060129792339e+001dB,1.59297827487607e+002°)
7.76247116628690e+000	(3.81805097372144e+001dB,1.58857788766433e+002°)
7.94328234724279e+000	(3.81539641157567e+001dB,1.58410190286086e+002°)
8.12830516164097e+000	(3.81263402555908e+001dB,1.57955013311289e+002°)
8.31763771102669e+000	(3.80976016176040e+001dB,1.57492246378206e+002°)
8.51138038202374e+000	(3.80677110160801e+001dB,1.57021885688364e+002°)
8.70963589956078e+000	(3.80366306563130e+001dB,1.56543935502383e+002°)
8.91250938133743e+000	(3.80043221767481e+001dB,1.56058408531480e+002°)
9.12010839355907e+000	(3.79707466957905e+001dB,1.55565326324601e+002°)
9.33254300796988e+000	(3.79358648633924e+001dB,1.55064719648838e+002°)
9.54992586021433e+000	(3.78996369175127e+001dB,1.54556628860630e+002°)
9.77237220955808e+000	(3.78620227455095e+001dB,1.54041104265129e+002°)
9.99999999999997e+000	(3.78229819504962e+001dB,1.53518206460941e+002°)
1.02329299228075e+001	(3.77824739226565e+001dB,1.52988006667347e+002°)
1.04712854805090e+001	(3.77404579154756e+001dB,1.52450587031001e+002°)
1.07151930523760e+001	(3.76968931268024e+001dB,1.51906040909032e+002°)
1.09647819614318e+001	(3.76517387846142e+001dB,1.51354473125391e+002°)
1.12201845430196e+001	(3.76049542373069e+001dB,1.50796000197277e+002°)
1.14815362149688e+001	(3.75564990482850e+001dB,1.50230750528478e+002°)
1.17489755493953e+001	(3.75063330945763e+001dB,1.49658864566475e+002°)
1.20226443461741e+001	(3.74544166691396e+001dB,1.49080494920258e+002°)
1.23026877081238e+001	(3.74007105864850e+001dB,1.48495806435889e+002°)
1.25892541179416e+001	(3.73451762911710e+001dB,1.47904976227014e+002°)
1.28824955169313e+001	(3.72877759686912e+001dB,1.47308193657722e+002°)
1.31825673855640e+001	(3.72284726582134e+001dB,1.46705660275366e+002°)
1.34896288259165e+001	(3.71672303665842e+001dB,1.46097589691278e+002°)
1.38038426460288e+001	(3.71040141829712e+001dB,1.45484207407597e+002°)
1.41253754462275e+001	(3.70387903934700e+001dB,1.44865750588819e+002°)
1.44543977074592e+001	(3.69715265949728e+001dB,1.44242467777073e+002°)
1.47910838816820e+001	(3.69021918075634e+001dB,1.43614618550560e+002°)
1.51356124843620e+001	(3.68307565846831e+001dB,1.42982473125080e+002°)
1.54881661891248e+001	(3.67571931202966e+001dB,1.42346311899034e+002°)
1.58489319246111e+001	(3.66814753522830e+001dB,1.41706424942851e+002°)
1.62181009735892e+001	(3.66035790612766e+001dB,1.41063111434262e+002°)
1.65958690743755e+001	(3.65234819641987e+001dB,1.40416679041428e+002°)
1.69824365246174e+001	(3.64411638017397e+001dB,1.39767443256422e+002°)
1.73780082874937e+001	(3.63566064190836e+001dB,1.39115726682113e+002°)
1.77827941003892e+001	(3.62697938392092e+001dB,1.38461858275973e+002°)
1.81970085860998e+001	(3.61807123281489e+001dB,1.37806172554844e+002°)
1.86208713666286e+001	(3.60893504516489e+001dB,1.37149008765085e+002°)
1.90546071796324e+001	(3.59956991227376e+001dB,1.36490710022973e+002°)
1.94984459975804e+001	(3.58997516397866e+001dB,1.35831622430534e+002°)
1.99526231496887e+001	(3.58015037147264e+001dB,1.35172094172287e+002°)
2.04173794466952e+001	(3.57009534911648e+001dB,1.34512474598606e+002°)
2.08929613085403e+001	(3.55981015522467e+001dB,1.33853113301566e+002°)
2.13796208950222e+001	(3.54929509181845e+001dB,1.33194359189237e+002°)
2.18776162394954e+001	(3.53855070334801e+001dB,1.32536559564378e+002°)
2.23872113856833e+001	(3.52757777439550e+001dB,1.31880059213474e+002°)
2.29086765276776e+001	(3.51637732637924e+001dB,1.31225199511904e+002°)
2.34422881531991e+001	(3.50495061328852e+001dB,1.30572317550845e+002°)
2.39883291901948e+001	(3.49329911648650e+001dB,1.29921745291264e+002°)
2.45470891568502e+001	(3.48142453862671e+001dB,1.29273808750029e+002°)
2.51188643150957e+001	(3.46932879673543e+001dB,1.28628827222806e+002°)
2.57039578276885e+001	(3.45701401451875e+001dB,1.27987112547982e+002°)
2.63026799189537e+001	(3.44448251395855e+001dB,1.27348968415408e+002°)
2.69153480392690e+001	(3.43173680626609e+001dB,1.26714689723262e+002°)
2.75422870333815e+001	(3.41877958226575e+001dB,1.26084561985821e+002°)
2.81838293126444e+001	(3.40561370228383e+001dB,1.25458860794399e+002°)
2.88403150312659e+001	(3.39224218561938e+001dB,1.24837851333185e+002°)
2.95120922666637e+001	(3.37866819967454e+001dB,1.24221787951184e+002°)
3.01995172040200e+001	(3.36489504882189e+001dB,1.23610913790919e+002°)
3.09029543251358e+001	(3.35092616308520e+001dB,1.23005460474077e+002°)
3.16227766016837e+001	(3.33676508670828e+001dB,1.22405647843776e+002°)
3.23593656929627e+001	(3.32241546668400e+001dB,1.21811683762687e+002°)
3.31131121482590e+001	(3.30788104131241e+001dB,1.21223763965812e+002°)
3.38844156139201e+001	(3.29316562885319e+001dB,1.20642071966342e+002°)
3.46736850452530e+001	(3.27827311633322e+001dB,1.20066779012678e+002°)
3.54813389233574e+001	(3.26320744856576e+001dB,1.19498044094366e+002°)
3.63078054770100e+001	(3.24797261743245e+001dB,1.18936013994490e+002°)
3.71535229097171e+001	(3.23257265147449e+001dB,1.18380823385778e+002°)
3.80189396320559e+001	(3.21701160583395e+001dB,1.17832594967578e+002°)
3.89045144994279e+001	(3.20129355258088e+001dB,1.17291439640666e+002°)
3.98107170553495e+001	(3.18542257145669e+001dB,1.16757456716794e+002°)
4.07380277804111e+001	(3.16940274105884e+001dB,1.16230734159811e+002°)
4.16869383470333e+001	(3.15323813048734e+001dB,1.15711348855193e+002°)
4.26579518801591e+001	(3.13693279146801e+001dB,1.15199366904808e+002°)
4.36515832240164e+001	(3.12049075096354e+001dB,1.14694843943807e+002°)
4.46683592150961e+001	(3.10391600427876e+001dB,1.14197825476580e+002°)
4.57088189614873e+001	(3.08721250866235e+001dB,1.13708347228846e+002°)
4.67735141287196e+001	(3.07038417740401e+001dB,1.13226435513007e+002°)
4.78630092322636e+001	(3.05343487442225e+001dB,1.12752107604081e+002°)
4.89778819368444e+001	(3.03636840933542e+001dB,1.12285372123620e+002°)
5.01187233627270e+001	(3.01918853300550e+001dB,1.11826229429216e+002°)
5.12861383991362e+001	(3.00189893354215e+001dB,1.11374672007328e+002°)
5.24807460249770e+001	(2.98450323275250e+001dB,1.10930684867343e+002°)
5.37031796370250e+001	(2.96700498302028e+001dB,1.10494245934942e+002°)
5.49540873857622e+001	(2.94940766459669e+001dB,1.10065326443022e+002°)
5.62341325190346e+001	(2.93171468328430e+001dB,1.09643891318585e+002°)
5.75439937337154e+001	(2.91392936849441e+001dB,1.09229899564157e+002°)
5.88843655355586e+001	(2.89605497165767e+001dB,1.08823304632491e+002°)
6.02559586074355e+001	(2.87809466496740e+001dB,1.08424054793415e+002°)
6.16595001861479e+001	(2.86005154043514e+001dB,1.08032093491884e+002°)
6.30957344480190e+001	(2.84192860923749e+001dB,1.07647359696388e+002°)
6.45654229034652e+001	(2.82372880133398e+001dB,1.07269788237033e+002°)
6.60693448007593e+001	(2.80545496533568e+001dB,1.06899310132717e+002°)
6.76082975391978e+001	(2.78710986860490e+001dB,1.06535852906937e+002°)
6.91830970918933e+001	(2.76869619756676e+001dB,1.06179340891893e+002°)
7.07945784384134e+001	(2.75021655821407e+001dB,1.05829695520613e+002°)
7.24435960074986e+001	(2.73167347678769e+001dB,1.05486835606942e+002°)
7.41310241300914e+001	(2.71306940061517e+001dB,1.05150677613317e+002°)
7.58577575029180e+001	(2.69440669909145e+001dB,1.04821135906305e+002°)
7.76247116628688e+001	(2.67568766478601e+001dB,1.04498122999952e+002°)
7.94328234724277e+001	(2.65691451466183e+001dB,1.04181549787073e+002°)
8.12830516164095e+001	(2.63808939139230e+001dB,1.03871325758619e+002°)
8.31763771102667e+001	(2.61921436476313e+001dB,1.03567359211338e+002°)
8.51138038202372e+001	(2.60029143314706e+001dB,1.03269557443974e+002°)
8.70963589956076e+001	(2.58132252504004e+001dB,1.02977826942262e+002°)
8.91250938133741e+001	(2.56230950064842e+001dB,1.02692073553045e+002°)
9.12010839355905e+001	(2.54325415351727e+001dB,1.02412202647807e+002°)
9.33254300796986e+001	(2.52415821219099e+001dB,1.02138119275984e+002°)
9.54992586021431e+001	(2.50502334189792e+001dB,1.01869728308396e+002°)
9.77237220955805e+001	(2.48585114625125e+001dB,1.01606934571171e+002°)
9.99999999999995e+001	(2.46664316895961e+001dB,1.01349642970518e+002°)
1.02329299228075e+002	(2.44740089554079e+001dB,1.01097758608742e+002°)
1.04712854805089e+002	(2.42812575503319e+001dB,1.00851186891861e+002°)
1.07151930523760e+002	(2.40881912169966e+001dB,1.00609833629208e+002°)
1.09647819614318e+002	(2.38948231671940e+001dB,1.00373605125386e+002°)
1.12201845430196e+002	(2.37011660986369e+001dB,1.00142408264941e+002°)
1.14815362149688e+002	(2.35072322115190e+001dB,9.99161505901226e+001°)
1.17489755493952e+002	(2.33130332248462e+001dB,9.96947403720734e+001°)
1.20226443461741e+002	(2.31185803925116e+001dB,9.94780866758017e+001°)
1.23026877081237e+002	(2.29238845190893e+001dB,9.92660994192673e+001°)
1.25892541179416e+002	(2.27289559753281e+001dB,9.90586894269086e+001°)
1.28824955169313e+002	(2.25338047133261e+001dB,9.88557684779257e+001°)
1.31825673855640e+002	(2.23384402813723e+001dB,9.86572493496227e+001°)
1.34896288259165e+002	(2.21428718384440e+001dB,9.84630458561037e+001°)
1.38038426460288e+002	(2.19471081683497e+001dB,9.82730728826022e+001°)
1.41253754462275e+002	(2.17511576935103e+001dB,9.80872464157152e+001°)
1.44543977074592e+002	(2.15550284883747e+001dB,9.79054835698004e+001°)
1.47910838816820e+002	(2.13587282924640e+001dB,9.77277026097826e+001°)
1.51356124843620e+002	(2.11622645230451e+001dB,9.75538229706065e+001°)
1.54881661891247e+002	(2.09656442874311e+001dB,9.73837652735592e+001°)
1.58489319246110e+002	(2.07688743949115e+001dB,9.72174513396777e+001°)
1.62181009735892e+002	(2.05719613683117e+001dB,9.70548042004418e+001°)
1.65958690743755e+002	(2.03749114551881e+001dB,9.68957481059479e+001°)
1.69824365246173e+002	(2.01777306386600e+001dB,9.67402085307445e+001°)
1.73780082874936e+002	(1.99804246478846e+001dB,9.65881121775019e+001°)
1.77827941003891e+002	(1.97829989681800e+001dB,9.64393869786804e+001°)
1.81970085860997e+002	(1.95854588508029e+001dB,9.62939620963504e+001°)
1.86208713666286e+002	(1.93878093223862e+001dB,9.61517679203097e+001°)
1.90546071796323e+002	(1.91900551940454e+001dB,9.60127360646354e+001°)
1.94984459975803e+002	(1.89922010701590e+001dB,9.58767993627986e+001°)
1.99526231496887e+002	(1.87942513568325e+001dB,9.57438918614641e+001°)
2.04173794466952e+002	(1.85962102700520e+001dB,9.56139488130877e+001°)
2.08929613085403e+002	(1.83980818435367e+001dB,9.54869066674187e+001°)
2.13796208950222e+002	(1.81998699362981e+001dB,9.53627030620079e+001°)
2.18776162394954e+002	(1.80015782399134e+001dB,9.52412768118135e+001°)
2.23872113856832e+002	(1.78032102855225e+001dB,9.51225678979948e+001°)
2.29086765276776e+002	(1.76047694505553e+001dB,9.50065174559735e+001°)
2.34422881531991e+002	(1.74062589651998e+001dB,9.48930677628410e+001°)
2.39883291901947e+002	(1.72076819186160e+001dB,9.47821622241818e+001°)
2.45470891568501e+002	(1.70090412649073e+001dB,9.46737453603809e+001°)
2.51188643150956e+002	(1.68103398288538e+001dB,9.45677627924753e+001°)
2.57039578276885e+002	(1.66115803114189e+001dB,9.44641612276102e+001°)
2.63026799189536e+002	(1.64127652950336e+001dB,9.43628884441503e+001°)
2.69153480392690e+002	(1.62138972486689e+001dB,9.42638932764988e+001°)
2.75422870333815e+002	(1.60149785327020e+001dB,9.41671255996680e+001°)
2.81838293126443e+002	(1.58160114035845e+001dB,9.40725363136459e+001°)
2.88403150312659e+002	(1.56169980183195e+001dB,9.39800773275978e+001°)
2.95120922666637e+002	(1.54179404387540e+001dB,9.38897015439391e+001°)
3.01995172040200e+002	(1.52188406356948e+001dB,9.38013628423132e+001°)
3.09029543251357e+002	(1.50197004928534e+001dB,9.37150160635066e+001°)
3.16227766016836e+002	(1.48205218106258e+001dB,9.36306169933282e+001°)
3.23593656929626e+002	(1.46213063097156e+001dB,9.35481223464803e+001°)
3.31131121482589e+002	(1.44220556346044e+001dB,9.34674897504445e+001°)
3.38844156139200e+002	(1.42227713568758e+001dB,9.33886777294065e+001°)
3.46736850452529e+002	(1.40234549783999e+001dB,9.33116456882368e+001°)
3.54813389233573e+002	(1.38241079343820e+001dB,9.32363538965492e+001°)
3.63078054770099e+002	(1.36247315962829e+001dB,9.31627634728514e+001°)
3.71535229097170e+002	(1.34253272746135e+001dB,9.30908363688041e+001°)
3.80189396320558e+002	(1.32258962216113e+001dB,9.30205353536018e+001°)
3.89045144994278e+002	(1.30264396338013e+001dB,9.29518239984887e+001°)
3.98107170553494e+002	(1.28269586544481e+001dB,9.28846666614197e+001°)
4.07380277804110e+002	(1.26274543759013e+001dB,9.28190284718769e+001°)
4.16869383470332e+002	(1.24279278418410e+001dB,9.27548753158522e+001°)
4.26579518801589e+002	(1.22283800494254e+001dB,9.26921738210003e+001°)
4.36515832240163e+002	(1.20288119513462e+001dB,9.26308913419733e+001°)
4.46683592150960e+002	(1.18292244577944e+001dB,9.25709959459406e+001°)
4.57088189614872e+002	(1.16296184383413e+001dB,9.25124563982994e+001°)
4.67735141287195e+002	(1.14299947237367e+001dB,9.24552421485818e+001°)
4.78630092322635e+002	(1.12303541076301e+001dB,9.23993233165617e+001°)
4.89778819368443e+002	(1.10306973482159e+001dB,9.23446706785640e+001°)
5.01187233627268e+002	(1.08310251698068e+001dB,9.22912556539808e+001°)
5.12861383991361e+002	(1.06313382643388e+001dB,9.22390502919950e+001°)
5.24807460249769e+002	(1.04316372928099e+001dB,9.21880272585133e+001°)
5.37031796370249e+002	(1.02319228866557e+001dB,9.21381598233113e+001°)
5.49540873857620e+002	(1.00321956490653e+001dB,9.20894218473891e+001°)
5.62341325190345e+002	(9.83245615623811e+000dB,9.20417877705399e+001°)
5.75439937337152e+002	(9.63270495858645e+000dB,9.19952325991311e+001°)
5.88843655355584e+002	(9.43294258188480e+000dB,9.19497318940967e+001°)
6.02559586074353e+002	(9.23316952836829e+000dB,9.19052617591417e+001°)
6.16595001861477e+002	(9.03338627778288e+000dB,9.18617988291573e+001°)
6.30957344480188e+002	(8.83359328838908e+000dB,9.18193202588456e+001°)
