Freq.	V(n002)/-I(R1)
Step Information: 1=1  (Run: 1/11)
1.00000000000000e+000	(1.06555249774938e+002dB,-4.25274173020822e+001°)
1.02329299228075e+000	(1.06459506907942e+002dB,-4.31645964415018e+001°)
1.04712854805090e+000	(1.06361466393430e+002dB,-4.38017298888316e+001°)
1.07151930523761e+000	(1.06261126338288e+002dB,-4.44384565043973e+001°)
1.09647819614318e+000	(1.06158487294483e+002dB,-4.50744145722948e+001°)
1.12201845430196e+000	(1.06053552257536e+002dB,-4.57092427199033e+001°)
1.14815362149688e+000	(1.05946326654692e+002dB,-4.63425808332302e+001°)
1.17489755493953e+000	(1.05836818322909e+002dB,-4.69740709621658e+001°)
1.20226443461741e+000	(1.05725037476849e+002dB,-4.76033582098341e+001°)
1.23026877081238e+000	(1.05610996667171e+002dB,-4.82300916004128e+001°)
1.25892541179417e+000	(1.05494710729495e+002dB,-4.88539249200615e+001°)
1.28824955169313e+000	(1.05376196724483e+002dB,-4.94745175258916e+001°)
1.31825673855641e+000	(1.05255473869557e+002dB,-5.00915351182871e+001°)
1.34896288259165e+000	(1.05132563462852e+002dB,-5.07046504723041e+001°)
1.38038426460288e+000	(1.05007488800019e+002dB,-5.13135441243224e+001°)
1.41253754462275e+000	(1.04880275084589e+002dB,-5.19179050106127e+001°)
1.44543977074593e+000	(1.04750949332601e+002dB,-5.25174310549936e+001°)
1.47910838816821e+000	(1.04619540272259e+002dB,-5.31118297032849e+001°)
1.51356124843621e+000	(1.04486078239379e+002dB,-5.37008184027813e+001°)
1.54881661891248e+000	(1.04350595069398e+002dB,-5.42841250255189e+001°)
1.58489319246111e+000	(1.04213123986736e+002dB,-5.48614882346229e+001°)
1.62181009735893e+000	(1.04073699492261e+002dB,-5.54326577935287e+001°)
1.65958690743756e+000	(1.03932357249614e+002dB,-5.59973948183672e+001°)
1.69824365246174e+000	(1.03789133971120e+002dB,-5.65554719742434e+001°)
1.73780082874937e+000	(1.03644067303973e+002dB,-5.71066736165823e+001°)
1.77827941003892e+000	(1.03497195717351e+002dB,-5.76507958790854e+001°)
1.81970085860998e+000	(1.03348558391081e+002dB,-5.81876467102068e+001°)
1.86208713666287e+000	(1.03198195106409e+002dB,-5.87170458603508e+001°)
1.90546071796325e+000	(1.03046146139409e+002dB,-5.92388248222606e+001°)
1.94984459975804e+000	(1.02892452157488e+002dB,-5.97528267272957e+001°)
1.99526231496888e+000	(1.02737154119400e+002dB,-6.02589062004581e+001°)
2.04173794466953e+000	(1.02580293179146e+002dB,-6.07569291771767e+001°)
2.08929613085404e+000	(1.02421910594048e+002dB,-6.12467726849440e+001°)
2.13796208950223e+000	(1.02262047637271e+002dB,-6.17283245929595e+001°)
2.18776162394955e+000	(1.02100745514996e+002dB,-6.22014833329577e+001°)
2.23872113856834e+000	(1.01938045288394e+002dB,-6.26661575943789e+001°)
2.29086765276777e+000	(1.01773987800528e+002dB,-6.31222659970068e+001°)
2.34422881531992e+000	(1.01608613608239e+002dB,-6.35697367441245e+001°)
2.39883291901949e+000	(1.01441962919056e+002dB,-6.40085072591472e+001°)
2.45470891568503e+000	(1.01274075533109e+002dB,-6.44385238085858e+001°)
2.51188643150958e+000	(1.01104990790020e+002dB,-6.48597411140545e+001°)
2.57039578276886e+000	(1.00934747520689e+002dB,-6.52721219559130e+001°)
2.63026799189538e+000	(1.00763384003875e+002dB,-6.56756367709596e+001°)
2.69153480392691e+000	(1.00590937927465e+002dB,-6.60702632464516e+001°)
2.75422870333816e+000	(1.00417446354265e+002dB,-6.64559859125540e+001°)
2.81838293126445e+000	(1.00242945692185e+002dB,-6.68327957351527e+001°)
2.88403150312660e+000	(1.00067471668616e+002dB,-6.72006897108039e+001°)
2.95120922666638e+000	(9.98910593088310e+001dB,-6.75596704654197e+001°)
3.01995172040201e+000	(9.97137429182239e+001dB,-6.79097458581320e+001°)
3.09029543251359e+000	(9.95355560681699e+001dB,-6.82509285916183e+001°)
3.16227766016837e+000	(9.93565315853231e+001dB,-6.85832358300127e+001°)
3.23593656929628e+000	(9.91767015441403e+001dB,-6.89066888253910e+001°)
3.31131121482591e+000	(9.89960972624305e+001dB,-6.92213125536675e+001°)
3.38844156139202e+000	(9.88147492997289e+001dB,-6.95271353606204e+001°)
3.46736850452531e+000	(9.86326874582980e+001dB,-6.98241886186321e+001°)
3.54813389233575e+000	(9.84499407865631e+001dB,-7.01125063946251e+001°)
3.63078054770101e+000	(9.82665375847942e+001dB,-7.03921251295554e+001°)
3.71535229097172e+000	(9.80825054128529e+001dB,-7.06630833297468e+001°)
3.80189396320560e+000	(9.78978710998312e+001dB,-7.09254212702442e+001°)
3.89045144994280e+000	(9.77126607554151e+001dB,-7.11791807102957e+001°)
3.98107170553496e+000	(9.75268997828134e+001dB,-7.14244046209956e+001°)
4.07380277804112e+000	(9.73406128931043e+001dB,-7.16611369250618e+001°)
4.16869383470335e+000	(9.71538241208550e+001dB,-7.18894222486590e+001°)
4.26579518801592e+000	(9.69665568408838e+001dB,-7.21093056851359e+001°)
4.36515832240165e+000	(9.67788337860391e+001dB,-7.23208325704984e+001°)
4.46683592150962e+000	(9.65906770658795e+001dB,-7.25240482704067e+001°)
4.57088189614874e+000	(9.64021081861481e+001dB,-7.27189979784537e+001°)
4.67735141287197e+000	(9.62131480689416e+001dB,-7.29057265254569e+001°)
4.78630092322637e+000	(9.60238170734830e+001dB,-7.30842781994772e+001°)
4.89778819368445e+000	(9.58341350174148e+001dB,-7.32546965762613e+001°)
5.01187233627271e+000	(9.56441211985369e+001dB,-7.34170243597987e+001°)
5.12861383991364e+000	(9.54537944169200e+001dB,-7.35713032326668e+001°)
5.24807460249771e+000	(9.52631729973337e+001dB,-7.37175737158490e+001°)
5.37031796370252e+000	(9.50722748119327e+001dB,-7.38558750376946e+001°)
5.49540873857623e+000	(9.48811173031528e+001dB,-7.39862450117053e+001°)
5.62341325190348e+000	(9.46897175067734e+001dB,-7.41087199228279e+001°)
5.75439937337156e+000	(9.44980920751078e+001dB,-7.42233344219474e+001°)
5.88843655355588e+000	(9.43062573002886e+001dB,-7.43301214282786e+001°)
6.02559586074356e+000	(9.41142291376211e+001dB,-7.44291120393697e+001°)
6.16595001861481e+000	(9.39220232289796e+001dB,-7.45203354484380e+001°)
6.30957344480192e+000	(9.37296549262271e+001dB,-7.46038188687819e+001°)
6.45654229034654e+000	(9.35371393146440e+001dB,-7.46795874650127e+001°)
6.60693448007594e+000	(9.33444912363504e+001dB,-7.47476642908848e+001°)
6.76082975391980e+000	(9.31517253137155e+001dB,-7.48080702335018e+001°)
6.91830970918935e+000	(9.29588559727455e+001dB,-7.48608239637072e+001°)
7.07945784384136e+000	(9.27658974664457e+001dB,-7.49059418924778e+001°)
7.24435960074988e+000	(9.25728638981566e+001dB,-7.49434381331629e+001°)
7.41310241300916e+000	(9.23797692448614e+001dB,-7.49733244694261e+001°)
7.58577575029182e+000	(9.21866273804688e+001dB,-7.49956103287723e+001°)
7.76247116628690e+000	(9.19934520990718e+001dB,-7.50103027615547e+001°)
7.94328234724279e+000	(9.18002571381889e+001dB,-7.50174064253866e+001°)
8.12830516164097e+000	(9.16070562019901e+001dB,-7.50169235748926e+001°)
8.31763771102669e+000	(9.14138629845154e+001dB,-7.50088540567625e+001°)
8.51138038202374e+000	(9.12206911928902e+001dB,-7.49931953100866e+001°)
8.70963589956078e+000	(9.10275545705440e+001dB,-7.49699423719765e+001°)
8.91250938133743e+000	(9.08344669204388e+001dB,-7.49390878884899e+001°)
9.12010839355907e+000	(9.06414421283115e+001dB,-7.49006221309040e+001°)
9.33254300796988e+000	(9.04484941859363e+001dB,-7.48545330174003e+001°)
9.54992586021433e+000	(9.02556372144095e+001dB,-7.48008061402435e+001°)
9.77237220955808e+000	(9.00628854874620e+001dB,-7.47394247985570e+001°)
9.99999999999997e+000	(8.98702534547973e+001dB,-7.46703700368213e+001°)
1.02329299228075e+001	(8.96777557654580e+001dB,-7.45936206892342e+001°)
1.04712854805090e+001	(8.94854072912165e+001dB,-7.45091534300977e+001°)
1.07151930523760e+001	(8.92932231499861e+001dB,-7.44169428304118e+001°)
1.09647819614318e+001	(8.91012187292452e+001dB,-7.43169614208728e+001°)
1.12201845430196e+001	(8.89094097094654e+001dB,-7.42091797614949e+001°)
1.14815362149688e+001	(8.87178120875291e+001dB,-7.40935665180864e+001°)
1.17489755493953e+001	(8.85264422001218e+001dB,-7.39700885458314e+001°)
1.20226443461741e+001	(8.83353167470778e+001dB,-7.38387109802405e+001°)
1.23026877081238e+001	(8.81444528146555e+001dB,-7.36993973357471e+001°)
1.25892541179416e+001	(8.79538678987135e+001dB,-7.35521096122429e+001°)
1.28824955169313e+001	(8.77635799277536e+001dB,-7.33968084098491e+001°)
1.31825673855640e+001	(8.75736072857931e+001dB,-7.32334530522367e+001°)
1.34896288259165e+001	(8.73839688350208e+001dB,-7.30620017188118e+001°)
1.38038426460288e+001	(8.71946839381881e+001dB,-7.28824115860862e+001°)
1.41253754462275e+001	(8.70057724806786e+001dB,-7.26946389785592e+001°)
1.44543977074592e+001	(8.68172548921929e+001dB,-7.24986395294316e+001°)
1.47910838816820e+001	(8.66291521679802e+001dB,-7.22943683514721e+001°)
1.51356124843620e+001	(8.64414858895389e+001dB,-7.20817802183479e+001°)
1.54881661891248e+001	(8.62542782447023e+001dB,-7.18608297567190e+001°)
1.58489319246111e+001	(8.60675520470178e+001dB,-7.16314716493814e+001°)
1.62181009735892e+001	(8.58813307543180e+001dB,-7.13936608497242e+001°)
1.65958690743755e+001	(8.56956384863774e+001dB,-7.11473528077392e+001°)
1.69824365246174e+001	(8.55105000415356e+001dB,-7.08925037077909e+001°)
1.73780082874937e+001	(8.53259409121631e+001dB,-7.06290707183203e+001°)
1.77827941003892e+001	(8.51419872988346e+001dB,-7.03570122536091e+001°)
1.81970085860998e+001	(8.49586661230678e+001dB,-7.00762882476834e+001°)
1.86208713666286e+001	(8.47760050384763e+001dB,-6.97868604403794e+001°)
1.90546071796324e+001	(8.45940324401764e+001dB,-6.94886926755268e+001°)
1.94984459975804e+001	(8.44127774722818e+001dB,-6.91817512111355e+001°)
1.99526231496887e+001	(8.42322700333092e+001dB,-6.88660050413883e+001°)
2.04173794466952e+001	(8.40525407793147e+001dB,-6.85414262301542e+001°)
2.08929613085403e+001	(8.38736211245710e+001dB,-6.82079902556405e+001°)
2.13796208950222e+001	(8.36955432395936e+001dB,-6.78656763656921e+001°)
2.18776162394954e+001	(8.35183400463154e+001dB,-6.75144679431343e+001°)
2.23872113856833e+001	(8.33420452102120e+001dB,-6.71543528804296e+001°)
2.29086765276776e+001	(8.31666931291716e+001dB,-6.67853239627888e+001°)
2.34422881531991e+001	(8.29923189189087e+001dB,-6.64073792587349e+001°)
2.39883291901948e+001	(8.28189583947212e+001dB,-6.60205225169720e+001°)
2.45470891568502e+001	(8.26466480493911e+001dB,-6.56247635682582e+001°)
2.51188643150957e+001	(8.24754250270418e+001dB,-6.52201187308214e+001°)
2.57039578276885e+001	(8.23053270927657e+001dB,-6.48066112176940e+001°)
2.63026799189537e+001	(8.21363925978550e+001dB,-6.43842715441752e+001°)
2.69153480392690e+001	(8.19686604404767e+001dB,-6.39531379334640e+001°)
2.75422870333815e+001	(8.18021700216522e+001dB,-6.35132567183361e+001°)
2.81838293126444e+001	(8.16369611964251e+001dB,-6.30646827365779e+001°)
2.88403150312659e+001	(8.14730742201185e+001dB,-6.26074797177283e+001°)
2.95120922666637e+001	(8.13105496896178e+001dB,-6.21417206585302e+001°)
3.01995172040200e+001	(8.11494284796374e+001dB,-6.16674881843547e+001°)
3.09029543251358e+001	(8.09897516739719e+001dB,-6.11848748937320e+001°)
3.16227766016837e+001	(8.08315604917635e+001dB,-6.06939836830169e+001°)
3.23593656929627e+001	(8.06748962088608e+001dB,-6.01949280481256e+001°)
3.31131121482590e+001	(8.05198000743874e+001dB,-5.96878323602172e+001°)
3.38844156139201e+001	(8.03663132226854e+001dB,-5.91728321121528e+001°)
3.46736850452530e+001	(8.02144765808458e+001dB,-5.86500741325596e+001°)
3.54813389233574e+001	(8.00643307720910e+001dB,-5.81197167643493e+001°)
3.63078054770100e+001	(7.99159160153244e+001dB,-5.75819300046041e+001°)
3.71535229097171e+001	(7.97692720212165e+001dB,-5.70368956028423e+001°)
3.80189396320559e+001	(7.96244378852481e+001dB,-5.64848071148143e+001°)
3.89045144994279e+001	(7.94814519781868e+001dB,-5.59258699091647e+001°)
3.98107170553495e+001	(7.93403518345189e+001dB,-5.53603011245213e+001°)
4.07380277804111e+001	(7.92011740394126e+001dB,-5.47883295748389e+001°)
4.16869383470333e+001	(7.90639541148310e+001dB,-5.42101956011410e+001°)
4.26579518801591e+001	(7.89287264054554e+001dB,-5.36261508681538e+001°)
4.36515832240164e+001	(7.87955239651151e+001dB,-5.30364581047196e+001°)
4.46683592150961e+001	(7.86643784444536e+001dB,-5.24413907873080e+001°)
4.57088189614873e+001	(7.85353199805809e+001dB,-5.18412327664024e+001°)
4.67735141287196e+001	(7.84083770894805e+001dB,-5.12362778360275e+001°)
4.78630092322636e+001	(7.82835765619481e+001dB,-5.06268292471969e+001°)
4.89778819368444e+001	(7.81609433638377e+001dB,-5.00131991665799e+001°)
5.01187233627270e+001	(7.80405005413810e+001dB,-4.93957080822237e+001°)
5.12861383991362e+001	(7.79222691323284e+001dB,-4.87746841586973e+001°)
5.24807460249770e+001	(7.78062680836298e+001dB,-4.81504625445487e+001°)
5.37031796370250e+001	(7.76925141763360e+001dB,-4.75233846354746e+001°)
5.49540873857622e+001	(7.75810219583526e+001dB,-4.68937972970869e+001°)
5.62341325190346e+001	(7.74718036856256e+001dB,-4.62620520516052e+001°)
5.75439937337154e+001	(7.73648692722674e+001dB,-4.56285042332201e+001°)
5.88843655355586e+001	(7.72602262500657e+001dB,-4.49935121172253e+001°)
6.02559586074355e+001	(7.71578797377353e+001dB,-4.43574360283267e+001°)
6.16595001861479e+001	(7.70578324201896e+001dB,-4.37206374337778e+001°)
6.30957344480190e+001	(7.69600845380212e+001dB,-4.30834780271718e+001°)
6.45654229034652e+001	(7.68646338872889e+001dB,-4.24463188088292e+001°)
6.60693448007593e+001	(7.67714758296159e+001dB,-4.18095191687593e+001°)
6.76082975391978e+001	(7.66806033125115e+001dB,-4.11734359781419e+001°)
6.91830970918933e+001	(7.65920068997369e+001dB,-4.05384226951726e+001°)
7.07945784384134e+001	(7.65056748114474e+001dB,-3.99048284909388e+001°)
7.24435960074986e+001	(7.64215929737588e+001dB,-3.92729974007615e+001°)
7.41310241300914e+001	(7.63397450773054e+001dB,-3.86432675061314e+001°)
7.58577575029180e+001	(7.62601126442868e+001dB,-3.80159701520179e+001°)
7.76247116628688e+001	(7.61826751034325e+001dB,-3.73914292039216e+001°)
7.94328234724277e+001	(7.61074098722573e+001dB,-3.67699603485962e+001°)
8.12830516164095e+001	(7.60342924459334e+001dB,-3.61518704418862e+001°)
8.31763771102667e+001	(7.59632964920635e+001dB,-3.55374569066177e+001°)
8.51138038202372e+001	(7.58943939506119e+001dB,-3.49270071829597e+001°)
8.70963589956076e+001	(7.58275551382295e+001dB,-3.43207982331384e+001°)
8.91250938133741e+001	(7.57627488561983e+001dB,-3.37190961018568e+001°)
9.12010839355905e+001	(7.56999425012209e+001dB,-3.31221555332408e+001°)
9.33254300796986e+001	(7.56391021782853e+001dB,-3.25302196446288e+001°)
9.54992586021431e+001	(7.55801928148552e+001dB,-3.19435196570229e+001°)
9.77237220955805e+001	(7.55231782756551e+001dB,-3.13622746815628e+001°)
9.99999999999995e+001	(7.54680214773525e+001dB,-3.07866915609462e+001°)
1.02329299228075e+002	(7.54146845024740e+001dB,-3.02169647643256e+001°)
1.04712854805089e+002	(7.53631287119344e+001dB,-2.96532763338550e+001°)
1.07151930523760e+002	(7.53133148556015e+001dB,-2.90957958807401e+001°)
1.09647819614318e+002	(7.52652031803693e+001dB,-2.85446806283778e+001°)
1.12201845430196e+002	(7.52187535352622e+001dB,-2.80000754999373e+001°)
1.14815362149688e+002	(7.51739254731456e+001dB,-2.74621132475491e+001°)
1.17489755493952e+002	(7.51306783486711e+001dB,-2.69309146201274e+001°)
1.20226443461741e+002	(7.50889714121370e+001dB,-2.64065885667417e+001°)
1.23026877081237e+002	(7.50487638989977e+001dB,-2.58892324723971e+001°)
1.25892541179416e+002	(7.50100151148070e+001dB,-2.53789324230470e+001°)
1.28824955169313e+002	(7.49726845154268e+001dB,-2.48757634966715e+001°)
1.31825673855640e+002	(7.49367317823822e+001dB,-2.43797900772909e+001°)
1.34896288259165e+002	(7.49021168932862e+001dB,-2.38910661888441e+001°)
1.38038426460288e+002	(7.48688001872994e+001dB,-2.34096358459510e+001°)
1.41253754462275e+002	(7.48367424256256e+001dB,-2.29355334186849e+001°)
1.44543977074592e+002	(7.48059048470823e+001dB,-2.24687840086055e+001°)
1.47910838816820e+002	(7.47762492188122e+001dB,-2.20094038334434e+001°)
1.51356124843620e+002	(7.47477378822325e+001dB,-2.15574006179747e+001°)
1.54881661891247e+002	(7.47203337943408e+001dB,-2.11127739887864e+001°)
1.58489319246110e+002	(7.46940005645195e+001dB,-2.06755158707938e+001°)
1.62181009735892e+002	(7.46687024869952e+001dB,-2.02456108835396e+001°)
1.65958690743755e+002	(7.46444045691280e+001dB,-1.98230367354735e+001°)
1.69824365246173e+002	(7.46210725557136e+001dB,-1.94077646145766e+001°)
1.73780082874936e+002	(7.45986729494937e+001dB,-1.89997595738600e+001°)
1.77827941003891e+002	(7.45771730280728e+001dB,-1.85989809104269e+001°)
1.81970085860997e+002	(7.45565408574475e+001dB,-1.82053825369446e+001°)
1.86208713666286e+002	(7.45367453023543e+001dB,-1.78189133445169e+001°)
1.90546071796323e+002	(7.45177560336429e+001dB,-1.74395175560943e+001°)
1.94984459975803e+002	(7.44995435328802e+001dB,-1.70671350696891e+001°)
1.99526231496887e+002	(7.44820790943875e+001dB,-1.67017017907889e+001°)
2.04173794466952e+002	(7.44653348249114e+001dB,-1.63431499534810e+001°)
2.08929613085403e+002	(7.44492836411189e+001dB,-1.59914084299060e+001°)
2.13796208950222e+002	(7.44338992651069e+001dB,-1.56464030277599e+001°)
2.18776162394954e+002	(7.44191562181051e+001dB,-1.53080567756562e+001°)
2.23872113856832e+002	(7.44050298125475e+001dB,-1.49762901962401e+001°)
2.29086765276776e+002	(7.43914961426755e+001dB,-1.46510215670242e+001°)
2.34422881531991e+002	(7.43785320738333e+001dB,-1.43321671689802e+001°)
2.39883291901947e+002	(7.43661152306023e+001dB,-1.40196415229819e+001°)
2.45470891568501e+002	(7.43542239839165e+001dB,-1.37133576142456e+001°)
2.51188643150956e+002	(7.43428374372915e+001dB,-1.34132271049623e+001°)
2.57039578276885e+002	(7.43319354122901e+001dB,-1.31191605353517e+001°)
2.63026799189536e+002	(7.43214984333414e+001dB,-1.28310675134072e+001°)
2.69153480392690e+002	(7.43115077120198e+001dB,-1.25488568936225e+001°)
2.75422870333815e+002	(7.43019451308844e+001dB,-1.22724369450204e+001°)
2.81838293126443e+002	(7.42927932269704e+001dB,-1.20017155088184e+001°)
2.88403150312659e+002	(7.42840351750176e+001dB,-1.17366001460829e+001°)
2.95120922666637e+002	(7.42756547705128e+001dB,-1.14769982757334e+001°)
3.01995172040200e+002	(7.42676364126177e+001dB,-1.12228173032673e+001°)
3.09029543251357e+002	(7.42599650870458e+001dB,-1.09739647405784e+001°)
3.16227766016836e+002	(7.42526263489480e+001dB,-1.07303483172455e+001°)
3.23593656929626e+002	(7.42456063058577e+001dB,-1.04918760836674e+001°)
3.31131121482589e+002	(7.42388916007439e+001dB,-1.02584565064165e+001°)
3.38844156139200e+002	(7.42324693952135e+001dB,-1.00299985561816e+001°)
3.46736850452529e+002	(7.42263273529011e+001dB,-9.80641178866073e+000°)
3.54813389233573e+002	(7.42204536230780e+001dB,-9.58760641876301e+000°)
3.63078054770099e+002	(7.42148368245100e+001dB,-9.37349338846484e+000°)
3.71535229097170e+002	(7.42094660295894e+001dB,-9.16398442866127e+000°)
3.80189396320558e+002	(7.42043307487612e+001dB,-8.95899211534057e+000°)
3.89045144994278e+002	(7.41994209152637e+001dB,-8.75842992040106e+000°)
3.98107170553494e+002	(7.41947268701972e+001dB,-8.56221225741800e+000°)
4.07380277804110e+002	(7.41902393479341e+001dB,-8.37025452265708e+000°)
4.16869383470332e+002	(7.41859494618804e+001dB,-8.18247313162007e+000°)
4.26579518801589e+002	(7.41818486905969e+001dB,-7.99878555139622e+000°)
4.36515832240163e+002	(7.41779288642848e+001dB,-7.81911032908200e+000°)
4.46683592150960e+002	(7.41741821516406e+001dB,-7.64336711651970e+000°)
4.57088189614872e+002	(7.41706010470821e+001dB,-7.47147669159469e+000°)
4.67735141287195e+002	(7.41671783583466e+001dB,-7.30336097631936e+000°)
4.78630092322635e+002	(7.41639071944602e+001dB,-7.13894305192112e+000°)
4.89778819368443e+002	(7.41607809540772e+001dB,-6.97814717114091e+000°)
5.01187233627268e+002	(7.41577933141859e+001dB,-6.82089876793813e+000°)
5.12861383991361e+002	(7.41549382191779e+001dB,-6.66712446478787e+000°)
5.24807460249769e+002	(7.41522098702759e+001dB,-6.51675207774619e+000°)
5.37031796370249e+002	(7.41496027153141e+001dB,-6.36971061944987e+000°)
5.49540873857620e+002	(7.41471114388670e+001dB,-6.22593030020761e+000°)
5.62341325190345e+002	(7.41447309527185e+001dB,-6.08534252733097e+000°)
5.75439937337152e+002	(7.41424563866655e+001dB,-5.94787990284476e+000°)
