Freq.	V(vo)
Step Information: 1=1  (Run: 1/11)
1.00000000000000e+001	(2.87061453389562e+001dB,1.70692733810229e+002°)
1.02329299228075e+001	(2.87007952720110e+001dB,1.70479863867104e+002°)
1.04712854805090e+001	(2.86952001191921e+001dB,1.70262309834030e+002°)
1.07151930523761e+001	(2.86893489906934e+001dB,1.70039981464669e+002°)
1.09647819614319e+001	(2.86832305443738e+001dB,1.69812787670459e+002°)
1.12201845430196e+001	(2.86768329699073e+001dB,1.69580636580803e+002°)
1.14815362149688e+001	(2.86701439726567e+001dB,1.69343435609214e+002°)
1.17489755493953e+001	(2.86631507572964e+001dB,1.69101091525749e+002°)
1.20226443461741e+001	(2.86558400112112e+001dB,1.68853510536066e+002°)
1.23026877081238e+001	(2.86481978877054e+001dB,1.68600598367476e+002°)
1.25892541179417e+001	(2.86402099890573e+001dB,1.68342260362342e+002°)
1.28824955169313e+001	(2.86318613494627e+001dB,1.68078401579195e+002°)
1.31825673855641e+001	(2.86231364179115e+001dB,1.67808926901940e+002°)
1.34896288259165e+001	(2.86140190410524e+001dB,1.67533741157523e+002°)
1.38038426460288e+001	(2.86044924461005e+001dB,1.67252749242445e+002°)
1.41253754462275e+001	(2.85945392238537e+001dB,1.66965856258484e+002°)
1.44543977074593e+001	(2.85841413118868e+001dB,1.66672967657998e+002°)
1.47910838816821e+001	(2.85732799780013e+001dB,1.66373989399179e+002°)
1.51356124843621e+001	(2.85619358040137e+001dB,1.66068828111601e+002°)
1.54881661891248e+001	(2.85500886699741e+001dB,1.65757391272397e+002°)
1.58489319246111e+001	(2.85377177389142e+001dB,1.65439587393399e+002°)
1.62181009735893e+001	(2.85248014422312e+001dB,1.65115326219511e+002°)
1.65958690743756e+001	(2.85113174658227e+001dB,1.64784518938615e+002°)
1.69824365246174e+001	(2.84972427370957e+001dB,1.64447078403211e+002°)
1.73780082874937e+001	(2.84825534129809e+001dB,1.64102919364019e+002°)
1.77827941003892e+001	(2.84672248690928e+001dB,1.63751958715667e+002°)
1.81970085860998e+001	(2.84512316901842e+001dB,1.63394115754580e+002°)
1.86208713666287e+001	(2.84345476620509e+001dB,1.63029312449109e+002°)
1.90546071796325e+001	(2.84171457650525e+001dB,1.62657473721862e+002°)
1.94984459975804e+001	(2.83989981694212e+001dB,1.62278527744154e+002°)
1.99526231496888e+001	(2.83800762325394e+001dB,1.61892406242376e+002°)
2.04173794466953e+001	(2.83603504983720e+001dB,1.61499044816030e+002°)
2.08929613085404e+001	(2.83397906992474e+001dB,1.61098383267033e+002°)
2.13796208950223e+001	(2.83183657601845e+001dB,1.60690365939839e+002°)
2.18776162394955e+001	(2.82960438059685e+001dB,1.60274942071756e+002°)
2.23872113856834e+001	(2.82727921711806e+001dB,1.59852066152757e+002°)
2.29086765276777e+001	(2.82485774133886e+001dB,1.59421698293921e+002°)
2.34422881531992e+001	(2.82233653297041e+001dB,1.58983804603517e+002°)
2.39883291901949e+001	(2.81971209769127e+001dB,1.58538357569578e+002°)
2.45470891568503e+001	(2.81698086953759e+001dB,1.58085336447680e+002°)
2.51188643150958e+001	(2.81413921369003e+001dB,1.57624727652459e+002°)
2.57039578276886e+001	(2.81118342967589e+001dB,1.57156525151257e+002°)
2.63026799189538e+001	(2.80810975500390e+001dB,1.56680730858093e+002°)
2.69153480392691e+001	(2.80491436924765e+001dB,1.56197355026019e+002°)
2.75422870333816e+001	(2.80159339859177e+001dB,1.55706416635728e+002°)
2.81838293126445e+001	(2.79814292085329e+001dB,1.55207943778130e+002°)
2.88403150312660e+001	(2.79455897098764e+001dB,1.54701974028449e+002°)
2.95120922666638e+001	(2.79083754708660e+001dB,1.54188554809237e+002°)
3.01995172040201e+001	(2.78697461687208e+001dB,1.53667743739583e+002°)
3.09029543251359e+001	(2.78296612468629e+001dB,1.53139608967634e+002°)
3.16227766016838e+001	(2.77880799897514e+001dB,1.52604229483461e+002°)
3.23593656929628e+001	(2.77449616025768e+001dB,1.52061695409215e+002°)
3.31131121482591e+001	(2.77002652956983e+001dB,1.51512108263428e+002°)
3.38844156139202e+001	(2.76539503736625e+001dB,1.50955581196310e+002°)
3.46736850452531e+001	(2.76059763285925e+001dB,1.50392239192854e+002°)
3.54813389233575e+001	(2.75563029376836e+001dB,1.49822219240595e+002°)
3.63078054770101e+001	(2.75048903644940e+001dB,1.49245670458953e+002°)
3.71535229097172e+001	(2.74516992636606e+001dB,1.48662754187150e+002°)
3.80189396320561e+001	(2.73966908886226e+001dB,1.48073644027853e+002°)
3.89045144994280e+001	(2.73398272018785e+001dB,1.47478525843892e+002°)
3.98107170553497e+001	(2.72810709872536e+001dB,1.46877597705591e+002°)
4.07380277804112e+001	(2.72203859636063e+001dB,1.46271069786550e+002°)
4.16869383470335e+001	(2.71577368993541e+001dB,1.45659164206015e+002°)
4.26579518801592e+001	(2.70930897271619e+001dB,1.45042114816332e+002°)
4.36515832240165e+001	(2.70264116580949e+001dB,1.44420166934356e+002°)
4.46683592150962e+001	(2.69576712945107e+001dB,1.43793577016150e+002°)
4.57088189614874e+001	(2.68868387409395e+001dB,1.43162612274738e+002°)
4.67735141287197e+001	(2.68138857121866e+001dB,1.42527550241169e+002°)
4.78630092322638e+001	(2.67387856378790e+001dB,1.41888678269683e+002°)
4.89778819368445e+001	(2.66615137626854e+001dB,1.41246292988266e+002°)
5.01187233627271e+001	(2.65820472414392e+001dB,1.40600699696427e+002°)
5.12861383991364e+001	(2.65003652284227e+001dB,1.39952211712565e+002°)
5.24807460249772e+001	(2.64164489600905e+001dB,1.39301149673811e+002°)
5.37031796370252e+001	(2.63302818305562e+001dB,1.38647840791744e+002°)
5.49540873857624e+001	(2.62418494592069e+001dB,1.37992618067860e+002°)
5.62341325190348e+001	(2.61511397498718e+001dB,1.37335819473127e+002°)
5.75439937337156e+001	(2.60581429410331e+001dB,1.36677787096350e+002°)
5.88843655355588e+001	(2.59628516466393e+001dB,1.36018866266471e+002°)
6.02559586074357e+001	(2.58652608871616e+001dB,1.35359404654179e+002°)
6.16595001861481e+001	(2.57653681106164e+001dB,1.34699751358495e+002°)
6.30957344480192e+001	(2.56631732033651e+001dB,1.34040255984157e+002°)
6.45654229034654e+001	(2.55586784905962e+001dB,1.33381267715733e+002°)
6.60693448007595e+001	(2.54518887264826e+001dB,1.32723134394448e+002°)
6.76082975391980e+001	(2.53428110741054e+001dB,1.32066201603664e+002°)
6.91830970918935e+001	(2.52314550753216e+001dB,1.31410811768853e+002°)
7.07945784384136e+001	(2.51178326108451e+001dB,1.30757303277723e+002°)
7.24435960074988e+001	(2.50019578508942e+001dB,1.30106009625949e+002°)
7.41310241300916e+001	(2.48838471968368e+001dB,1.29457258593603e+002°)
7.58577575029182e+001	(2.47635192143384e+001dB,1.28811371457095e+002°)
7.76247116628690e+001	(2.46409945585838e+001dB,1.28168662240959e+002°)
7.94328234724279e+001	(2.45162958921986e+001dB,1.27529437013436e+002°)
8.12830516164097e+001	(2.43894477965474e+001dB,1.26893993229281e+002°)
8.31763771102669e+001	(2.42604766771219e+001dB,1.26262619122732e+002°)
8.51138038202374e+001	(2.41294106637655e+001dB,1.25635593153061e+002°)
8.70963589956078e+001	(2.39962795064952e+001dB,1.25013183504584e+002°)
8.91250938133743e+001	(2.38611144676986e+001dB,1.24395647642474e+002°)
9.12010839355907e+001	(2.37239482114794e+001dB,1.23783231925215e+002°)
9.33254300796988e+001	(2.35848146909210e+001dB,1.23176171273986e+002°)
9.54992586021433e+001	(2.34437490340193e+001dB,1.22574688898810e+002°)
9.77237220955808e+001	(2.33007874290152e+001dB,1.21978996080821e+002°)
9.99999999999997e+001	(2.31559670098246e+001dB,1.21389292009570e+002°)
1.02329299228075e+002	(2.30093257422288e+001dB,1.20805763673898e+002°)
1.04712854805090e+002	(2.28609023114488e+001dB,1.20228585804552e+002°)
1.07151930523760e+002	(2.27107360116774e+001dB,1.19657920866383e+002°)
1.09647819614318e+002	(2.25588666380996e+001dB,1.19093919097732e+002°)
1.12201845430196e+002	(2.24053343818775e+001dB,1.18536718594328e+002°)
1.14815362149688e+002	(2.22501797285250e+001dB,1.17986445434884e+002°)
1.17489755493953e+002	(2.20934433600439e+001dB,1.17443213845404e+002°)
1.20226443461741e+002	(2.19351660611410e+001dB,1.16907126399118e+002°)
1.23026877081238e+002	(2.17753886297924e+001dB,1.16378274248901e+002°)
1.25892541179416e+002	(2.16141517923720e+001dB,1.15856737388999e+002°)
1.28824955169313e+002	(2.14514961235099e+001dB,1.15342584942897e+002°)
1.31825673855640e+002	(2.12874619708019e+001dB,1.14835875474192e+002°)
1.34896288259165e+002	(2.11220893844464e+001dB,1.14336657317397e+002°)
1.38038426460288e+002	(2.09554180518443e+001dB,1.13844968925704e+002°)
1.41253754462275e+002	(2.07874872371588e+001dB,1.13360839232821e+002°)
1.44543977074592e+002	(2.06183357257995e+001dB,1.12884288026133e+002°)
1.47910838816820e+002	(2.04480017737616e+001dB,1.12415326328582e+002°)
1.51356124843620e+002	(2.02765230617260e+001dB,1.11953956786797e+002°)
1.54881661891248e+002	(2.01039366538002e+001dB,1.11500174063178e+002°)
1.58489319246111e+002	(1.99302789607586e+001dB,1.11053965229789e+002°)
1.62181009735892e+002	(1.97555857076258e+001dB,1.10615310162094e+002°)
1.65958690743755e+002	(1.95798919054281e+001dB,1.10184181930731e+002°)
1.69824365246174e+002	(1.94032318269305e+001dB,1.09760547189681e+002°)
1.73780082874937e+002	(1.92256389861634e+001dB,1.09344366559373e+002°)
1.77827941003892e+002	(1.90471461215415e+001dB,1.08935595003401e+002°)
1.81970085860998e+002	(1.88677851823683e+001dB,1.08534182197705e+002°)
1.86208713666286e+002	(1.86875873185208e+001dB,1.08140072891204e+002°)
1.90546071796324e+002	(1.85065828731072e+001dB,1.07753207257012e+002°)
1.94984459975804e+002	(1.83248013778927e+001dB,1.07373521233514e+002°)
1.99526231496887e+002	(1.81422715512900e+001dB,1.07000946854684e+002°)
2.04173794466952e+002	(1.79590212987160e+001dB,1.06635412569160e+002°)
2.08929613085403e+002	(1.77750777151223e+001dB,1.06276843547696e+002°)
2.13796208950222e+002	(1.75904670895103e+001dB,1.05925161978706e+002°)
2.18776162394954e+002	(1.74052149112514e+001dB,1.05580287351706e+002°)
2.23872113856833e+002	(1.72193458780391e+001dB,1.05242136728561e+002°)
2.29086765276776e+002	(1.70328839053060e+001dB,1.04910625002486e+002°)
2.34422881531991e+002	(1.68458521369501e+001dB,1.04585665144846e+002°)
2.39883291901948e+002	(1.66582729572194e+001dB,1.04267168439848e+002°)
2.45470891568502e+002	(1.64701680036151e+001dB,1.03955044707267e+002°)
2.51188643150957e+002	(1.62815581806808e+001dB,1.03649202513403e+002°)
2.57039578276885e+002	(1.60924636745540e+001dB,1.03349549370493e+002°)
2.63026799189537e+002	(1.59029039681632e+001dB,1.03055991924857e+002°)
2.69153480392690e+002	(1.57128978569645e+001dB,1.02768436134052e+002°)
2.75422870333816e+002	(1.55224634651170e+001dB,1.02486787433372e+002°)
2.81838293126444e+002	(1.53316182620061e+001dB,1.02210950892004e+002°)
2.88403150312659e+002	(1.51403790790280e+001dB,1.01940831359224e+002°)
2.95120922666637e+002	(1.49487621265607e+001dB,1.01676333600958e+002°)
3.01995172040200e+002	(1.47567830110487e+001dB,1.01417362427103e+002°)
3.09029543251358e+002	(1.45644567521374e+001dB,1.01163822809972e+002°)
3.16227766016837e+002	(1.43717977997994e+001dB,1.00915619994237e+002°)
3.23593656929627e+002	(1.41788200513999e+001dB,1.00672659598746e+002°)
3.31131121482590e+002	(1.39855368686545e+001dB,1.00434847710589e+002°)
3.38844156139201e+002	(1.37919610944362e+001dB,1.00202090971782e+002°)
3.46736850452530e+002	(1.35981050693954e+001dB,9.99742966589237e+001°)
3.54813389233574e+002	(1.34039806483604e+001dB,9.97513727561896e+001°)
3.63078054770100e+002	(1.32095992164872e+001dB,9.95332280220087e+001°)
3.71535229097171e+002	(1.30149717051371e+001dB,9.93197720497558e+001°)
3.80189396320559e+002	(1.28201086074575e+001dB,9.91109153227938e+001°)
3.89045144994279e+002	(1.26250199936495e+001dB,9.89065692641821e+001°)
3.98107170553495e+002	(1.24297155259062e+001dB,9.87066462813573e+001°)
4.07380277804111e+002	(1.22342044730098e+001dB,9.85110598060837e+001°)
4.16869383470333e+002	(1.20384957245763e+001dB,9.83197243299580e+001°)
4.26579518801591e+002	(1.18425978049414e+001dB,9.81325554357408e+001°)
4.36515832240164e+002	(1.16465188866804e+001dB,9.79494698247781e+001°)
4.46683592150961e+002	(1.14502668037600e+001dB,9.77703853407614e+001°)
4.57088189614873e+002	(1.12538490643169e+001dB,9.75952209900665e+001°)
4.67735141287196e+002	(1.10572728630659e+001dB,9.74238969588990e+001°)
4.78630092322636e+002	(1.08605450933353e+001dB,9.72563346274619e+001°)
4.89778819368444e+002	(1.06636723587327e+001dB,9.70924565813528e+001°)
5.01187233627270e+002	(1.04666609844440e+001dB,9.69321866203848e+001°)
5.12861383991362e+002	(1.02695170281685e+001dB,9.67754497650180e+001°)
5.24807460249770e+002	(1.00722462906960e+001dB,9.66221722605753e+001°)
5.37031796370250e+002	(9.87485432613020e+000dB,9.64722815794100e+001°)
5.49540873857622e+002	(9.67734645176409e+000dB,9.63257064211799e+001°)
5.62341325190346e+002	(9.47972775761498e+000dB,9.61823767113780e+001°)
5.75439937337154e+002	(9.28200311562478e+000dB,9.60422235982575e+001°)
5.88843655355586e+002	(9.08417718853334e+000dB,9.59051794482817e+001°)
6.02559586074355e+002	(8.88625443843224e+000dB,9.57711778402249e+001°)
6.16595001861479e+002	(8.68823913500684e+000dB,9.56401535580360e+001°)
6.30957344480190e+002	(8.49013536347444e+000dB,9.55120425825778e+001°)
6.45654229034652e+002	(8.29194703222674e+000dB,9.53867820823405e+001°)
6.60693448007592e+002	(8.09367788018464e+000dB,9.52643104032273e+001°)
6.76082975391978e+002	(7.89533148387378e+000dB,9.51445670574999e+001°)
6.91830970918933e+002	(7.69691126422885e+000dB,9.50274927119681e+001°)
7.07945784384134e+002	(7.49842049313504e+000dB,9.49130291755025e+001°)
7.24435960074986e+002	(7.29986229971477e+000dB,9.48011193859412e+001°)
7.41310241300914e+002	(7.10123967636783e+000dB,9.46917073964599e+001°)
7.58577575029180e+002	(6.90255548457285e+000dB,9.45847383614684e+001°)
7.76247116628688e+002	(6.70381246045828e+000dB,9.44801585220921e+001°)
7.94328234724277e+002	(6.50501322015034e+000dB,9.43779151912931e+001°)
8.12830516164095e+002	(6.30616026490589e+000dB,9.42779567386824e+001°)
8.31763771102666e+002	(6.10725598603762e+000dB,9.41802325750699e+001°)
8.51138038202372e+002	(5.90830266963884e+000dB,9.40846931367952e+001°)
8.70963589956076e+002	(5.70930250111533e+000dB,9.39912898698814e+001°)
8.91250938133741e+002	(5.51025756953095e+000dB,9.38999752140469e+001°)
9.12010839355905e+002	(5.31116987177411e+000dB,9.38107025866121e+001°)
9.33254300796986e+002	(5.11204131655169e+000dB,9.37234263663309e+001°)
9.54992586021431e+002	(4.91287372821687e+000dB,9.36381018771769e+001°)
9.77237220955805e+002	(4.71366885043721e+000dB,9.35546853721121e+001°)
9.99999999999994e+002	(4.51442834970916e+000dB,9.34731340168611e+001°)
1.02329299228075e+003	(4.31515381872482e+000dB,9.33934058737147e+001°)
1.04712854805089e+003	(4.11584677959682e+000dB,9.33154598853832e+001°)
1.07151930523760e+003	(3.91650868694682e+000dB,9.32392558589183e+001°)
1.09647819614318e+003	(3.71714093086309e+000dB,9.31647544497201e+001°)
1.12201845430196e+003	(3.51774483973230e+000dB,9.30919171456466e+001°)
1.14815362149688e+003	(3.31832168295066e+000dB,9.30207062512376e+001°)
1.17489755493952e+003	(3.11887267351919e+000dB,9.29510848720672e+001°)
1.20226443461741e+003	(2.91939897052787e+000dB,9.28830168992362e+001°)
1.23026877081237e+003	(2.71990168153320e+000dB,9.28164669940143e+001°)
1.25892541179416e+003	(2.52038186483347e+000dB,9.27514005726415e+001°)
1.28824955169313e+003	(2.32084053164610e+000dB,9.26877837912974e+001°)
1.31825673855640e+003	(2.12127864819094e+000dB,9.26255835312439e+001°)
1.34896288259165e+003	(1.92169713768352e+000dB,9.25647673841506e+001°)
1.38038426460288e+003	(1.72209688224201e+000dB,9.25053036376048e+001°)
1.41253754462275e+003	(1.52247872471149e+000dB,9.24471612608146e+001°)
1.44543977074592e+003	(1.32284347040904e+000dB,9.23903098905056e+001°)
1.47910838816820e+003	(1.12319188879288e+000dB,9.23347198170175e+001°)
1.51356124843620e+003	(9.23524715058995e-001dB,9.22803619706018e+001°)
1.54881661891247e+003	(7.23842651668041e-001dB,9.22272079079230e+001°)
1.58489319246110e+003	(5.24146369805808e-001dB,9.21752297987660e+001°)
1.62181009735892e+003	(3.24436510779850e-001dB,9.21244004129494e+001°)
1.65958690743755e+003	(1.24713687355099e-001dB,9.20746931074473e+001°)
1.69824365246173e+003	(-7.50215149688368e-002dB,9.20260818137190e+001°)
1.73780082874936e+003	(-2.74768536736297e-001dB,9.19785410252461e+001°)
1.77827941003891e+003	(-4.74526843367602e-001dB,9.19320457852786e+001°)
1.81970085860997e+003	(-6.74295924042238e-001dB,9.18865716747881e+001°)
1.86208713666286e+003	(-8.74075290630909e-001dB,9.18420948006265e+001°)
1.90546071796323e+003	(-1.07386447667438e+000dB,9.17985917838920e+001°)
1.94984459975803e+003	(-1.27366303640703e+000dB,9.17560397484973e+001°)
1.99526231496887e+003	(-1.47347054382314e+000dB,9.17144163099421e+001°)
2.04173794466952e+003	(-1.67328659178409e+000dB,9.16736995642850e+001°)
2.08929613085403e+003	(-1.87311079116461e+000dB,9.16338680773156e+001°)
2.13796208950222e+003	(-2.07294277003639e+000dB,9.15949008739224e+001°)
2.18776162394954e+003	(-2.27278217288733e+000dB,9.15567774276567e+001°)
2.23872113856832e+003	(-2.47262865987497e+000dB,9.15194776504880e+001°)
2.29086765276776e+003	(-2.67248190611243e+000dB,9.14829818827496e+001°)
2.34422881531991e+003	(-2.87234160098553e+000dB,9.14472708832719e+001°)
2.39883291901947e+003	(-3.07220744749959e+000dB,9.14123258197008e+001°)
2.45470891568501e+003	(-3.27207916165464e+000dB,9.13781282589977e+001°)
2.51188643150956e+003	(-3.47195647184775e+000dB,9.13446601581196e+001°)
2.57039578276885e+003	(-3.67183911830124e+000dB,9.13119038548757e+001°)
2.63026799189536e+003	(-3.87172685251558e+000dB,9.12798420589575e+001°)
2.69153480392690e+003	(-4.07161943674586e+000dB,9.12484578431404e+001°)
2.75422870333815e+003	(-4.27151664350077e+000dB,9.12177346346530e+001°)
2.81838293126443e+003	(-4.47141825506309e+000dB,9.11876562067117e+001°)
2.88403150312659e+003	(-4.67132406303054e+000dB,9.11582066702170e+001°)
2.95120922666636e+003	(-4.87123386787625e+000dB,9.11293704656096e+001°)
3.01995172040199e+003	(-5.07114747852778e+000dB,9.11011323548820e+001°)
3.09029543251357e+003	(-5.27106471196393e+000dB,9.10734774137438e+001°)
3.16227766016836e+003	(-5.47098539282834e+000dB,9.10463910239369e+001°)
3.23593656929626e+003	(-5.67090935305936e+000dB,9.10198588656977e+001°)
3.31131121482589e+003	(-5.87083643153503e+000dB,9.09938669103638e+001°)
3.38844156139200e+003	(-6.07076647373279e+000dB,9.09684014131222e+001°)
3.46736850452529e+003	(-6.27069933140307e+000dB,9.09434489058945e+001°)
3.54813389233573e+003	(-6.47063486225593e+000dB,9.09189961903594e+001°)
3.63078054770099e+003	(-6.67057292966041e+000dB,9.08950303311053e+001°)
3.71535229097170e+003	(-6.87051340235564e+000dB,9.08715386489144e+001°)
3.80189396320558e+003	(-7.07045615417338e+000dB,9.08485087141723e+001°)
3.89045144994278e+003	(-7.27040106377119e+000dB,9.08259283404010e+001°)
3.98107170553494e+003	(-7.47034801437580e+000dB,9.08037855779140e+001°)
4.07380277804110e+003	(-7.67029689353613e+000dB,9.07820687075885e+001°)
4.16869383470332e+003	(-7.87024759288535e+000dB,9.07607662347529e+001°)
4.26579518801589e+003	(-8.07020000791163e+000dB,9.07398668831875e+001°)
4.36515832240162e+003	(-8.27015403773695e+000dB,9.07193595892340e+001°)
4.46683592150960e+003	(-8.47010958490362e+000dB,9.06992334960133e+001°)
4.57088189614871e+003	(-8.67006655516798e+000dB,9.06794779477464e+001°)
4.67735141287194e+003	(-8.87002485730090e+000dB,9.06600824841781e+001°)
4.78630092322634e+003	(-9.06998440289463e+000dB,9.06410368350996e+001°)
4.89778819368442e+003	(-9.26994510617561e+000dB,9.06223309149672e+001°)
5.01187233627268e+003	(-9.46990688382283e+000dB,9.06039548176156e+001°)
5.12861383991361e+003	(-9.66986965479137e+000dB,9.05858988110630e+001°)
5.24807460249768e+003	(-9.86983334014075e+000dB,9.05681533324040e+001°)
5.37031796370248e+003	(-1.00697978628677e+001dB,9.05507089827906e+001°)
5.49540873857620e+003	(-1.02697631477432e+001dB,9.05335565224964e+001°)
5.62341325190344e+003	(-1.04697291211527e+001dB,9.05166868660631e+001°)
5.75439937337152e+003	(-1.06696957109406e+001dB,9.05000910775258e+001°)
5.88843655355584e+003	(-1.08696628462571e+001dB,9.04837603657164e+001°)
6.02559586074353e+003	(-1.10696304574083e+001dB,9.04676860796406e+001°)
6.16595001861477e+003	(-1.12695984757080e+001dB,9.04518597039288e+001°)
