Freq.	V(n002)/-I(R1)
Step Information: 1=1  (Run: 1/11)
1.00000000000000e+000	(212697.55064877815dB,-42.5274173020822°)
1.02329299228075e+000	(210365.90130825984dB,-43.1645964415018°)
1.04712854805090e+000	(208004.78210840345dB,-43.8017298888316°)
1.07151930523761e+000	(205615.72098298318dB,-44.4384565043973°)
1.09647819614318e+000	(203200.30932494116dB,-45.0744145722948°)
1.12201845430196e+000	(200760.19686424852dB,-45.7092427199033°)
1.14815362149688e+000	(198297.08622514005dB,-46.3425808332302°)
1.17489755493953e+000	(195812.72720488432dB,-46.9740709621658°)
1.20226443461741e+000	(193308.91081831182dB,-47.6033582098341°)
1.23026877081238e+000	(190787.46315516194dB,-48.2300916004128°)
1.25892541179417e+000	(188250.23909846644dB,-48.8539249200615°)
1.28824955169313e+000	(185699.11595298868dB,-49.4745175258916°)
1.31825673855641e+000	(183135.98703296122dB,-50.0915351182871°)
1.34896288259165e+000	(180562.7552581515dB,-50.7046504723041°)
1.38038426460288e+000	(177981.32680531862dB,-51.3135441243224°)
1.41253754462275e+000	(175393.6048614413dB,-51.9179050106127°)
1.44543977074593e+000	(172801.48352184135dB,-52.5174310549936°)
1.47910838816821e+000	(170206.84187426578dB,-53.1118297032849°)
1.51356124843621e+000	(167611.5383063095dB,-53.7008184027813°)
1.54881661891248e+000	(165017.40507007003dB,-54.2841250255189°)
1.58489319246111e+000	(162426.2431344341dB,-54.8614882346229°)
1.62181009735893e+000	(159839.8173507329dB,-55.4326577935287°)
1.65958690743756e+000	(157259.85195379698dB,-55.9973948183672°)
1.69824365246174e+000	(154688.02641606965dB,-56.5554719742434°)
1.73780082874937e+000	(152125.97166809786dB,-57.1066736165823°)
1.77827941003892e+000	(149575.26669466868dB,-57.6507958790854°)
1.81970085860998e+000	(147037.4355119682dB,-58.1876467102068°)
1.86208713666287e+000	(144513.94452697897dB,-58.7170458603508°)
1.90546071796325e+000	(142006.20027725046dB,-59.2388248222606°)
1.94984459975804e+000	(139515.54754541977dB,-59.7528267272957°)
1.99526231496888e+000	(137043.2678400008dB,-60.2589062004581°)
2.04173794466953e+000	(134590.57823154534dB,-60.7569291771767°)
2.08929613085404e+000	(132158.63053033626dB,-61.246772684944°)
2.13796208950223e+000	(129748.51079036461dB,-61.7283245929595°)
2.18776162394955e+000	(127361.23912231614dB,-62.2014833329577°)
2.23872113856834e+000	(124997.76979689016dB,-62.6661575943789°)
2.29086765276777e+000	(122658.99161907037dB,-63.1222659970068°)
2.34422881531992e+000	(120345.72855281792dB,-63.5697367441245°)
2.39883291901949e+000	(118058.74057557322dB,-64.0085072591472°)
2.45470891568503e+000	(115798.7247413943dB,-64.4385238085858°)
2.51188643150958e+000	(113566.31643204365dB,-64.8597411140545°)
2.57039578276886e+000	(111362.09077518144dB,-65.272121955913°)
2.63026799189538e+000	(109186.56420942418dB,-65.6756367709596°)
2.69153480392691e+000	(107040.1961768255dB,-66.0702632464516°)
2.75422870333816e+000	(104923.390923585dB,-66.455985912554°)
2.81838293126445e+000	(102836.49939133023dB,-66.8327957351527°)
2.88403150312660e+000	(100779.82118150528dB,-67.2006897108039°)
2.95120922666638e+000	(98753.60657697426dB,-67.5596704654197°)
3.01995172040201e+000	(96758.0586058571dB,-67.909745858132°)
3.09029543251359e+000	(94793.33513343934dB,-68.2509285916183°)
3.16227766016837e+000	(92859.55096949254dB,-68.5832358300127°)
3.23593656929628e+000	(90956.77997916493dB,-68.906688825391°)
3.31131121482591e+000	(89085.05718679653dB,-69.2213125536675°)
3.38844156139202e+000	(87244.38086305081dB,-69.5271353606204°)
3.46736850452531e+000	(85434.71458679083dB,-69.8241886186321°)
3.54813389233575e+000	(83655.98927412272dB,-70.1125063946251°)
3.63078054770101e+000	(81908.10516796235dB,-70.3921251295554°)
3.71535229097172e+000	(80190.93378238793dB,-70.6630833297468°)
3.80189396320560e+000	(78504.3197968904dB,-70.9254212702442°)
3.89045144994280e+000	(76848.08289640881dB,-71.1791807102957°)
3.98107170553496e+000	(75222.01955376878dB,-71.4244046209956°)
4.07380277804112e+000	(73625.90475185004dB,-71.6611369250618°)
4.16869383470335e+000	(72059.49364338085dB,-71.889422248659°)
4.26579518801592e+000	(70522.5231468706dB,-72.1093056851359°)
4.36515832240165e+000	(69014.71347767428dB,-72.3208325704984°)
4.46683592150962e+000	(67535.76961365566dB,-72.5240482704067°)
4.57088189614874e+000	(66085.3826953308dB,-72.7189979784537°)
4.67735141287197e+000	(64663.23136073686dB,-72.9057265254569°)
4.78630092322637e+000	(63268.983015590595dB,-73.0842781994772°)
4.89778819368445e+000	(61902.295039591976dB,-73.2546965762613°)
5.01187233627271e+000	(60562.81592996359dB,-73.4170243597987°)
5.12861383991364e+000	(59250.18638352392dB,-73.5713032326668°)
5.24807460249771e+000	(57964.04031877883dB,-73.717573715849°)
5.37031796370252e+000	(56704.00583964608dB,-73.8558750376946°)
5.49540873857623e+000	(55469.70614255538dB,-73.9862450117053°)
5.62341325190348e+000	(54260.76036876348dB,-74.1087199228279°)
5.75439937337156e+000	(53076.78440378069dB,-74.2233344219474°)
5.88843655355588e+000	(51917.39162586946dB,-74.3301214282786°)
6.02559586074356e+000	(50782.19360560939dB,-74.4291120393697°)
6.16595001861481e+000	(49670.80075853094dB,-74.520335448438°)
6.30957344480192e+000	(48582.82295282741dB,-74.6038188687819°)
6.45654229034654e+000	(47517.87007416188dB,-74.6795874650127°)
6.60693448007594e+000	(46475.55254953447dB,-74.7476642908848°)
6.76082975391980e+000	(45455.481832186146dB,-74.8080702335018°)
6.91830970918935e+000	(44457.27084944826dB,-74.8608239637072°)
7.07945784384136e+000	(43480.53441541869dB,-74.9059418924778°)
7.24435960074988e+000	(42524.88961030543dB,-74.9434381331629°)
7.41310241300916e+000	(41589.95612820546dB,-74.9733244694261°)
7.58577575029182e+000	(40675.356595056764dB,-74.9956103287723°)
7.76247116628690e+000	(39780.7168584191dB,-75.0103027615547°)
7.94328234724279e+000	(38905.66625070442dB,-75.0174064253866°)
8.12830516164097e+000	(38049.83782739021dB,-75.0169235748926°)
8.31763771102669e+000	(37212.868581710856dB,-75.0088540567625°)
8.51138038202374e+000	(36394.39963724453dB,-74.9931953100866°)
8.70963589956078e+000	(35594.07641975579dB,-74.9699423719765°)
8.91250938133743e+000	(34811.54880959624dB,-74.9390878884899°)
9.12010839355907e+000	(34046.471275896176dB,-74.900622130904°)
9.33254300796988e+000	(33298.502993729926dB,-74.8545330174003°)
9.54992586021433e+000	(32567.30794536743dB,-74.8008061402435°)
9.77237220955808e+000	(31852.55500668567dB,-74.739424798557°)
9.99999999999997e+000	(31153.918019730532dB,-74.6703700368213°)
1.02329299228075e+001	(30471.07585239606dB,-74.5936206892342°)
1.04712854805090e+001	(29803.71244611166dB,-74.5091534300977°)
1.07151930523760e+001	(29151.516852391804dB,-74.4169428304118°)
1.09647819614318e+001	(28514.183259045738dB,-74.3169614208728°)
1.12201845430196e+001	(27891.411006806513dB,-74.2091797614949°)
1.14815362149688e+001	(27282.904597082073dB,-74.0935665180864°)
1.17489755493953e+001	(26688.37369150172dB,-73.9700885458314°)
1.20226443461741e+001	(26107.533103880043dB,-73.8387109802405°)
1.23026877081238e+001	(25540.10278518617dB,-73.6993973357471°)
1.25892541179416e+001	(24985.807802067942dB,-73.5521096122429°)
1.28824955169313e+001	(24444.378309443266dB,-73.3968084098491°)
1.31825673855640e+001	(23915.549517642918dB,-73.2334530522367°)
1.34896288259165e+001	(23399.06165454783dB,-73.0620017188118°)
1.38038426460288e+001	(22894.659923143903dB,-72.8824115860862°)
1.41253754462275e+001	(22402.09445488127dB,-72.6946389785592°)
1.44543977074592e+001	(21921.12025920027dB,-72.4986395294316°)
1.47910838816820e+001	(21451.49716956273dB,-72.2943683514721°)
1.51356124843620e+001	(20992.989786300193dB,-72.0817802183479°)
1.54881661891248e+001	(20545.367416569254dB,-71.860829756719°)
1.58489319246111e+001	(20108.404011685307dB,-71.6314716493814°)
1.62181009735892e+001	(19681.878102080518dB,-71.3936608497242°)
1.65958690743755e+001	(19265.572730121527dB,-71.1473528077392°)
1.69824365246174e+001	(18859.275380995856dB,-70.8925037077909°)
1.73780082874937e+001	(18462.77791186828dB,-70.6290707183203°)
1.77827941003892e+001	(18075.876479487313dB,-70.3570122536091°)
1.81970085860998e+001	(17698.37146641353dB,-70.0762882476834°)
1.86208713666286e+001	(17330.06740602443dB,-69.7868604403794°)
1.90546071796324e+001	(16970.77290644153dB,-69.4886926755268°)
1.94984459975804e+001	(16620.30057351568dB,-69.1817512111355°)
1.99526231496887e+001	(16278.466932993619dB,-68.8660050413883°)
2.04173794466952e+001	(15945.092351986186dB,-68.5414262301542°)
2.08929613085403e+001	(15620.000959844463dB,-68.2079902556405°)
2.13796208950222e+001	(15303.020568551223dB,-67.8656763656921°)
2.18776162394954e+001	(14993.982592720798dB,-67.5144679431343°)
2.23872113856833e+001	(14692.721969306496dB,-67.1543528804296°)
2.29086765276776e+001	(14399.077077099673dB,-66.7853239627888°)
2.34422881531991e+001	(14112.88965611093dB,-66.4073792587349°)
2.39883291901948e+001	(13834.004726918472dB,-66.020522516972°)
2.45470891568502e+001	(13562.270510063381dB,-65.6247635682582°)
2.51188643150957e+001	(13297.538345580671dB,-65.2201187308214°)
2.57039578276885e+001	(13039.662612743552dB,-64.806611217694°)
2.63026799189537e+001	(12788.500650110194dB,-64.3842715441752°)
2.69153480392690e+001	(12543.912675955824dB,-63.953137933464°)
2.75422870333815e+001	(12305.761709176672dB,-63.5132567183361°)
2.81838293126444e+001	(12073.913490760593dB,-63.0646827365779°)
2.88403150312659e+001	(11848.236405911059dB,-62.6074797177283°)
2.95120922666637e+001	(11628.60140692722dB,-62.1417206585302°)
3.01995172040200e+001	(11414.881936933063dB,-61.6674881843547°)
3.09029543251358e+001	(11206.953854564596dB,-61.184874893732°)
3.16227766016837e+001	(11004.695359718147dB,-60.6939836830169°)
3.23593656929627e+001	(10807.986920471123dB,-60.1949280481256°)
3.31131121482590e+001	(10616.711201288668dB,-59.6878323602172°)
3.38844156139201e+001	(10430.752992633768dB,-59.1728321121528°)
3.46736850452530e+001	(10249.9991420978dB,-58.6500741325596°)
3.54813389233574e+001	(10074.338487175017dB,-58.1197167643493°)
3.63078054770100e+001	(9903.661789801596dB,-57.5819300046041°)
3.71535229097171e+001	(9737.861672783607dB,-57.0368956028423°)
3.80189396320559e+001	(9576.832558234986dB,-56.4848071148143°)
3.89045144994279e+001	(9420.470608148931dB,-55.9258699091647°)
3.98107170553495e+001	(9268.673667218363dB,-55.3603011245213°)
4.07380277804111e+001	(9121.34120802227dB,-54.7883295748389°)
4.16869383470333e+001	(8978.374278686983dB,-54.210195601141°)
4.26579518801591e+001	(8839.675453125164dB,-53.6261508681538°)
4.36515832240164e+001	(8705.148783946885dB,-53.0364581047196°)
4.46683592150961e+001	(8574.699758130473dB,-52.441390787308°)
4.57088189614873e+001	(8448.235255526595dB,-51.8412327664024°)
4.67735141287196e+001	(8325.663510258799dB,-51.2362778360275°)
4.78630092322636e+001	(8206.894075070655dB,-50.6268292471969°)
4.89778819368444e+001	(8091.837788654188dB,-50.0131991665799°)
5.01187233627270e+001	(7980.406745978422dB,-49.3957080822237°)
5.12861383991362e+001	(7872.514271621755dB,-48.7746841586973°)
5.24807460249770e+001	(7768.074896092801dB,-48.1504625445487°)
5.37031796370250e+001	(7667.004335107785dB,-47.5233846354746°)
5.49540873857622e+001	(7569.219471772553dB,-46.8937972970869°)
5.62341325190346e+001	(7474.638341602701dB,-46.2620520516052°)
5.75439937337154e+001	(7383.180120291443dB,-45.6285042332201°)
5.88843655355586e+001	(7294.765114123075dB,-44.9935121172253°)
6.02559586074355e+001	(7209.314752908621dB,-44.3574360283267°)
6.16595001861479e+001	(7126.751585305396dB,-43.7206374337778°)
6.30957344480190e+001	(7046.99927636782dB,-43.0834780271718°)
6.45654229034652e+001	(6969.982607162117dB,-42.4463188088292°)
6.60693448007593e+001	(6895.627476265873dB,-41.8095191687593°)
6.76082975391978e+001	(6823.860902963054dB,-41.1734359781419°)
6.91830970918933e+001	(6754.61103193628dB,-40.5384226951726°)
7.07945784384134e+001	(6687.807139252162dB,-39.9048284909388°)
7.24435960074986e+001	(6623.379639430887dB,-39.2729974007615°)
7.41310241300914e+001	(6561.260093388204dB,-38.6432675061314°)
7.58577575029180e+001	(6501.381217039788dB,-38.0159701520179°)
7.76247116628688e+001	(6443.67689035761dB,-37.3914292039216°)
7.94328234724277e+001	(6388.082166673338dB,-36.7699603485962°)
8.12830516164095e+001	(6334.533282029915dB,-36.1518704418862°)
8.31763771102667e+001	(6282.967664389156dB,-35.5374569066177°)
8.51138038202372e+001	(6233.323942513653dB,-34.9270071829597°)
8.70963589956076e+001	(6185.541954351765dB,-34.3207982331384°)
8.91250938133741e+001	(6139.562754766426dB,-33.7190961018568°)
9.12010839355905e+001	(6095.328622463042dB,-33.1221555332408°)
9.33254300796986e+001	(6052.7830659834335dB,-32.5302196446288°)
9.54992586021431e+001	(6011.87082865105dB,-31.9435196570229°)
9.77237220955805e+001	(5972.537892364519dB,-31.3622746815628°)
9.99999999999995e+001	(5934.7314801543025dB,-30.7866915609462°)
1.02329299228075e+002	(5898.400057431807dB,-30.2169647643256°)
1.04712854805089e+002	(5863.493331876008dB,-29.653276333855°)
1.07151930523760e+002	(5829.962251917019dB,-29.0957958807401°)
1.09647819614318e+002	(5797.759003790992dB,-28.5446806283778°)
1.12201845430196e+002	(5766.837007154371dB,-28.0000754999373°)
1.14815362149688e+002	(5737.150909258476dB,-27.4621132475491°)
1.17489755493952e+002	(5708.656577697611dB,-26.9309146201274°)
1.20226443461741e+002	(5681.311091754768dB,-26.4065885667417°)
1.23026877081237e+002	(5655.072732379552dB,-25.8892324723971°)
1.25892541179416e+002	(5629.900970842476dB,-25.378932423047°)
1.28824955169313e+002	(5605.756456116417dB,-24.8757634966715°)
1.31825673855640e+002	(5582.60100104447dB,-24.3797900772909°)
1.34896288259165e+002	(5560.397567358767dB,-23.8910661888441°)
1.38038426460288e+002	(5539.1102496199965dB,-23.409635845951°)
1.41253754462275e+002	(5518.704258150268dB,-22.9355334186849°)
1.44543977074592e+002	(5499.145901036848dB,-22.4687840086055°)
1.47910838816820e+002	(5480.402565284195dB,-22.0094038334434°)
1.51356124843620e+002	(5462.442697194668dB,-21.5574006179747°)
1.54881661891247e+002	(5445.235782057411dB,-21.1127739887864°)
1.58489319246110e+002	(5428.752323226135dB,-20.6755158707938°)
1.62181009735892e+002	(5412.9638206636055dB,-20.2456108835396°)
1.65958690743755e+002	(5397.842749031613dB,-19.8230367354735°)
1.69824365246173e+002	(5383.36253540093dB,-19.4077646145766°)
1.73780082874936e+002	(5369.497536655707dB,-18.99975957386°)
1.77827941003891e+002	(5356.223016661376dB,-18.5989809104269°)
1.81970085860997e+002	(5343.515123264858dB,-18.2053825369446°)
1.86208713666286e+002	(5331.350865190715dB,-17.8189133445169°)
1.90546071796323e+002	(5319.708088894318dB,-17.4395175560943°)
1.94984459975803e+002	(5308.565455429053dB,-17.0671350696891°)
1.99526231496887e+002	(5297.902417381007dB,-16.7017017907889°)
2.04173794466952e+002	(5287.699195922162dB,-16.343149953481°)
2.08929613085403e+002	(5277.936758026566dB,-15.991408429906°)
2.13796208950222e+002	(5268.596793893365dB,-15.6464030277599°)
2.18776162394954e+002	(5259.661694614801dB,-15.3080567756562°)
2.23872113856832e+002	(5251.114530125328dB,-14.9762901962401°)
2.29086765276776e+002	(5242.93902746225dB,-14.6510215670242°)
2.34422881531991e+002	(5235.119549368123dB,-14.3321671689802°)
2.39883291901947e+002	(5227.64107325896dB,-14.0196415229819°)
2.45470891568501e+002	(5220.489170580755dB,-13.7133576142456°)
2.51188643150956e+002	(5213.649986574237dB,-13.4132271049623°)
2.57039578276885e+002	(5207.110220463334dB,-13.1191605353517°)
2.63026799189536e+002	(5200.857106082302dB,-12.8310675134072°)
2.69153480392690e+002	(5194.878392952103dB,-12.5488568936225°)
2.75422870333815e+002	(5189.162327815788dB,-12.2724369450204°)
2.81838293126443e+002	(5183.697636639567dB,-12.0017155088184°)
2.88403150312659e+002	(5178.4735070850165dB,-11.7366001460829°)
2.95120922666637e+002	(5173.479571455043dB,-11.4769982757334°)
3.01995172040200e+002	(5168.705890115845dB,-11.2228173032673°)
3.09029543251357e+002	(5164.142935394099dB,-10.9739647405784°)
3.16227766016836e+002	(5159.781575949058dB,-10.7303483172455°)
3.23593656929626e+002	(5155.61306161577dB,-10.4918760836674°)
3.31131121482589e+002	(5151.62900871641dB,-10.2584565064165°)
3.38844156139200e+002	(5147.821385834542dB,-10.0299985561816°)
3.46736850452529e+002	(5144.182500046987dB,-9.80641178866073°)
3.54813389233573e+002	(5140.704983606241dB,-9.58760641876301°)
3.63078054770099e+002	(5137.38178106652dB,-9.37349338846484°)
3.71535229097170e+002	(5134.206136846dB,-9.16398442866127°)
3.80189396320558e+002	(5131.171583215852dB,-8.95899211534057°)
3.89045144994278e+002	(5128.271928708473dB,-8.75842992040106°)
3.98107170553494e+002	(5125.501246934795dB,-8.562212257418°)
4.07380277804110e+002	(5122.853865801602dB,-8.37025452265708°)
4.16869383470332e+002	(5120.3243571190205dB,-8.18247313162007°)
4.26579518801589e+002	(5117.907526588575dB,-7.99878555139622°)
4.36515832240163e+002	(5115.598404161105dB,-7.819110329082°)
4.46683592150960e+002	(5113.392234754921dB,-7.6433671165197°)
4.57088189614872e+002	(5111.284469323794dB,-7.47147669159469°)
4.67735141287195e+002	(5109.270756264672dB,-7.30336097631936°)
4.78630092322635e+002	(5107.3469331547485dB,-7.13894305192112°)
4.89778819368443e+002	(5105.50901880812dB,-6.97814717114091°)
5.01187233627268e+002	(5103.753205641432dB,-6.82089876793813°)
5.12861383991361e+002	(5102.075852339252dB,-6.66712446478787°)
5.24807460249769e+002	(5100.473476808895dB,-6.51675207774619°)
5.37031796370249e+002	(5098.942749414809dB,-6.36971061944987°)
5.49540873857620e+002	(5097.480486483975dB,-6.22593030020761°)
5.62341325190345e+002	(5096.083644071976dB,-6.08534252733097°)
5.75439937337152e+002	(5094.749311981249dB,-5.94787990284476°)
5.88843655355584e+002	(5093.47470802197dB,-5.81347621970831°)
6.02559586074353e+002	(5092.257172507886dB,-5.68206645667143°)
6.16595001861477e+002	(5091.094162977221dB,-5.55358677188127°)
6.30957344480188e+002	(5089.983249131464dB,-5.42797449534921°)
6.45654229034650e+002	(5088.922107983396dB,-5.30516812038004°)
6.60693448007591e+002	(5087.908519206695dB,-5.18510729405953°)
6.76082975391976e+002	(5086.94036067934dB,-5.0677328068899°)
6.91830970918931e+002	(5086.015604213422dB,-4.95298658165732°)
7.07945784384132e+002	(5085.132311464502dB,-4.84081166160981°)
7.24435960074984e+002	(5084.2886300129685dB,-4.73115219801866°)
7.41310241300911e+002	(5083.482789611097dB,-4.6239534371919°)
7.58577575029177e+002	(5082.71309858907dB,-4.51916170700308°)
7.76247116628685e+002	(5081.977940413974dB,-4.41672440299493°)
7.94328234724275e+002	(5081.27577039501dB,-4.31658997411268°)
8.12830516164092e+002	(5080.605112529792dB,-4.21870790811826°)
8.31763771102664e+002	(5079.964556485365dB,-4.12302871673296°)
8.51138038202369e+002	(5079.352754709211dB,-4.02950392055234°)
8.70963589956073e+002	(5078.768419664072dB,-3.9380860337742°)
8.91250938133738e+002	(5078.210321182457dB,-3.84872854877736°)
9.12010839355902e+002	(5077.677283934693dB,-3.76138592058585°)
9.33254300796983e+002	(5077.168185007353dB,-3.67601355125074°)
9.54992586021428e+002	(5076.681951586159dB,-3.59256777417916°)
9.77237220955802e+002	(5076.217558739552dB,-3.51100583843757°)
9.99999999999991e+002	(5075.774027298708dB,-3.43128589305445°)
1.02329299228075e+003	(5075.350421830156dB,-3.35336697134512°)
1.04712854805089e+003	(5074.945848696302dB,-3.27720897527977°)
1.07151930523760e+003	(5074.559454201261dB,-3.20277265991378°)
1.09647819614318e+003	(5074.190422817578dB,-3.13001961789781°)
1.12201845430195e+003	(5073.837975490362dB,-3.05891226408347°)
1.14815362149687e+003	(5073.501368016403dB,-2.98941382023911°)
1.17489755493952e+003	(5073.179889493833dB,-2.92148829988856°)
1.20226443461740e+003	(5072.8728608404235dB,-2.85510049328473°)
1.23026877081237e+003	(5072.579633376851dB,-2.79021595252855°)
1.25892541179416e+003	(5072.299587472376dB,-2.72680097684269°)
1.28824955169312e+003	(5072.0321312504dB,-2.66482259800858°)
1.31825673855640e+003	(5071.776699350942dB,-2.60424856597407°)
1.34896288259164e+003	(5071.532751748073dB,-2.54504733463836°)
1.38038426460287e+003	(5071.29977261922dB,-2.48718804782009°)
1.41253754462274e+003	(5071.077269264949dB,-2.43064052541334°)
