Freq.	V(n002)/-I(R1)
1.00000000000000e+000	(7.41058274036229e+001dB,-5.09400814236467e-003°)
1.00230523807790e+000	(7.41058272263281e+001dB,-5.10569259418225e-003°)
1.00461579027840e+000	(7.41058270482191e+001dB,-5.11740357763955e-003°)
1.00693166885180e+000	(7.41058268692920e+001dB,-5.12914115111491e-003°)
1.00925288607668e+000	(7.41058266895433e+001dB,-5.14090537310209e-003°)
1.01157945425990e+000	(7.41058265089690e+001dB,-5.15269630221044e-003°)
1.01391138573668e+000	(7.41058263275655e+001dB,-5.16451399716507e-003°)
1.01624869287070e+000	(7.41058261453290e+001dB,-5.17635851680694e-003°)
1.01859138805412e+000	(7.41058259622556e+001dB,-5.18822992009303e-003°)
1.02093948370768e+000	(7.41058257783415e+001dB,-5.20012826609642e-003°)
1.02329299228075e+000	(7.41058255935829e+001dB,-5.21205361400649e-003°)
1.02565192625141e+000	(7.41058254079760e+001dB,-5.22400602312901e-003°)
1.02801629812647e+000	(7.41058252215168e+001dB,-5.23598555288629e-003°)
1.03038612044162e+000	(7.41058250342015e+001dB,-5.24799226281728e-003°)
1.03276140576140e+000	(7.41058248460261e+001dB,-5.26002621257773e-003°)
1.03514216667934e+000	(7.41058246569868e+001dB,-5.27208746194034e-003°)
1.03752841581801e+000	(7.41058244670795e+001dB,-5.28417607079482e-003°)
1.03992016582906e+000	(7.41058242763004e+001dB,-5.29629209914809e-003°)
1.04231742939330e+000	(7.41058240846454e+001dB,-5.30843560712436e-003°)
1.04472021922080e+000	(7.41058238921106e+001dB,-5.32060665496529e-003°)
1.04712854805090e+000	(7.41058236986918e+001dB,-5.33280530303009e-003°)
1.04954242865232e+000	(7.41058235043852e+001dB,-5.34503161179567e-003°)
1.05196187382322e+000	(7.41058233091865e+001dB,-5.35728564185674e-003°)
1.05438689639126e+000	(7.41058231130919e+001dB,-5.36956745392595e-003°)
1.05681750921366e+000	(7.41058229160971e+001dB,-5.38187710883401e-003°)
1.05925372517729e+000	(7.41058227181980e+001dB,-5.39421466752981e-003°)
1.06169555719872e+000	(7.41058225193906e+001dB,-5.40658019108057e-003°)
1.06414301822431e+000	(7.41058223196707e+001dB,-5.41897374067190e-003°)
1.06659612123026e+000	(7.41058221190341e+001dB,-5.43139537760798e-003°)
1.06905487922266e+000	(7.41058219174767e+001dB,-5.44384516331166e-003°)
1.07151930523761e+000	(7.41058217149942e+001dB,-5.45632315932456e-003°)
1.07398941234124e+000	(7.41058215115824e+001dB,-5.46882942730722e-003°)
1.07646521362983e+000	(7.41058213072371e+001dB,-5.48136402903922e-003°)
1.07894672222983e+000	(7.41058211019540e+001dB,-5.49392702641923e-003°)
1.08143395129794e+000	(7.41058208957288e+001dB,-5.50651848146523e-003°)
1.08392691402120e+000	(7.41058206885573e+001dB,-5.51913845631455e-003°)
1.08642562361706e+000	(7.41058204804351e+001dB,-5.53178701322400e-003°)
1.08893009333343e+000	(7.41058202713579e+001dB,-5.54446421457000e-003°)
1.09144033644876e+000	(7.41058200613213e+001dB,-5.55717012284867e-003°)
1.09395636627209e+000	(7.41058198503210e+001dB,-5.56990480067599e-003°)
1.09647819614318e+000	(7.41058196383525e+001dB,-5.58266831078784e-003°)
1.09900583943252e+000	(7.41058194254115e+001dB,-5.59546071604016e-003°)
1.10153930954141e+000	(7.41058192114934e+001dB,-5.60828207940905e-003°)
1.10407861990207e+000	(7.41058189965940e+001dB,-5.62113246399088e-003°)
1.10662378397766e+000	(7.41058187807086e+001dB,-5.63401193300237e-003°)
1.10917481526240e+000	(7.41058185638328e+001dB,-5.64692054978075e-003°)
1.11173172728159e+000	(7.41058183459620e+001dB,-5.65985837778382e-003°)
1.11429453359173e+000	(7.41058181270918e+001dB,-5.67282548059008e-003°)
1.11686324778056e+000	(7.41058179072176e+001dB,-5.68582192189881e-003°)
1.11943788346715e+000	(7.41058176863347e+001dB,-5.69884776553021e-003°)
1.12201845430196e+000	(7.41058174644387e+001dB,-5.71190307542546e-003°)
1.12460497396692e+000	(7.41058172415248e+001dB,-5.72498791564685e-003°)
1.12719745617551e+000	(7.41058170175885e+001dB,-5.73810235037790e-003°)
1.12979591467280e+000	(7.41058167926251e+001dB,-5.75124644392338e-003°)
1.13240036323556e+000	(7.41058165666298e+001dB,-5.76442026070949e-003°)
1.13501081567231e+000	(7.41058163395981e+001dB,-5.77762386528395e-003°)
1.13762728582343e+000	(7.41058161115251e+001dB,-5.79085732231603e-003°)
1.14024978756117e+000	(7.41058158824062e+001dB,-5.80412069659673e-003°)
1.14287833478977e+000	(7.41058156522365e+001dB,-5.81741405303880e-003°)
1.14551294144553e+000	(7.41058154210114e+001dB,-5.83073745667690e-003°)
1.14815362149688e+000	(7.41058151887258e+001dB,-5.84409097266764e-003°)
1.15080038894443e+000	(7.41058149553752e+001dB,-5.85747466628970e-003°)
1.15345325782109e+000	(7.41058147209545e+001dB,-5.87088860294391e-003°)
1.15611224219210e+000	(7.41058144854589e+001dB,-5.88433284815334e-003°)
1.15877735615512e+000	(7.41058142488836e+001dB,-5.89780746756340e-003°)
1.16144861384034e+000	(7.41058140112235e+001dB,-5.91131252694190e-003°)
1.16412602941049e+000	(7.41058137724738e+001dB,-5.92484809217917e-003°)
1.16680961706096e+000	(7.41058135326295e+001dB,-5.93841422928811e-003°)
1.16949939101987e+000	(7.41058132916857e+001dB,-5.95201100440431e-003°)
1.17219536554813e+000	(7.41058130496372e+001dB,-5.96563848378609e-003°)
1.17489755493953e+000	(7.41058128064791e+001dB,-5.97929673381463e-003°)
1.17760597352080e+000	(7.41058125622064e+001dB,-5.99298582099402e-003°)
1.18032063565173e+000	(7.41058123168139e+001dB,-6.00670581195133e-003°)
1.18304155572516e+000	(7.41058120702965e+001dB,-6.02045677343671e-003°)
1.18576874816716e+000	(7.41058118226492e+001dB,-6.03423877232348e-003°)
1.18850222743702e+000	(7.41058115738668e+001dB,-6.04805187560814e-003°)
1.19124200802737e+000	(7.41058113239441e+001dB,-6.06189615041052e-003°)
1.19398810446427e+000	(7.41058110728760e+001dB,-6.07577166397383e-003°)
1.19674053130724e+000	(7.41058108206572e+001dB,-6.08967848366470e-003°)
1.19949930314938e+000	(7.41058105672824e+001dB,-6.10361667697329e-003°)
1.20226443461741e+000	(7.41058103127465e+001dB,-6.11758631151333e-003°)
1.20503594037179e+000	(7.41058100570442e+001dB,-6.13158745502222e-003°)
1.20781383510678e+000	(7.41058098001701e+001dB,-6.14562017536107e-003°)
1.21059813355048e+000	(7.41058095421189e+001dB,-6.15968454051476e-003°)
1.21338885046497e+000	(7.41058092828853e+001dB,-6.17378061859205e-003°)
1.21618600064636e+000	(7.41058090224638e+001dB,-6.18790847782557e-003°)
1.21898959892486e+000	(7.41058087608492e+001dB,-6.20206818657196e-003°)
1.22179966016487e+000	(7.41058084980358e+001dB,-6.21625981331186e-003°)
1.22461619926504e+000	(7.41058082340184e+001dB,-6.23048342665003e-003°)
1.22743923115840e+000	(7.41058079687914e+001dB,-6.24473909531536e-003°)
1.23026877081238e+000	(7.41058077023494e+001dB,-6.25902688816094e-003°)
1.23310483322890e+000	(7.41058074346867e+001dB,-6.27334687416415e-003°)
1.23594743344451e+000	(7.41058071657979e+001dB,-6.28769912242664e-003°)
1.23879658653036e+000	(7.41058068956774e+001dB,-6.30208370217446e-003°)
1.24165230759241e+000	(7.41058066243195e+001dB,-6.31650068275805e-003°)
1.24451461177138e+000	(7.41058063517187e+001dB,-6.33095013365231e-003°)
1.24738351424294e+000	(7.41058060778693e+001dB,-6.34543212445669e-003°)
1.25025903021771e+000	(7.41058058027657e+001dB,-6.35994672489513e-003°)
1.25314117494141e+000	(7.41058055264021e+001dB,-6.37449400481623e-003°)
1.25602996369487e+000	(7.41058052487728e+001dB,-6.38907403419320e-003°)
1.25892541179416e+000	(7.41058049698720e+001dB,-6.40368688312395e-003°)
1.26182753459066e+000	(7.41058046896940e+001dB,-6.41833262183111e-003°)
1.26473634747115e+000	(7.41058044082330e+001dB,-6.43301132066207e-003°)
1.26765186585784e+000	(7.41058041254832e+001dB,-6.44772305008901e-003°)
1.27057410520854e+000	(7.41058038414387e+001dB,-6.46246788070896e-003°)
1.27350308101666e+000	(7.41058035560935e+001dB,-6.47724588324381e-003°)
1.27643880881134e+000	(7.41058032694419e+001dB,-6.49205712854036e-003°)
1.27938130415752e+000	(7.41058029814779e+001dB,-6.50690168757032e-003°)
1.28233058265602e+000	(7.41058026921955e+001dB,-6.52177963143036e-003°)
1.28528665994361e+000	(7.41058024015887e+001dB,-6.53669103134217e-003°)
1.28824955169313e+000	(7.41058021096515e+001dB,-6.55163595865240e-003°)
1.29121927361353e+000	(7.41058018163779e+001dB,-6.56661448483277e-003°)
1.29419584144998e+000	(7.41058015217618e+001dB,-6.58162668148004e-003°)
1.29717927098395e+000	(7.41058012257972e+001dB,-6.59667262031604e-003°)
1.30016957803328e+000	(7.41058009284778e+001dB,-6.61175237318772e-003°)
1.30316677845229e+000	(7.41058006297976e+001dB,-6.62686601206711e-003°)
1.30617088813183e+000	(7.41058003297504e+001dB,-6.64201360905139e-003°)
1.30918192299940e+000	(7.41058000283299e+001dB,-6.65719523636287e-003°)
1.31219989901920e+000	(7.41057997255300e+001dB,-6.67241096634901e-003°)
1.31522483219223e+000	(7.41057994213443e+001dB,-6.68766087148242e-003°)
1.31825673855640e+000	(7.41057991157667e+001dB,-6.70294502436090e-003°)
1.32129563418657e+000	(7.41057988087907e+001dB,-6.71826349770741e-003°)
1.32434153519466e+000	(7.41057985004101e+001dB,-6.73361636437007e-003°)
1.32739445772973e+000	(7.41057981906184e+001dB,-6.74900369732223e-003°)
1.33045441797808e+000	(7.41057978794094e+001dB,-6.76442556966237e-003°)
1.33352143216332e+000	(7.41057975667764e+001dB,-6.77988205461416e-003°)
1.33659551654643e+000	(7.41057972527131e+001dB,-6.79537322552647e-003°)
1.33967668742593e+000	(7.41057969372131e+001dB,-6.81089915587331e-003°)
1.34276496113786e+000	(7.41057966202697e+001dB,-6.82645991925386e-003°)
1.34586035405594e+000	(7.41057963018765e+001dB,-6.84205558939246e-003°)
1.34896288259164e+000	(7.41057959820268e+001dB,-6.85768624013857e-003°)
1.35207256319427e+000	(7.41057956607141e+001dB,-6.87335194546681e-003°)
1.35518941235103e+000	(7.41057953379318e+001dB,-6.88905277947690e-003°)
1.35831344658715e+000	(7.41057950136731e+001dB,-6.90478881639363e-003°)
1.36144468246594e+000	(7.41057946879314e+001dB,-6.92056013056689e-003°)
1.36458313658892e+000	(7.41057943607000e+001dB,-6.93636679647160e-003°)
1.36772882559584e+000	(7.41057940319722e+001dB,-6.95220888870776e-003°)
1.37088176616484e+000	(7.41057937017410e+001dB,-6.96808648200032e-003°)
1.37404197501251e+000	(7.41057933699998e+001dB,-6.98399965119922e-003°)
1.37720946889394e+000	(7.41057930367417e+001dB,-6.99994847127935e-003°)
1.38038426460288e+000	(7.41057927019598e+001dB,-7.01593301734052e-003°)
1.38356637897177e+000	(7.41057923656472e+001dB,-7.03195336460740e-003°)
1.38675582887188e+000	(7.41057920277970e+001dB,-7.04800958842953e-003°)
1.38995263121334e+000	(7.41057916884023e+001dB,-7.06410176428123e-003°)
1.39315680294529e+000	(7.41057913474560e+001dB,-7.08022996776158e-003°)
1.39636836105593e+000	(7.41057910049511e+001dB,-7.09639427459439e-003°)
1.39958732257261e+000	(7.41057906608806e+001dB,-7.11259476062814e-003°)
1.40281370456195e+000	(7.41057903152373e+001dB,-7.12883150183593e-003°)
1.40604752412990e+000	(7.41057899680142e+001dB,-7.14510457431543e-003°)
1.40928879842186e+000	(7.41057896192041e+001dB,-7.16141405428885e-003°)
1.41253754462274e+000	(7.41057892687998e+001dB,-7.17776001810286e-003°)
1.41579377995707e+000	(7.41057889167941e+001dB,-7.19414254222853e-003°)
1.41905752168908e+000	(7.41057885631798e+001dB,-7.21056170326127e-003°)
1.42232878712281e+000	(7.41057882079496e+001dB,-7.22701757792080e-003°)
1.42560759360218e+000	(7.41057878510962e+001dB,-7.24351024305106e-003°)
1.42889395851109e+000	(7.41057874926122e+001dB,-7.26003977562015e-003°)
1.43218789927353e+000	(7.41057871324903e+001dB,-7.27660625272021e-003°)
1.43548943335364e+000	(7.41057867707230e+001dB,-7.29320975156746e-003°)
1.43879857825583e+000	(7.41057864073030e+001dB,-7.30985034950202e-003°)
1.44211535152486e+000	(7.41057860422227e+001dB,-7.32652812398788e-003°)
1.44543977074592e+000	(7.41057856754746e+001dB,-7.34324315261281e-003°)
1.44877185354475e+000	(7.41057853070513e+001dB,-7.35999551308829e-003°)
1.45211161758773e+000	(7.41057849369450e+001dB,-7.37678528324941e-003°)
1.45545908058195e+000	(7.41057845651484e+001dB,-7.39361254105477e-003°)
1.45881426027534e+000	(7.41057841916536e+001dB,-7.41047736458645e-003°)
1.46217717445671e+000	(7.41057838164530e+001dB,-7.42737983204984e-003°)
1.46554784095590e+000	(7.41057834395389e+001dB,-7.44432002177358e-003°)
1.46892627764385e+000	(7.41057830609036e+001dB,-7.46129801220951e-003°)
1.47231250243271e+000	(7.41057826805393e+001dB,-7.47831388193243e-003°)
1.47570653327588e+000	(7.41057822984381e+001dB,-7.49536770964017e-003°)
1.47910838816819e+000	(7.41057819145924e+001dB,-7.51245957415336e-003°)
1.48251808514594e+000	(7.41057815289940e+001dB,-7.52958955441538e-003°)
1.48593564228699e+000	(7.41057811416352e+001dB,-7.54675772949223e-003°)
1.48936107771090e+000	(7.41057807525081e+001dB,-7.56396417857238e-003°)
1.49279440957898e+000	(7.41057803616045e+001dB,-7.58120898096673e-003°)
1.49623565609442e+000	(7.41057799689166e+001dB,-7.59849221610843e-003°)
1.49968483550236e+000	(7.41057795744362e+001dB,-7.61581396355277e-003°)
1.50314196609001e+000	(7.41057791781552e+001dB,-7.63317430297706e-003°)
1.50660706618673e+000	(7.41057787800656e+001dB,-7.65057331418049e-003°)
1.51008015416413e+000	(7.41057783801591e+001dB,-7.66801107708401e-003°)
1.51356124843619e+000	(7.41057779784277e+001dB,-7.68548767173019e-003°)
1.51705036745932e+000	(7.41057775748630e+001dB,-7.70300317828309e-003°)
1.52054752973248e+000	(7.41057771694567e+001dB,-7.72055767702809e-003°)
1.52405275379728e+000	(7.41057767622006e+001dB,-7.73815124837179e-003°)
1.52756605823806e+000	(7.41057763530864e+001dB,-7.75578397284180e-003°)
1.53108746168202e+000	(7.41057759421056e+001dB,-7.77345593108666e-003°)
1.53461698279928e+000	(7.41057755292498e+001dB,-7.79116720387565e-003°)
1.53815464030302e+000	(7.41057751145106e+001dB,-7.80891787209861e-003°)
1.54170045294954e+000	(7.41057746978795e+001dB,-7.82670801676584e-003°)
1.54525443953840e+000	(7.41057742793480e+001dB,-7.84453771900787e-003°)
1.54881661891247e+000	(7.41057738589075e+001dB,-7.86240706007536e-003°)
1.55238700995807e+000	(7.41057734365493e+001dB,-7.88031612133886e-003°)
1.55596563160506e+000	(7.41057730122650e+001dB,-7.89826498428869e-003°)
1.55955250282694e+000	(7.41057725860457e+001dB,-7.91625373053476e-003°)
1.56314764264094e+000	(7.41057721578828e+001dB,-7.93428244180633e-003°)
1.56675107010813e+000	(7.41057717277674e+001dB,-7.95235119995193e-003°)
1.57036280433354e+000	(7.41057712956909e+001dB,-7.97046008693907e-003°)
1.57398286446620e+000	(7.41057708616445e+001dB,-7.98860918485413e-003°)
1.57761126969933e+000	(7.41057704256191e+001dB,-8.00679857590210e-003°)
1.58124803927037e+000	(7.41057699876059e+001dB,-8.02502834240644e-003°)
1.58489319246110e+000	(7.41057695475960e+001dB,-8.04329856680883e-003°)
1.58854674859776e+000	(7.41057691055803e+001dB,-8.06160933166903e-003°)
1.59220872705115e+000	(7.41057686615500e+001dB,-8.07996071966459e-003°)
1.59587914723672e+000	(7.41057682154957e+001dB,-8.09835281359070e-003°)
1.59955802861465e+000	(7.41057677674086e+001dB,-8.11678569635996e-003°)
1.60324539069002e+000	(7.41057673172794e+001dB,-8.13525945100216e-003°)
1.60694125301286e+000	(7.41057668650990e+001dB,-8.15377416066404e-003°)
1.61064563517825e+000	(7.41057664108581e+001dB,-8.17232990860910e-003°)
1.61435855682647e+000	(7.41057659545474e+001dB,-8.19092677821734e-003°)
1.61808003764305e+000	(7.41057654961576e+001dB,-8.20956485298503e-003°)
1.62181009735891e+000	(7.41057650356795e+001dB,-8.22824421652450e-003°)
1.62554875575047e+000	(7.41057645731036e+001dB,-8.24696495256387e-003°)
1.62929603263970e+000	(7.41057641084205e+001dB,-8.26572714494681e-003°)
1.63305194789432e+000	(7.41057636416206e+001dB,-8.28453087763229e-003°)
1.63681652142779e+000	(7.41057631726946e+001dB,-8.30337623469436e-003°)
1.64058977319952e+000	(7.41057627016328e+001dB,-8.32226330032185e-003°)
1.64437172321491e+000	(7.41057622284257e+001dB,-8.34119215881812e-003°)
1.64816239152549e+000	(7.41057617530636e+001dB,-8.36016289460080e-003°)
1.65196179822900e+000	(7.41057612755368e+001dB,-8.37917559220156e-003°)
1.65576996346951e+000	(7.41057607958357e+001dB,-8.39823033626576e-003°)
1.65958690743754e+000	(7.41057603139503e+001dB,-8.41732721155223e-003°)
1.66341265037015e+000	(7.41057598298711e+001dB,-8.43646630293301e-003°)
1.66724721255104e+000	(7.41057593435880e+001dB,-8.45564769539295e-003°)
1.67109061431069e+000	(7.41057588550912e+001dB,-8.47487147402956e-003°)
1.67494287602642e+000	(7.41057583643708e+001dB,-8.49413772405267e-003°)
1.67880401812254e+000	(7.41057578714168e+001dB,-8.51344653078408e-003°)
1.68267406107045e+000	(7.41057573762191e+001dB,-8.53279797965731e-003°)
1.68655302538872e+000	(7.41057568787678e+001dB,-8.55219215621731e-003°)
1.69044093164324e+000	(7.41057563790526e+001dB,-8.57162914612009e-003°)
1.69433780044731e+000	(7.41057558770635e+001dB,-8.59110903513247e-003°)
1.69824365246172e+000	(7.41057553727902e+001dB,-8.61063190913169e-003°)
1.70215850839493e+000	(7.41057548662226e+001dB,-8.63019785410516e-003°)
1.70608238900310e+000	(7.41057543573502e+001dB,-8.64980695615008e-003°)
1.71001531509027e+000	(7.41057538461628e+001dB,-8.66945930147315e-003°)
1.71395730750840e+000	(7.41057533326500e+001dB,-8.68915497639020e-003°)
1.71790838715757e+000	(7.41057528168014e+001dB,-8.70889406732583e-003°)
1.72186857498599e+000	(7.41057522986065e+001dB,-8.72867666081314e-003°)
1.72583789199018e+000	(7.41057517780549e+001dB,-8.74850284349330e-003°)
1.72981635921508e+000	(7.41057512551358e+001dB,-8.76837270211524e-003°)
1.73380399775412e+000	(7.41057507298389e+001dB,-8.78828632353528e-003°)
1.73780082874935e+000	(7.41057502021533e+001dB,-8.80824379471675e-003°)
1.74180687339159e+000	(7.41057496720684e+001dB,-8.82824520272963e-003°)
1.74582215292048e+000	(7.41057491395735e+001dB,-8.84829063475022e-003°)
1.74984668862464e+000	(7.41057486046577e+001dB,-8.86838017806066e-003°)
1.75388050184174e+000	(7.41057480673103e+001dB,-8.88851392004868e-003°)
1.75792361395867e+000	(7.41057475275204e+001dB,-8.90869194820706e-003°)
1.76197604641161e+000	(7.41057469852769e+001dB,-8.92891435013339e-003°)
1.76603782068614e+000	(7.41057464405690e+001dB,-8.94918121352952e-003°)
1.77010895831740e+000	(7.41057458933857e+001dB,-8.96949262620129e-003°)
1.77418948089014e+000	(7.41057453437158e+001dB,-8.98984867605806e-003°)
1.77827941003890e+000	(7.41057447915482e+001dB,-9.01024945111228e-003°)
1.78237876744807e+000	(7.41057442368718e+001dB,-9.03069503947910e-003°)
1.78648757485203e+000	(7.41057436796753e+001dB,-9.05118552937595e-003°)
1.79060585403527e+000	(7.41057431199475e+001dB,-9.07172100912208e-003°)
1.79473362683250e+000	(7.41057425576771e+001dB,-9.09230156713816e-003°)
1.79887091512876e+000	(7.41057419928527e+001dB,-9.11292729194582e-003°)
1.80301774085955e+000	(7.41057414254629e+001dB,-9.13359827216723e-003°)
1.80717412601090e+000	(7.41057408554963e+001dB,-9.15431459652459e-003°)
1.81134009261958e+000	(7.41057402829412e+001dB,-9.17507635383976e-003°)
1.81551566277311e+000	(7.41057397077863e+001dB,-9.19588363303373e-003°)
1.81970085860996e+000	(7.41057391300198e+001dB,-9.21673652312619e-003°)
1.82389570231961e+000	(7.41057385496301e+001dB,-9.23763511323505e-003°)
1.82810021614272e+000	(7.41057379666055e+001dB,-9.25857949257595e-003°)
1.83231442237119e+000	(7.41057373809343e+001dB,-9.27956975046178e-003°)
1.83653834334832e+000	(7.41057367926045e+001dB,-9.30060597630224e-003°)
1.84077200146893e+000	(7.41057362016045e+001dB,-9.32168825960325e-003°)
1.84501541917945e+000	(7.41057356079222e+001dB,-9.34281668996655e-003°)
1.84926861897805e+000	(7.41057350115456e+001dB,-9.36399135708914e-003°)
1.85353162341479e+000	(7.41057344124629e+001dB,-9.38521235076276e-003°)
1.85780445509167e+000	(7.41057338106618e+001dB,-9.40647976087341e-003°)
1.86208713666284e+000	(7.41057332061304e+001dB,-9.42779367740081e-003°)
1.86637969083464e+000	(7.41057325988563e+001dB,-9.44915419041786e-003°)
1.87068214036577e+000	(7.41057319888275e+001dB,-9.47056139009013e-003°)
1.87499450806739e+000	(7.41057313760315e+001dB,-9.49201536667532e-003°)
1.87931681680324e+000	(7.41057307604562e+001dB,-9.51351621052266e-003°)
1.88364908948977e+000	(7.41057301420891e+001dB,-9.53506401207243e-003°)
1.88799134909627e+000	(7.41057295209177e+001dB,-9.55665886185535e-003°)
