Freq.	V(n002)/-I(R1)
1.00000000000000e+000	(5073.309648181991dB,-0.00509400814236467°)
1.00230523807790e+000	(5073.309544626522dB,-0.00510569259418225°)
1.00461579027840e+000	(5073.309440595486dB,-0.00511740357763955°)
1.00693166885180e+000	(5073.309336086616dB,-0.00512914115111491°)
1.00925288607668e+000	(5073.309231097863dB,-0.00514090537310209°)
1.01157945425990e+000	(5073.309125626886dB,-0.00515269630221044°)
1.01391138573668e+000	(5073.309019671579dB,-0.00516451399716507°)
1.01624869287070e+000	(5073.30891322975dB,-0.00517635851680694°)
1.01859138805412e+000	(5073.308806299083dB,-0.00518822992009303°)
1.02093948370768e+000	(5073.308698877388dB,-0.00520012826609642°)
1.02329299228075e+000	(5073.308590962438dB,-0.00521205361400649°)
1.02565192625141e+000	(5073.308482551999dB,-0.00522400602312901°)
1.02801629812647e+000	(5073.3083736437475dB,-0.00523598555288629°)
1.03038612044162e+000	(5073.308264235465dB,-0.00524799226281728°)
1.03276140576140e+000	(5073.308154324809dB,-0.00526002621257773°)
1.03514216667934e+000	(5073.308043909567dB,-0.00527208746194034°)
1.03752841581801e+000	(5073.307932987345dB,-0.00528417607079482°)
1.03992016582906e+000	(5073.30782155591dB,-0.00529629209914809°)
1.04231742939330e+000	(5073.307709612884dB,-0.00530843560712436°)
1.04472021922080e+000	(5073.307597155979dB,-0.00532060665496529°)
1.04712854805090e+000	(5073.307484182738dB,-0.00533280530303009°)
1.04954242865232e+000	(5073.307370690955dB,-0.00534503161179567°)
1.05196187382322e+000	(5073.307256678114dB,-0.00535728564185674°)
1.05438689639126e+000	(5073.307142141984dB,-0.00536956745392595°)
1.05681750921366e+000	(5073.307027080065dB,-0.00538187710883401°)
1.05925372517729e+000	(5073.306911489966dB,-0.00539421466752981°)
1.06169555719872e+000	(5073.306795369336dB,-0.00540658019108057°)
1.06414301822431e+000	(5073.306678715732dB,-0.0054189737406719°)
1.06659612123026e+000	(5073.306561526706dB,-0.00543139537760798°)
1.06905487922266e+000	(5073.30644379985dB,-0.00544384516331166°)
1.07151930523761e+000	(5073.306325532664dB,-0.00545632315932456°)
1.07398941234124e+000	(5073.306206722684dB,-0.00546882942730722°)
1.07646521362983e+000	(5073.306087367456dB,-0.00548136402903922°)
1.07894672222983e+000	(5073.305967464496dB,-0.00549392702641923°)
1.08143395129794e+000	(5073.305847011249dB,-0.00550651848146523°)
1.08392691402120e+000	(5073.305726005296dB,-0.00551913845631455°)
1.08642562361706e+000	(5073.305604444056dB,-0.005531787013224°)
1.08893009333343e+000	(5073.305482325015dB,-0.00554446421457°)
1.09144033644876e+000	(5073.305359645598dB,-0.00555717012284867°)
1.09395636627209e+000	(5073.305236403311dB,-0.00556990480067599°)
1.09647819614318e+000	(5073.3051125955135dB,-0.00558266831078784°)
1.09900583943252e+000	(5073.304988219689dB,-0.00559546071604016°)
1.10153930954141e+000	(5073.304863273161dB,-0.00560828207940905°)
1.10407861990207e+000	(5073.304737753475dB,-0.00562113246399088°)
1.10662378397766e+000	(5073.304611657883dB,-0.00563401193300237°)
1.10917481526240e+000	(5073.30448498381dB,-0.00564692054978075°)
1.11173172728159e+000	(5073.304357728585dB,-0.00565985837778382°)
1.11429453359173e+000	(5073.304229889616dB,-0.00567282548059008°)
1.11686324778056e+000	(5073.304101464235dB,-0.00568582192189881°)
1.11943788346715e+000	(5073.303972449692dB,-0.00569884776553021°)
1.12201845430196e+000	(5073.30384284341dB,-0.00571190307542546°)
1.12460497396692e+000	(5073.303712642597dB,-0.00572498791564685°)
1.12719745617551e+000	(5073.303581844613dB,-0.0057381023503779°)
1.12979591467280e+000	(5073.3034504467205dB,-0.00575124644392338°)
1.13240036323556e+000	(5073.303318446105dB,-0.00576442026070949°)
1.13501081567231e+000	(5073.303185840158dB,-0.00577762386528395°)
1.13762728582343e+000	(5073.303052626001dB,-0.00579085732231603°)
1.14024978756117e+000	(5073.302918800952dB,-0.00580412069659673°)
1.14287833478977e+000	(5073.302784362147dB,-0.0058174140530388°)
1.14551294144553e+000	(5073.302649306904dB,-0.0058307374566769°)
1.14815362149688e+000	(5073.302513632246dB,-0.00584409097266764°)
1.15080038894443e+000	(5073.302377335531dB,-0.0058574746662897°)
1.15345325782109e+000	(5073.302240413798dB,-0.00587088860294391°)
1.15611224219210e+000	(5073.302102864231dB,-0.00588433284815334°)
1.15877735615512e+000	(5073.301964684042dB,-0.0058978074675634°)
1.16144861384034e+000	(5073.301825870229dB,-0.0059113125269419°)
1.16412602941049e+000	(5073.301686420001dB,-0.00592484809217917°)
1.16680961706096e+000	(5073.301546330441dB,-0.00593841422928811°)
1.16949939101987e+000	(5073.301405598682dB,-0.00595201100440431°)
1.17219536554813e+000	(5073.301264221689dB,-0.00596563848378609°)
1.17489755493953e+000	(5073.301122196587dB,-0.00597929673381463°)
1.17760597352080e+000	(5073.3009795204825dB,-0.00599298582099402°)
1.18032063565173e+000	(5073.300836190314dB,-0.00600670581195133°)
1.18304155572516e+000	(5073.3006922031145dB,-0.00602045677343671°)
1.18576874816716e+000	(5073.3005475559685dB,-0.00603423877232348°)
1.18850222743702e+000	(5073.300402245825dB,-0.00604805187560814°)
1.19124200802737e+000	(5073.300256269651dB,-0.00606189615041052°)
1.19398810446427e+000	(5073.3001096244725dB,-0.00607577166397383°)
1.19674053130724e+000	(5073.299962307193dB,-0.0060896784836647°)
1.19949930314938e+000	(5073.299814314715dB,-0.00610361667697329°)
1.20226443461741e+000	(5073.299665644057dB,-0.00611758631151333°)
1.20503594037179e+000	(5073.299516292125dB,-0.00613158745502222°)
1.20781383510678e+000	(5073.299366255777dB,-0.00614562017536107°)
1.21059813355048e+000	(5073.299215531895dB,-0.00615968454051476°)
1.21338885046497e+000	(5073.299064117398dB,-0.00617378061859205°)
1.21618600064636e+000	(5073.298912009073dB,-0.00618790847782557°)
1.21898959892486e+000	(5073.298759203876dB,-0.00620206818657196°)
1.22179966016487e+000	(5073.298605698488dB,-0.00621625981331186°)
1.22461619926504e+000	(5073.298451489863dB,-0.00623048342665003°)
1.22743923115840e+000	(5073.298296574736dB,-0.00624473909531536°)
1.23026877081238e+000	(5073.298140949946dB,-0.00625902688816094°)
1.23310483322890e+000	(5073.297984612171dB,-0.00627334687416415°)
1.23594743344451e+000	(5073.297827558256dB,-0.00628769912242664°)
1.23879658653036e+000	(5073.297669784931dB,-0.00630208370217446°)
1.24165230759241e+000	(5073.297511288856dB,-0.00631650068275805°)
1.24451461177138e+000	(5073.297352066834dB,-0.00633095013365231°)
1.24738351424294e+000	(5073.297192115528dB,-0.00634543212445669°)
1.25025903021771e+000	(5073.2970314316635dB,-0.00635994672489513°)
1.25314117494141e+000	(5073.2968700118545dB,-0.00637449400481623°)
1.25602996369487e+000	(5073.29670785278dB,-0.0063890740341932°)
1.25892541179416e+000	(5073.296544951043dB,-0.00640368688312395°)
1.26182753459066e+000	(5073.296381303323dB,-0.00641833262183111°)
1.26473634747115e+000	(5073.296216906227dB,-0.00643301132066207°)
1.26765186585784e+000	(5073.296051756367dB,-0.00644772305008901°)
1.27057410520854e+000	(5073.295885850295dB,-0.00646246788070896°)
1.27350308101666e+000	(5073.2957191845135dB,-0.00647724588324381°)
1.27643880881134e+000	(5073.295551755687dB,-0.00649205712854036°)
1.27938130415752e+000	(5073.2953835603075dB,-0.00650690168757032°)
1.28233058265602e+000	(5073.29521459488dB,-0.00652177963143036°)
1.28528665994361e+000	(5073.295044855903dB,-0.00653669103134217°)
1.28824955169313e+000	(5073.294874339865dB,-0.0065516359586524°)
1.29121927361353e+000	(5073.294703043256dB,-0.00656661448483277°)
1.29419584144998e+000	(5073.294530962521dB,-0.00658162668148004°)
1.29717927098395e+000	(5073.294358094146dB,-0.00659667262031604°)
1.30016957803328e+000	(5073.294184434474dB,-0.00661175237318772°)
1.30316677845229e+000	(5073.294009979973dB,-0.00662686601206711°)
1.30617088813183e+000	(5073.293834727037dB,-0.00664201360905139°)
1.30918192299940e+000	(5073.293658671989dB,-0.00665719523636287°)
1.31219989901920e+000	(5073.293481811263dB,-0.00667241096634901°)
1.31522483219223e+000	(5073.293304141115dB,-0.00668766087148242°)
1.31825673855640e+000	(5073.293125657986dB,-0.0067029450243609°)
1.32129563418657e+000	(5073.292946358074dB,-0.00671826349770741°)
1.32434153519466e+000	(5073.292766237773dB,-0.00673361636437007°)
1.32739445772973e+000	(5073.29258529327dB,-0.00674900369732223°)
1.33045441797808e+000	(5073.292403520951dB,-0.00676442556966237°)
1.33352143216332e+000	(5073.292220916907dB,-0.00677988205461416°)
1.33659551654643e+000	(5073.292037477451dB,-0.00679537322552647°)
1.33967668742593e+000	(5073.291853198849dB,-0.00681089915587331°)
1.34276496113786e+000	(5073.291668077188dB,-0.00682645991925386°)
1.34586035405594e+000	(5073.291482108722dB,-0.00684205558939246°)
1.34896288259164e+000	(5073.291295289552dB,-0.00685768624013857°)
1.35207256319427e+000	(5073.291107615863dB,-0.00687335194546681°)
1.35518941235103e+000	(5073.290919083819dB,-0.0068890527794769°)
1.35831344658715e+000	(5073.290729689444dB,-0.00690478881639363°)
1.36144468246594e+000	(5073.290539428868dB,-0.00692056013056689°)
1.36458313658892e+000	(5073.2903482981965dB,-0.0069363667964716°)
1.36772882559584e+000	(5073.290156293507dB,-0.00695220888870776°)
1.37088176616484e+000	(5073.289963410716dB,-0.00696808648200032°)
1.37404197501251e+000	(5073.2897696459595dB,-0.00698399965119922°)
1.37720946889394e+000	(5073.289574995219dB,-0.00699994847127935°)
1.38038426460288e+000	(5073.28937945445dB,-0.00701593301734052°)
1.38356637897177e+000	(5073.2891830196395dB,-0.0070319533646074°)
1.38675582887188e+000	(5073.2889856867405dB,-0.00704800958842953°)
1.38995263121334e+000	(5073.288787451748dB,-0.00706410176428123°)
1.39315680294529e+000	(5073.288588310486dB,-0.00708022996776158°)
1.39636836105593e+000	(5073.2883882588785dB,-0.00709639427459439°)
1.39958732257261e+000	(5073.2881872928365dB,-0.00711259476062814°)
1.40281370456195e+000	(5073.2879854081575dB,-0.00712883150183593°)
1.40604752412990e+000	(5073.287782600749dB,-0.00714510457431543°)
1.40928879842186e+000	(5073.287578866415dB,-0.00716141405428885°)
1.41253754462274e+000	(5073.287374200937dB,-0.00717776001810286°)
1.41579377995707e+000	(5073.287168600114dB,-0.00719414254222853°)
1.41905752168908e+000	(5073.2869620597485dB,-0.00721056170326127°)
1.42232878712281e+000	(5073.286754575566dB,-0.0072270175779208°)
1.42560759360218e+000	(5073.286546143303dB,-0.00724351024305106°)
1.42889395851109e+000	(5073.286336758648dB,-0.00726003977562015°)
1.43218789927353e+000	(5073.286126417336dB,-0.00727660625272021°)
1.43548943335364e+000	(5073.2859151149705dB,-0.00729320975156746°)
1.43879857825583e+000	(5073.285702847305dB,-0.00730985034950202°)
1.44211535152486e+000	(5073.285489609896dB,-0.00732652812398788°)
1.44543977074592e+000	(5073.28527539836dB,-0.00734324315261281°)
1.44877185354475e+000	(5073.285060208374dB,-0.00735999551308829°)
1.45211161758773e+000	(5073.284844035379dB,-0.00737678528324941°)
1.45545908058195e+000	(5073.284626875122dB,-0.00739361254105477°)
1.45881426027534e+000	(5073.284408722985dB,-0.00741047736458645°)
1.46217717445671e+000	(5073.284189574529dB,-0.00742737983204984°)
1.46554784095590e+000	(5073.283969425254dB,-0.00744432002177358°)
1.46892627764385e+000	(5073.283748270669dB,-0.00746129801220951°)
1.47231250243271e+000	(5073.283526106209dB,-0.00747831388193243°)
1.47570653327588e+000	(5073.283302927262dB,-0.00749536770964017°)
1.47910838816819e+000	(5073.283078729394dB,-0.00751245957415336°)
1.48251808514594e+000	(5073.282853507814dB,-0.00752958955441538°)
1.48593564228699e+000	(5073.282627258027dB,-0.00754675772949223°)
1.48936107771090e+000	(5073.282399975405dB,-0.00756396417857238°)
1.49279440957898e+000	(5073.282171655179dB,-0.00758120898096673°)
1.49623565609442e+000	(5073.281942292776dB,-0.00759849221610843°)
1.49968483550236e+000	(5073.281711883422dB,-0.00761581396355277°)
1.50314196609001e+000	(5073.281480422382dB,-0.00763317430297706°)
1.50660706618673e+000	(5073.281247904974dB,-0.00765057331418049°)
1.51008015416413e+000	(5073.281014326347dB,-0.00766801107708401°)
1.51356124843619e+000	(5073.280779681849dB,-0.00768548767173019°)
1.51705036745932e+000	(5073.280543966559dB,-0.00770300317828309°)
1.52054752973248e+000	(5073.280307175636dB,-0.00772055767702809°)
1.52405275379728e+000	(5073.280069304287dB,-0.00773815124837179°)
1.52756605823806e+000	(5073.2798303476575dB,-0.0077557839728418°)
1.53108746168202e+000	(5073.279590300798dB,-0.00777345593108666°)
1.53461698279928e+000	(5073.27934915879dB,-0.00779116720387565°)
1.53815464030302e+000	(5073.2791069167415dB,-0.00780891787209861°)
1.54170045294954e+000	(5073.278863569663dB,-0.00782670801676584°)
1.54525443953840e+000	(5073.2786191126115dB,-0.00784453771900787°)
1.54881661891247e+000	(5073.278373540559dB,-0.00786240706007536°)
1.55238700995807e+000	(5073.278126848427dB,-0.00788031612133886°)
1.55596563160506e+000	(5073.277879031303dB,-0.00789826498428869°)
1.55955250282694e+000	(5073.27763008399dB,-0.00791625373053476°)
1.56314764264094e+000	(5073.277380001459dB,-0.00793428244180633°)
1.56675107010813e+000	(5073.27712877853dB,-0.00795235119995193°)
1.57036280433354e+000	(5073.27687641016dB,-0.00797046008693907°)
1.57398286446620e+000	(5073.276622891223dB,-0.00798860918485413°)
1.57761126969933e+000	(5073.276368216399dB,-0.0080067985759021°)
1.58124803927037e+000	(5073.2761123805485dB,-0.00802502834240644°)
1.58489319246110e+000	(5073.275855378477dB,-0.00804329856680883°)
1.58854674859776e+000	(5073.27559720486dB,-0.00806160933166903°)
1.59220872705115e+000	(5073.275337854568dB,-0.00807996071966459°)
1.59587914723672e+000	(5073.275077322108dB,-0.0080983528135907°)
1.59955802861465e+000	(5073.274815602327dB,-0.00811678569635996°)
1.60324539069002e+000	(5073.274552689821dB,-0.00813525945100216°)
1.60694125301286e+000	(5073.274288579252dB,-0.00815377416066404°)
1.61064563517825e+000	(5073.274023265189dB,-0.0081723299086091°)
1.61435855682647e+000	(5073.273756742214dB,-0.00819092677821734°)
1.61808003764305e+000	(5073.273489004888dB,-0.00820956485298503°)
1.62181009735891e+000	(5073.273220047835dB,-0.0082282442165245°)
1.62554875575047e+000	(5073.272949865511dB,-0.00824696495256387°)
1.62929603263970e+000	(5073.272678452421dB,-0.00826572714494681°)
1.63305194789432e+000	(5073.272405802959dB,-0.00828453087763229°)
1.63681652142779e+000	(5073.272131911697dB,-0.00830337623469436°)
1.64058977319952e+000	(5073.271856772971dB,-0.00832226330032185°)
1.64437172321491e+000	(5073.271580381225dB,-0.00834119215881812°)
1.64816239152549e+000	(5073.271302730801dB,-0.0083601628946008°)
1.65196179822900e+000	(5073.271023816027dB,-0.00837917559220156°)
1.65576996346951e+000	(5073.270743631301dB,-0.00839823033626576°)
1.65958690743754e+000	(5073.270462170772dB,-0.00841732721155223°)
1.66341265037015e+000	(5073.27017942891dB,-0.00843646630293301°)
1.66724721255104e+000	(5073.269895399806dB,-0.00845564769539295°)
1.67109061431069e+000	(5073.269610077728dB,-0.00847487147402956°)
1.67494287602642e+000	(5073.269323456909dB,-0.00849413772405267°)
1.67880401812254e+000	(5073.269035531494dB,-0.00851344653078408°)
1.68267406107045e+000	(5073.268746295599dB,-0.00853279797965731°)
1.68655302538872e+000	(5073.268455743439dB,-0.00855219215621731°)
1.69044093164324e+000	(5073.268163868973dB,-0.00857162914612009°)
1.69433780044731e+000	(5073.267870666399dB,-0.00859110903513247°)
1.69824365246172e+000	(5073.267576129679dB,-0.00861063190913169°)
1.70215850839493e+000	(5073.267280252913dB,-0.00863019785410516°)
1.70608238900310e+000	(5073.266983029976dB,-0.00864980695615008°)
1.71001531509027e+000	(5073.266684454912dB,-0.00866945930147315°)
1.71395730750840e+000	(5073.266384521636dB,-0.0086891549763902°)
1.71790838715757e+000	(5073.26608322409dB,-0.00870889406732583°)
1.72186857498599e+000	(5073.265780556126dB,-0.00872867666081314°)
1.72583789199018e+000	(5073.265476511669dB,-0.0087485028434933°)
1.72981635921508e+000	(5073.2651710844275dB,-0.00876837270211524°)
1.73380399775412e+000	(5073.264864268379dB,-0.00878828632353528°)
1.73780082874935e+000	(5073.264556057147dB,-0.00880824379471675°)
1.74180687339159e+000	(5073.264246444544dB,-0.00882824520272963°)
1.74582215292048e+000	(5073.263935424335dB,-0.00884829063475022°)
1.74984668862464e+000	(5073.263622990137dB,-0.00886838017806066°)
1.75388050184174e+000	(5073.2633091357075dB,-0.00888851392004868°)
1.75792361395867e+000	(5073.262993854684dB,-0.00890869194820706°)
1.76197604641161e+000	(5073.262677140568dB,-0.00892891435013339°)
1.76603782068614e+000	(5073.262358987077dB,-0.00894918121352952°)
1.77010895831740e+000	(5073.262039387763dB,-0.00896949262620129°)
1.77418948089014e+000	(5073.261718336091dB,-0.00898984867605806°)
1.77827941003890e+000	(5073.26139582559dB,-0.00901024945111228°)
1.78237876744807e+000	(5073.261071849762dB,-0.0090306950394791°)
1.78648757485203e+000	(5073.260746402012dB,-0.00905118552937595°)
1.79060585403527e+000	(5073.260419475806dB,-0.00907172100912208°)
1.79473362683250e+000	(5073.260091064533dB,-0.00909230156713816°)
1.79887091512876e+000	(5073.259761161534dB,-0.00911292729194582°)
1.80301774085955e+000	(5073.259429760163dB,-0.00913359827216723°)
1.80717412601090e+000	(5073.25909685375dB,-0.00915431459652459°)
1.81134009261958e+000	(5073.258762435471dB,-0.00917507635383976°)
1.81551566277311e+000	(5073.258426498725dB,-0.00919588363303373°)
1.81970085860996e+000	(5073.258089036612dB,-0.00921673652312619°)
1.82389570231961e+000	(5073.257750042361dB,-0.00923763511323505°)
1.82810021614272e+000	(5073.257409509142dB,-0.00925857949257595°)
1.83231442237119e+000	(5073.257067430118dB,-0.00927956975046178°)
1.83653834334832e+000	(5073.2567237982785dB,-0.00930060597630224°)
1.84077200146893e+000	(5073.256378606857dB,-0.00932168825960325°)
1.84501541917945e+000	(5073.256031848775dB,-0.00934281668996655°)
1.84926861897805e+000	(5073.255683517035dB,-0.00936399135708914°)
1.85353162341479e+000	(5073.25533360473dB,-0.00938521235076276°)
1.85780445509167e+000	(5073.254982104699dB,-0.00940647976087341°)
1.86208713666284e+000	(5073.254629009965dB,-0.00942779367740081°)
1.86637969083464e+000	(5073.254274313313dB,-0.00944915419041786°)
1.87068214036577e+000	(5073.253918007708dB,-0.00947056139009013°)
1.87499450806739e+000	(5073.253560085868dB,-0.00949201536667532°)
1.87931681680324e+000	(5073.253200540723dB,-0.00951351621052266°)
1.88364908948977e+000	(5073.252839364966dB,-0.00953506401207243°)
1.88799134909627e+000	(5073.252476551307dB,-0.00955665886185535°)
1.89234361864495e+000	(5073.252112092544dB,-0.00957830085049207°)
1.89670592121112e+000	(5073.25174598127dB,-0.00959999006869251°)
1.90107827992327e+000	(5073.251378210191dB,-0.0096217266072554°)
1.90546071796322e+000	(5073.251008771833dB,-0.00964351055706757°)
1.90985325856621e+000	(5073.250637658874dB,-0.00966534200910347°)
1.91425592502106e+000	(5073.250264863801dB,-0.00968722105442452°)
1.91866874067026e+000	(5073.249890379183dB,-0.00970914778417851°)
1.92309172891013e+000	(5073.249514197494dB,-0.009731122289599°)
1.92752491319091e+000	(5073.249136311082dB,-0.00975314466200469°)
1.93196831701690e+000	(5073.24875671252dB,-0.00977521499279884°)
1.93642196394658e+000	(5073.248375394171dB,-0.0097973333734686°)
1.94088587759275e+000	(5073.247992348264dB,-0.00981949989558439°)
1.94536008162263e+000	(5073.247607567258dB,-0.00984171465079925°)
1.94984459975802e+000	(5073.247221043443dB,-0.0098639777308482°)
1.95433945577537e+000	(5073.24683276895dB,-0.0098862892275476°)
1.95884467350596e+000	(5073.24644273617dB,-0.00990864923279447°)
1.96336027683602e+000	(5073.24605093716dB,-0.00993105783856581°)
1.96788628970682e+000	(5073.245657364103dB,-0.00995351513691797°)
1.97242273611482e+000	(5073.245262009224dB,-0.00997602121998589°)
1.97696964011183e+000	(5073.244864864533dB,-0.00999857617998252°)
1.98152702580507e+000	(5073.244465922068dB,-0.010021180109198°)
1.98609491735734e+000	(5073.244065173897dB,-0.0100438330999991°)
1.99067333898716e+000	(5073.2436626120225dB,-0.0100665352448284°)
1.99526231496885e+000	(5073.243258228376dB,-0.0100892866362035°)
1.99986186963271e+000	(5073.242852014851dB,-0.0101120873667166°)
2.00447202736513e+000	(5073.242443963381dB,-0.0101349375290333°)
