Freq.	V(vout)/V(vin)
5.00000000000000e+001	(1.99959313354846e+001dB,1.79949455710721e+002°)
5.11646496140377e+001	(1.99959128861486e+001dB,1.79948400380519e+002°)
5.23564274025450e+001	(1.99958944387269e+001dB,1.79947323259390e+002°)
5.35759652618803e+001	(1.99958760123550e+001dB,1.79946223768413e+002°)
5.48239098071592e+001	(1.99958576260422e+001dB,1.79945101308005e+002°)
5.61009227150982e+001	(1.99958392985904e+001dB,1.79943955257700e+002°)
5.74076810748441e+001	(1.99958210485140e+001dB,1.79942784975968e+002°)
5.87448777469765e+001	(1.99958028939628e+001dB,1.79941589800069e+002°)
6.01132217308706e+001	(1.99957848526471e+001dB,1.79940369045939e+002°)
6.15134385406190e+001	(1.99957669417674e+001dB,1.79939122008116e+002°)
6.29462705897083e+001	(1.99957491779476e+001dB,1.79937847959684e+002°)
6.44124775846567e+001	(1.99957315771734e+001dB,1.79936546152251e+002°)
6.59128369278203e+001	(1.99957141547356e+001dB,1.79935215815948e+002°)
6.74481441295826e+001	(1.99956969251789e+001dB,1.79933856159436e+002°)
6.90192132301442e+001	(1.99956799022563e+001dB,1.79932466369936e+002°)
7.06268772311377e+001	(1.99956630988902e+001dB,1.79931045613265e+002°)
7.22719885372963e+001	(1.99956465271383e+001dB,1.79929593033871e+002°)
7.39554194084103e+001	(1.99956301981672e+001dB,1.79928107754877e+002°)
7.56780624218103e+001	(1.99956141222306e+001dB,1.79926588878109e+002°)
7.74408309456240e+001	(1.99955983086545e+001dB,1.79925035484123e+002°)
7.92446596230556e+001	(1.99955827658280e+001dB,1.79923446632218e+002°)
8.10905048679464e+001	(1.99955675011998e+001dB,1.79921821360428e+002°)
8.29793453718780e+001	(1.99955525212799e+001dB,1.79920158685500e+002°)
8.49121826230871e+001	(1.99955378316465e+001dB,1.79918457602841e+002°)
8.68900414374687e+001	(1.99955234369579e+001dB,1.79916717086444e+002°)
8.89139705019460e+001	(1.99955093409682e+001dB,1.79914936088782e+002°)
9.09850429304991e+001	(1.99954955465474e+001dB,1.79913113540672e+002°)
9.31043568331433e+001	(1.99954820557050e+001dB,1.79911248351104e+002°)
9.52730358981622e+001	(1.99954688696166e+001dB,1.79909339407035e+002°)
9.74922299879021e+001	(1.99954559886533e+001dB,1.79907385573148e+002°)
9.97631157484438e+001	(1.99954434124133e+001dB,1.79905385691573e+002°)
1.02086897233476e+002	(1.99954311397552e+001dB,1.79903338581568e+002°)
1.04464806542702e+002	(1.99954191688333e+001dB,1.79901243039167e+002°)
1.06898104475111e+002	(1.99954074971337e+001dB,1.79899097836779e+002°)
1.09388081197477e+002	(1.99953961215103e+001dB,1.79896901722764e+002°)
1.11936056928417e+002	(1.99953850382229e+001dB,1.79894653420954e+002°)
1.14543382638388e+002	(1.99953742429736e+001dB,1.79892351630147e+002°)
1.17211440765996e+002	(1.99953637309437e+001dB,1.79889995023561e+002°)
1.19941645950974e+002	(1.99953534968306e+001dB,1.79887582248252e+002°)
1.22735445784251e+002	(1.99953435348829e+001dB,1.79885111924494e+002°)
1.25594321575479e+002	(1.99953338389351e+001dB,1.79882582645125e+002°)
1.28519789138443e+002	(1.99953244024411e+001dB,1.79879992974863e+002°)
1.31513399594769e+002	(1.99953152185064e+001dB,1.79877341449579e+002°)
1.34576740196346e+002	(1.99953062799185e+001dB,1.79874626575554e+002°)
1.37711435166908e+002	(1.99952975791763e+001dB,1.79871846828686e+002°)
1.40919146563222e+002	(1.99952891085171e+001dB,1.79869000653682e+002°)
1.44201575156330e+002	(1.99952808599428e+001dB,1.79866086463214e+002°)
1.47560461333319e+002	(1.99952728252432e+001dB,1.79863102637045e+002°)
1.50997586020101e+002	(1.99952649960185e+001dB,1.79860047521134e+002°)
1.54514771625679e+002	(1.99952573636992e+001dB,1.79856919426706e+002°)
1.58113883008419e+002	(1.99952499195646e+001dB,1.79853716629298e+002°)
1.61796828464814e+002	(1.99952426547593e+001dB,1.79850437367788e+002°)
1.65565560741295e+002	(1.99952355603077e+001dB,1.79847079843384e+002°)
1.69422078069601e+002	(1.99952286271274e+001dB,1.79843642218598e+002°)
1.73368425226265e+002	(1.99952218460394e+001dB,1.79840122616194e+002°)
1.77406694616787e+002	(1.99952152077784e+001dB,1.79836519118112e+002°)
1.81539027385050e+002	(1.99952087029998e+001dB,1.79832829764362e+002°)
1.85767614548586e+002	(1.99952023222863e+001dB,1.79829052551903e+002°)
1.90094698160280e+002	(1.99951960561517e+001dB,1.79825185433494e+002°)
1.94522572497140e+002	(1.99951898950445e+001dB,1.79821226316516e+002°)
1.99053585276748e+002	(1.99951838293488e+001dB,1.79817173061782e+002°)
2.03690138902056e+002	(1.99951778493845e+001dB,1.79813023482310e+002°)
2.08434691735167e+002	(1.99951719454060e+001dB,1.79808775342080e+002°)
2.13289759400796e+002	(1.99951661075990e+001dB,1.79804426354759e+002°)
2.18257916120083e+002	(1.99951603260773e+001dB,1.79799974182411e+002°)
2.23341796075481e+002	(1.99951545908766e+001dB,1.79795416434171e+002°)
2.28544094807437e+002	(1.99951488919488e+001dB,1.79790750664897e+002°)
2.33867570643599e+002	(1.99951432191538e+001dB,1.79785974373797e+002°)
2.39315046161319e+002	(1.99951375622512e+001dB,1.79781085003027e+002°)
2.44889409684223e+002	(1.99951319108900e+001dB,1.79776079936262e+002°)
2.50593616813636e+002	(1.99951262545981e+001dB,1.79770956497233e+002°)
2.56430691995682e+002	(1.99951205827701e+001dB,1.79765711948248e+002°)
2.62403730124886e+002	(1.99951148846546e+001dB,1.79760343488667e+002°)
2.68515898185126e+002	(1.99951091493399e+001dB,1.79754848253357e+002°)
2.74770436928812e+002	(1.99951033657392e+001dB,1.79749223311112e+002°)
2.81170662595174e+002	(1.99950975225748e+001dB,1.79743465663041e+002°)
2.87719968668578e+002	(1.99950916083610e+001dB,1.79737572240924e+002°)
2.94421827677794e+002	(1.99950856113865e+001dB,1.79731539905528e+002°)
3.01279793037178e+002	(1.99950795196952e+001dB,1.79725365444898e+002°)
3.08297500930740e+002	(1.99950733210671e+001dB,1.79719045572603e+002°)
3.15478672240096e+002	(1.99950670029964e+001dB,1.79712576925948e+002°)
3.22827114517327e+002	(1.99950605526709e+001dB,1.79705956064153e+002°)
3.30346724003797e+002	(1.99950539569484e+001dB,1.79699179466481e+002°)
3.38041487695990e+002	(1.99950472023331e+001dB,1.79692243530341e+002°)
3.45915485459467e+002	(1.99950402749508e+001dB,1.79685144569338e+002°)
3.53972892192068e+002	(1.99950331605229e+001dB,1.79677878811284e+002°)
3.62217980037494e+002	(1.99950258443387e+001dB,1.79670442396170e+002°)
3.70655120650458e+002	(1.99950183112282e+001dB,1.79662831374091e+002°)
3.79288787514591e+002	(1.99950105455314e+001dB,1.79655041703119e+002°)
3.88123558314345e+002	(1.99950025310685e+001dB,1.79647069247140e+002°)
3.97164117362140e+002	(1.99949942511071e+001dB,1.79638909773636e+002°)
4.06415258082048e+002	(1.99949856883294e+001dB,1.79630558951422e+002°)
4.15881885551334e+002	(1.99949768247969e+001dB,1.79622012348326e+002°)
4.25569019101187e+002	(1.99949676419145e+001dB,1.79613265428824e+002°)
4.35481794978039e+002	(1.99949581203924e+001dB,1.79604313551621e+002°)
4.45625469066872e+002	(1.99949482402066e+001dB,1.79595151967173e+002°)
4.56005419677954e+002	(1.99949379805583e+001dB,1.79585775815157e+002°)
4.66627150398494e+002	(1.99949273198304e+001dB,1.79576180121886e+002°)
4.77496293010717e+002	(1.99949162355432e+001dB,1.79566359797661e+002°)
4.88618610477904e+002	(1.99949047043077e+001dB,1.79556309634063e+002°)
4.99999999999998e+002	(1.99948927017768e+001dB,1.79546024301191e+002°)
5.11646496140375e+002	(1.99948802025950e+001dB,1.79535498344826e+002°)
5.23564274025448e+002	(1.99948671803449e+001dB,1.79524726183541e+002°)
5.35759652618802e+002	(1.99948536074923e+001dB,1.79513702105741e+002°)
5.48239098071591e+002	(1.99948394553284e+001dB,1.79502420266631e+002°)
5.61009227150980e+002	(1.99948246939095e+001dB,1.79490874685123e+002°)
5.74076810748439e+002	(1.99948092919942e+001dB,1.79479059240671e+002°)
5.87448777469763e+002	(1.99947932169777e+001dB,1.79466967670025e+002°)
6.01132217308704e+002	(1.99947764348232e+001dB,1.79454593563925e+002°)
6.15134385406189e+002	(1.99947589099899e+001dB,1.79441930363708e+002°)
6.29462705897081e+002	(1.99947406053585e+001dB,1.79428971357843e+002°)
6.44124775846565e+002	(1.99947214821526e+001dB,1.79415709678384e+002°)
6.59128369278201e+002	(1.99947014998572e+001dB,1.79402138297348e+002°)
6.74481441295825e+002	(1.99946806161326e+001dB,1.79388250023002e+002°)
6.90192132301440e+002	(1.99946587867257e+001dB,1.79374037496069e+002°)
7.06268772311375e+002	(1.99946359653757e+001dB,1.79359493185850e+002°)
7.22719885372961e+002	(1.99946121037170e+001dB,1.79344609386256e+002°)
7.39554194084101e+002	(1.99945871511767e+001dB,1.79329378211744e+002°)
7.56780624218101e+002	(1.99945610548674e+001dB,1.79313791593170e+002°)
7.74408309456238e+002	(1.99945337594760e+001dB,1.79297841273538e+002°)
7.92446596230554e+002	(1.99945052071460e+001dB,1.79281518803662e+002°)
8.10905048679462e+002	(1.99944753373557e+001dB,1.79264815537719e+002°)
8.29793453718777e+002	(1.99944440867897e+001dB,1.79247722628708e+002°)
8.49121826230869e+002	(1.99944113892053e+001dB,1.79230231023803e+002°)
8.68900414374684e+002	(1.99943771752923e+001dB,1.79212331459603e+002°)
8.89139705019458e+002	(1.99943413725263e+001dB,1.79194014457270e+002°)
9.09850429304988e+002	(1.99943039050153e+001dB,1.79175270317561e+002°)
9.31043568331430e+002	(1.99942646933389e+001dB,1.79156089115744e+002°)
9.52730358981620e+002	(1.99942236543809e+001dB,1.79136460696403e+002°)
9.74922299879019e+002	(1.99941807011528e+001dB,1.79116374668123e+002°)
9.97631157484436e+002	(1.99941357426103e+001dB,1.79095820398056e+002°)
1.02086897233476e+003	(1.99940886834606e+001dB,1.79074787006363e+002°)
1.04464806542702e+003	(1.99940394239604e+001dB,1.79053263360536e+002°)
1.06898104475111e+003	(1.99939878597059e+001dB,1.79031238069585e+002°)
1.09388081197477e+003	(1.99939338814113e+001dB,1.79008699478103e+002°)
1.11936056928417e+003	(1.99938773746778e+001dB,1.78985635660192e+002°)
1.14543382638388e+003	(1.99938182197522e+001dB,1.78962034413257e+002°)
1.17211440765996e+003	(1.99937562912735e+001dB,1.78937883251661e+002°)
1.19941645950974e+003	(1.99936914580076e+001dB,1.78913169400235e+002°)
1.22735445784251e+003	(1.99936235825709e+001dB,1.78887879787655e+002°)
1.25594321575478e+003	(1.99935525211391e+001dB,1.78862001039659e+002°)
1.28519789138443e+003	(1.99934781231440e+001dB,1.78835519472122e+002°)
1.31513399594769e+003	(1.99934002309552e+001dB,1.78808421083980e+002°)
1.34576740196345e+003	(1.99933186795474e+001dB,1.78780691549995e+002°)
1.37711435166908e+003	(1.99932332961520e+001dB,1.78752316213359e+002°)
1.40919146563222e+003	(1.99931438998923e+001dB,1.78723280078149e+002°)
1.44201575156330e+003	(1.99930503014021e+001dB,1.78693567801601e+002°)
1.47560461333319e+003	(1.99929523024257e+001dB,1.78663163686231e+002°)
1.50997586020100e+003	(1.99928496954004e+001dB,1.78632051671779e+002°)
1.54514771625679e+003	(1.99927422630182e+001dB,1.78600215326978e+002°)
1.58113883008418e+003	(1.99926297777680e+001dB,1.78567637841156e+002°)
1.61796828464813e+003	(1.99925120014563e+001dB,1.78534302015649e+002°)
1.65565560741295e+003	(1.99923886847050e+001dB,1.78500190255037e+002°)
1.69422078069600e+003	(1.99922595664264e+001dB,1.78465284558192e+002°)
1.73368425226265e+003	(1.99921243732734e+001dB,1.78429566509144e+002°)
1.77406694616787e+003	(1.99919828190643e+001dB,1.78393017267748e+002°)
1.81539027385050e+003	(1.99918346041807e+001dB,1.78355617560162e+002°)
1.85767614548585e+003	(1.99916794149370e+001dB,1.78317347669128e+002°)
1.90094698160280e+003	(1.99915169229216e+001dB,1.78278187424053e+002°)
1.94522572497139e+003	(1.99913467843061e+001dB,1.78238116190886e+002°)
1.99053585276748e+003	(1.99911686391235e+001dB,1.78197112861794e+002°)
2.03690138902055e+003	(1.99909821105125e+001dB,1.78155155844626e+002°)
2.08434691735167e+003	(1.99907868039264e+001dB,1.78112223052173e+002°)
2.13289759400795e+003	(1.99905823063055e+001dB,1.78068291891206e+002°)
2.18257916120082e+003	(1.99903681852117e+001dB,1.78023339251314e+002°)
2.23341796075480e+003	(1.99901439879219e+001dB,1.77977341493507e+002°)
2.28544094807436e+003	(1.99899092404805e+001dB,1.77930274438619e+002°)
2.33867570643598e+003	(1.99896634467073e+001dB,1.77882113355476e+002°)
2.39315046161318e+003	(1.99894060871599e+001dB,1.77832832948852e+002°)
2.44889409684222e+003	(1.99891366180480e+001dB,1.77782407347191e+002°)
2.50593616813635e+003	(1.99888544700982e+001dB,1.77730810090119e+002°)
2.56430691995681e+003	(1.99885590473654e+001dB,1.77678014115715e+002°)
2.62403730124885e+003	(1.99882497259903e+001dB,1.77623991747568e+002°)
2.68515898185125e+003	(1.99879258528997e+001dB,1.77568714681597e+002°)
2.74770436928811e+003	(1.99875867444468e+001dB,1.77512153972657e+002°)
2.81170662595173e+003	(1.99872316849890e+001dB,1.77454280020906e+002°)
2.87719968668577e+003	(1.99868599254011e+001dB,1.77395062557957e+002°)
2.94421827677793e+003	(1.99864706815200e+001dB,1.77334470632800e+002°)
3.01279793037177e+003	(1.99860631325182e+001dB,1.77272472597501e+002°)
3.08297500930739e+003	(1.99856364192034e+001dB,1.77209036092690e+002°)
3.15478672240095e+003	(1.99851896422408e+001dB,1.77144128032818e+002°)
3.22827114517326e+003	(1.99847218602935e+001dB,1.77077714591209e+002°)
3.30346724003796e+003	(1.99842320880802e+001dB,1.77009761184904e+002°)
3.38041487695989e+003	(1.99837192943428e+001dB,1.76940232459291e+002°)
3.45915485459466e+003	(1.99831823997238e+001dB,1.76869092272543e+002°)
3.53972892192067e+003	(1.99826202745467e+001dB,1.76796303679860e+002°)
3.62217980037493e+003	(1.99820317364969e+001dB,1.76721828917526e+002°)
3.70655120650457e+003	(1.99814155481982e+001dB,1.76645629386788e+002°)
3.79288787514590e+003	(1.99807704146804e+001dB,1.76567665637563e+002°)
3.88123558314344e+003	(1.99800949807341e+001dB,1.76487897351997e+002°)
3.97164117362138e+003	(1.99793878281465e+001dB,1.76406283327865e+002°)
4.06415258082047e+003	(1.99786474728151e+001dB,1.76322781461848e+002°)
4.15881885551333e+003	(1.99778723617326e+001dB,1.76237348732686e+002°)
4.25569019101186e+003	(1.99770608698384e+001dB,1.76149941184228e+002°)
4.35481794978038e+003	(1.99762112967316e+001dB,1.76060513908398e+002°)
4.45625469066870e+003	(1.99753218632390e+001dB,1.75969021028096e+002°)
4.56005419677952e+003	(1.99743907078324e+001dB,1.75875415680044e+002°)
4.66627150398493e+003	(1.99734158828904e+001dB,1.75779649997627e+002°)
4.77496293010715e+003	(1.99723953507966e+001dB,1.75681675093719e+002°)
4.88618610477902e+003	(1.99713269798689e+001dB,1.75581441043549e+002°)
4.99999999999997e+003	(1.99702085401136e+001dB,1.75478896867626e+002°)
5.11646496140374e+003	(1.99690376987970e+001dB,1.75373990514752e+002°)
5.23564274025446e+003	(1.99678120158270e+001dB,1.75266668845168e+002°)
5.35759652618800e+003	(1.99665289389391e+001dB,1.75156877613862e+002°)
5.48239098071589e+003	(1.99651857986782e+001dB,1.75044561454085e+002°)
5.61009227150978e+003	(1.99637798031696e+001dB,1.74929663861117e+002°)
5.74076810748438e+003	(1.99623080326705e+001dB,1.74812127176337e+002°)
5.87448777469761e+003	(1.99607674338962e+001dB,1.74691892571634e+002°)
6.01132217308702e+003	(1.99591548141108e+001dB,1.74568900034241e+002°)
6.15134385406187e+003	(1.99574668349763e+001dB,1.74443088352020e+002°)
6.29462705897079e+003	(1.99557000061507e+001dB,1.74314395099290e+002°)
6.44124775846563e+003	(1.99538506786283e+001dB,1.74182756623249e+002°)
6.59128369278199e+003	(1.99519150378126e+001dB,1.74048108031078e+002°)
6.74481441295822e+003	(1.99498890963144e+001dB,1.73910383177796e+002°)
6.90192132301438e+003	(1.99477686864664e+001dB,1.73769514654955e+002°)
7.06268772311372e+003	(1.99455494525468e+001dB,1.73625433780268e+002°)
7.22719885372959e+003	(1.99432268427028e+001dB,1.73478070588271e+002°)
7.39554194084099e+003	(1.99407961005667e+001dB,1.73327353822106e+002°)
7.56780624218099e+003	(1.99382522565562e+001dB,1.73173210926564e+002°)
7.74408309456235e+003	(1.99355901188516e+001dB,1.73015568042477e+002°)
7.92446596230551e+003	(1.99328042640425e+001dB,1.72854350002606e+002°)
8.10905048679459e+003	(1.99298890274365e+001dB,1.72689480329145e+002°)
8.29793453718774e+003	(1.99268384930238e+001dB,1.72520881233000e+002°)
8.49121826230866e+003	(1.99236464830904e+001dB,1.72348473614965e+002°)
8.68900414374682e+003	(1.99203065474763e+001dB,1.72172177068993e+002°)
8.89139705019455e+003	(1.99168119524711e+001dB,1.71991909887688e+002°)
9.09850429304985e+003	(1.99131556693447e+001dB,1.71807589070241e+002°)
9.31043568331427e+003	(1.99093303625092e+001dB,1.71619130332958e+002°)
9.52730358981617e+003	(1.99053283773089e+001dB,1.71426448122608e+002°)
9.74922299879016e+003	(1.99011417274382e+001dB,1.71229455632790e+002°)
9.97631157484433e+003	(1.98967620819862e+001dB,1.71028064823530e+002°)
1.02086897233476e+004	(1.98921807521108e+001dB,1.70822186444365e+002°)
1.04464806542701e+004	(1.98873886773431e+001dB,1.70611730061119e+002°)
1.06898104475111e+004	(1.98823764115299e+001dB,1.70396604086672e+002°)
1.09388081197477e+004	(1.98771341084170e+001dB,1.70176715815937e+002°)
1.11936056928416e+004	(1.98716515068861e+001dB,1.69951971465367e+002°)
1.14543382638388e+004	(1.98659179158528e+001dB,1.69722276217251e+002°)
1.17211440765995e+004	(1.98599221988421e+001dB,1.69487534269109e+002°)
1.19941645950974e+004	(1.98536527582560e+001dB,1.69247648888498e+002°)
1.22735445784251e+004	(1.98470975193548e+001dB,1.69002522473547e+002°)
1.25594321575478e+004	(1.98402439139724e+001dB,1.68752056619555e+002°)
1.28519789138442e+004	(1.98330788639943e+001dB,1.68496152191991e+002°)
1.31513399594768e+004	(1.98255887646288e+001dB,1.68234709406243e+002°)
1.34576740196345e+004	(1.98177594675038e+001dB,1.67967627914483e+002°)
1.37711435166907e+004	(1.98095762636320e+001dB,1.67694806899996e+002°)
1.40919146563222e+004	(1.98010238662850e+001dB,1.67416145179361e+002°)
1.44201575156329e+004	(1.97920863938292e+001dB,1.67131541312835e+002°)
1.47560461333318e+004	(1.97827473525753e+001dB,1.66840893723333e+002°)
1.50997586020100e+004	(1.97729896197043e+001dB,1.66544100824365e+002°)
1.54514771625678e+004	(1.97627954263363e+001dB,1.66241061157302e+002°)
1.58113883008418e+004	(1.97521463408159e+001dB,1.65931673538345e+002°)
1.61796828464813e+004	(1.97410232522940e+001dB,1.65615837215531e+002°)
1.65565560741294e+004	(1.97294063546952e+001dB,1.65293452036144e+002°)
1.69422078069600e+004	(1.97172751311641e+001dB,1.64964418624835e+002°)
1.73368425226264e+004	(1.97046083390956e+001dB,1.64628638572772e+002°)
1.77406694616786e+004	(1.96913839958579e+001dB,1.64286014638087e+002°)
1.81539027385049e+004	(1.96775793653295e+001dB,1.63936450957882e+002°)
1.85767614548585e+004	(1.96631709453760e+001dB,1.63579853271993e+002°)
1.90094698160279e+004	(1.96481344564039e+001dB,1.63216129158696e+002°)
1.94522572497139e+004	(1.96324448311346e+001dB,1.62845188282464e+002°)
1.99053585276747e+004	(1.96160762057526e+001dB,1.62466942653856e+002°)
2.03690138902055e+004	(1.95990019125878e+001dB,1.62081306901527e+002°)
2.08434691735166e+004	(1.95811944745012e+001dB,1.61688198556303e+002°)
2.13289759400795e+004	(1.95626256011507e+001dB,1.61287538347165e+002°)
2.18257916120081e+004	(1.95432661873204e+001dB,1.60879250508932e+002°)
2.23341796075480e+004	(1.95230863135035e+001dB,1.60463263101283e+002°)
2.28544094807436e+004	(1.95020552489342e+001dB,1.60039508338718e+002°)
2.33867570643597e+004	(1.94801414572697e+001dB,1.59607922930904e+002°)
2.39315046161317e+004	(1.94573126051255e+001dB,1.59168448432730e+002°)
2.44889409684221e+004	(1.94335355736698e+001dB,1.58721031603305e+002°)
2.50593616813634e+004	(1.94087764734850e+001dB,1.58265624772942e+002°)
2.56430691995680e+004	(1.93830006629006e+001dB,1.57802186217073e+002°)
2.62403730124884e+004	(1.93561727700009e+001dB,1.57330680535855e+002°)
2.68515898185124e+004	(1.93282567185046e+001dB,1.56851079038095e+002°)
2.74770436928810e+004	(1.92992157577055e+001dB,1.56363360127936e+002°)
2.81170662595172e+004	(1.92690124966555e+001dB,1.55867509692600e+002°)
2.87719968668576e+004	(1.92376089427546e+001dB,1.55363521489308e+002°)
2.94421827677792e+004	(1.92049665448998e+001dB,1.54851397529323e+002°)
3.01279793037176e+004	(1.91710462413240e+001dB,1.54331148456907e+002°)
3.08297500930738e+004	(1.91358085122339e+001dB,1.53802793920817e+002°)
3.15478672240094e+004	(1.90992134373318e+001dB,1.53266362935801e+002°)
