time	V(vin)	V(vout)
0.000000000000000e+000	0.000000e+000	6.266358e-002
5.714285699858532e-007	1.795196e-004	6.244564e-002
1.142857139971706e-006	3.590392e-004	6.201085e-002
1.714285709957560e-006	5.385587e-004	6.135923e-002
2.285714279943413e-006	7.180782e-004	6.049077e-002
2.857142849929266e-006	8.975977e-004	5.940548e-002
3.428571419915119e-006	1.077117e-003	5.810335e-002
3.999999989900971e-006	1.256637e-003	5.658438e-002
6.897790830619253e-006	2.167003e-003	4.855156e-002
1.011991026023386e-005	3.179258e-003	3.871872e-002
2.104591914396867e-005	6.611723e-003	4.484233e-003
3.423254603599173e-005	1.075444e-002	-3.692617e-002
4.741917292801478e-005	1.489680e-002	-7.832937e-002
6.060579982003784e-005	1.903879e-002	-1.197254e-001
7.379242671206091e-005	2.318043e-002	-1.611142e-001
8.697905360408398e-005	2.732170e-002	-2.024957e-001
1.001656804961070e-004	3.146260e-002	-2.438701e-001
1.133523073881301e-004	3.560315e-002	-2.852373e-001
1.191098832530240e-004	3.741074e-002	-2.850161e-001
1.193965716545830e-004	3.750074e-002	-2.858552e-001
1.205505248959484e-004	3.786301e-002	-2.963973e-001
1.212263335771282e-004	3.807517e-002	-3.011331e-001
1.225028987181375e-004	3.847592e-002	-3.089650e-001
1.238480142127705e-004	3.889818e-002	-3.152761e-001
1.265382452020366e-004	3.974269e-002	-3.258807e-001
1.291375410186163e-004	4.055863e-002	-3.345128e-001
1.373406748961072e-004	4.313350e-002	-3.603749e-001
1.455438087735981e-004	4.570805e-002	-3.862054e-001
1.537469426510890e-004	4.828226e-002	-4.120041e-001
1.619500765285800e-004	5.085615e-002	-4.377711e-001
1.701532104060709e-004	5.342971e-002	-4.635064e-001
1.783563442835618e-004	5.600294e-002	-4.892100e-001
1.865594781610527e-004	5.857584e-002	-5.148818e-001
3.341703629168668e-004	1.050339e-001	-9.792388e-001
4.817812476726809e-004	1.510219e-001	-1.438918e+000
6.293921324284949e-004	1.965399e-001	-1.893919e+000
7.770030171843091e-004	2.415878e-001	-2.344241e+000
9.246139019401231e-004	2.861657e-001	-2.789886e+000
1.072224786695937e-003	3.302735e-001	-3.230852e+000
1.219835671451751e-003	3.739113e-001	-3.667141e+000
1.484505007536178e-003	4.507275e-001	-4.435202e+000
1.749174343620606e-003	5.232852e-001	-5.160749e+000
2.013843679705034e-003	5.915845e-001	-5.843783e+000
2.278513015789461e-003	6.556254e-001	-6.484303e+000
2.543182351873888e-003	7.154078e-001	-7.082310e+000
2.807851687958316e-003	7.709319e-001	-7.637804e+000
3.072521024042743e-003	8.221975e-001	-8.150784e+000
3.204322800804251e-003	8.450548e-001	-8.379539e+000
3.794130093500255e-003	9.285497e-001	-9.215656e+000
4.383937386196261e-003	9.793638e-001	-9.725091e+000
4.973744678892266e-003	9.974969e-001	-9.907844e+000
5.563551971588271e-003	9.829491e-001	-9.763917e+000
6.153359264284276e-003	9.357204e-001	-9.293307e+000
6.743166556980281e-003	8.558109e-001	-8.496016e+000
7.332973849676284e-003	7.432204e-001	-7.372044e+000
7.571446924453079e-003	6.902005e-001	-6.842566e+000
7.809919999229875e-003	6.341450e-001	-6.282706e+000
8.048393074006672e-003	5.750539e-001	-5.692464e+000
8.286866148783467e-003	5.129273e-001	-5.071839e+000
8.525339223560262e-003	4.477651e-001	-4.420832e+000
8.763812298337058e-003	3.795674e-001	-3.739443e+000
9.002285373113853e-003	3.083341e-001	-3.027672e+000
9.279995334051371e-003	2.242722e-001	-2.187648e+000
9.367420794528576e-003	1.973732e-001	-1.918833e+000
9.454846255005782e-003	1.703766e-001	-1.649038e+000
9.542271715482987e-003	1.432826e-001	-1.378261e+000
9.629697175960190e-003	1.160910e-001	-1.106502e+000
9.717122636437396e-003	8.880184e-002	-8.337626e-001
9.804548096914601e-003	6.141518e-002	-5.600415e-001
9.891973557391806e-003	3.393099e-002	-2.853389e-001
9.892266975823729e-003	3.383887e-002	-2.847110e-001
9.892916659525384e-003	3.363488e-002	-2.848184e-001
9.897603212145468e-003	3.216335e-002	-2.863492e-001
9.898186273634410e-003	3.198027e-002	-2.865397e-001
9.898332039006646e-003	3.193450e-002	-2.856228e-001
9.898521603306345e-003	3.187498e-002	-2.844163e-001
9.898714421912676e-003	3.181443e-002	-2.838524e-001
9.908966609115994e-003	2.859508e-002	-2.872849e-001
9.909041757038301e-003	2.857149e-002	-2.873094e-001
9.909192052882912e-003	2.852429e-002	-2.866274e-001
9.909327788592510e-003	2.848166e-002	-2.850136e-001
9.909458473059239e-003	2.844062e-002	-2.838700e-001
9.909554290833291e-003	2.841053e-002	-2.837847e-001
9.915081659622640e-003	2.667472e-002	-2.856302e-001
9.915200544241056e-003	2.663738e-002	-2.850627e-001
9.915438313477885e-003	2.656271e-002	-2.797268e-001
9.915752753901767e-003	2.646396e-002	-2.698348e-001
9.916042128166960e-003	2.637308e-002	-2.623868e-001
9.916412889931722e-003	2.625665e-002	-2.537253e-001
9.917154413461244e-003	2.602377e-002	-2.393538e-001
9.918637460520290e-003	2.555801e-002	-2.192007e-001
9.920179200301039e-003	2.507382e-002	-2.058273e-001
9.921939326017832e-003	2.452103e-002	-1.955200e-001
9.924055205405123e-003	2.385650e-002	-1.862627e-001
9.926654037236856e-003	2.304027e-002	-1.770030e-001
9.930554038711466e-003	2.181536e-002	-1.642700e-001
9.938191292640106e-003	1.941652e-002	-1.402811e-001
9.945828546568744e-003	1.701761e-002	-1.162940e-001
9.953465800497384e-003	1.461862e-002	-9.230881e-002
9.961103054426022e-003	1.221955e-002	-6.832553e-002
9.968740308354662e-003	9.820398e-003	-4.434416e-002
9.976377562283300e-003	7.421174e-003	-2.036468e-002
9.984014816211939e-003	5.021872e-003	3.612896e-003
1.003764162097173e-002	-1.183713e-002	1.721250e-001
1.009126842573152e-002	-2.868083e-002	3.404868e-001
1.014489523049132e-002	-4.550923e-002	5.086980e-001
1.019852203525111e-002	-6.232233e-002	6.767589e-001
1.025214884001090e-002	-7.912014e-002	8.446693e-001
1.030577564477069e-002	-9.590265e-002	1.012429e+000
1.035940244953048e-002	-1.126699e-001	1.180039e+000
1.053837983507555e-002	-1.687572e-001	1.740722e+000
1.071735722062061e-002	-2.238845e-001	2.291836e+000
1.089633460616568e-002	-2.780518e-001	2.833380e+000
1.107531199171074e-002	-3.312591e-001	3.365355e+000
1.125428937725581e-002	-3.835064e-001	3.887762e+000
1.143326676280087e-002	-4.347937e-001	4.400598e+000
1.161224414834594e-002	-4.851209e-001	4.903866e+000
1.197833425514266e-002	-5.822651e-001	5.875397e+000
1.231536959155869e-002	-6.665375e-001	6.718329e+000
1.265240492797472e-002	-7.415838e-001	7.469098e+000
1.298944026439074e-002	-8.074041e-001	8.127704e+000
1.332647560080677e-002	-8.639982e-001	8.694146e+000
1.366351093722280e-002	-9.113663e-001	9.168424e+000
1.400054627363883e-002	-9.495083e-001	9.550538e+000
1.433758161005485e-002	-9.784242e-001	9.840489e+000
1.477359972608510e-002	-9.956444e-001	1.001388e+001
1.520961784211534e-002	-9.953509e-001	1.001216e+001
1.564563595814558e-002	-9.775438e-001	9.835342e+000
1.608165407417582e-002	-9.422229e-001	9.483419e+000
1.651767219020606e-002	-8.893883e-001	8.956393e+000
1.695369030623631e-002	-8.190401e-001	8.254263e+000
1.738970842226655e-002	-7.311781e-001	7.377029e+000
1.751286864827102e-002	-7.041319e-001	7.106939e+000
1.763602887427549e-002	-6.761406e-001	6.827393e+000
1.775918910027997e-002	-6.472043e-001	6.538391e+000
1.788234932628444e-002	-6.173229e-001	6.239932e+000
1.800550955228891e-002	-5.864964e-001	5.932017e+000
1.812866977829338e-002	-5.547249e-001	5.614645e+000
1.825183000429785e-002	-5.220083e-001	5.287817e+000
1.825488176211036e-002	-5.211903e-001	5.279646e+000
1.844256486757912e-002	-4.695161e-001	4.763406e+000
1.863024797304788e-002	-4.166812e-001	4.235535e+000
1.881793107851664e-002	-3.626854e-001	3.696032e+000
1.900561418398540e-002	-3.075288e-001	3.144898e+000
1.919329728945417e-002	-2.512113e-001	2.582132e+000
1.938098039492293e-002	-1.937331e-001	2.007734e+000
1.956866350039169e-002	-1.350940e-001	1.421705e+000
1.963275041445419e-002	-1.150987e-001	1.221868e+000
1.969683732851670e-002	-9.507709e-002	1.021765e+000
1.976092424257920e-002	-7.502912e-002	8.213940e-001
1.982501115664171e-002	-5.495482e-002	6.207566e-001
1.988909807070421e-002	-3.485418e-002	4.198525e-001
1.995318498476672e-002	-1.472721e-002	2.186815e-001
2.001727189882922e-002	5.426100e-003	1.724378e-002
2.002490129336047e-002	7.822893e-003	-6.713031e-003
2.011360971129871e-002	3.568397e-002	-2.851104e-001
2.011448914464819e-002	3.596007e-002	-2.848331e-001
2.011536857799767e-002	3.623617e-002	-2.845330e-001
2.011624801134715e-002	3.651227e-002	-2.842100e-001
2.011712744469663e-002	3.678837e-002	-2.838641e-001
2.011800687804611e-002	3.706446e-002	-2.834954e-001
2.011888631139559e-002	3.734055e-002	-2.831039e-001
2.011976574474507e-002	3.761664e-002	-2.826895e-001
2.012048493183804e-002	3.784242e-002	-2.856642e-001
2.012907823373055e-002	4.054001e-002	-2.819459e-001
2.012937286728216e-002	4.063250e-002	-2.838452e-001
2.012975320787286e-002	4.075189e-002	-2.875848e-001
2.013479578167995e-002	4.233469e-002	-2.852851e-001
2.013510275629685e-002	4.243104e-002	-2.851552e-001
2.013560609436343e-002	4.258903e-002	-2.901526e-001
2.013623755579892e-002	4.278722e-002	-3.061435e-001
2.013649014037312e-002	4.286650e-002	-3.120980e-001
2.013699530952151e-002	4.302506e-002	-3.221237e-001
2.013800564781830e-002	4.334217e-002	-3.379489e-001
2.013901806120507e-002	4.365993e-002	-3.493495e-001
2.014060163395345e-002	4.415694e-002	-3.620304e-001
2.014236164976562e-002	4.470932e-002	-3.717374e-001
2.014483991834398e-002	4.548710e-002	-3.820170e-001
2.014748301263094e-002	4.631658e-002	-3.911266e-001
2.015818072642655e-002	4.967349e-002	-4.250335e-001
2.030017670788615e-002	9.438134e-002	-8.719309e-001
2.044217268934575e-002	1.386834e-001	-1.314790e+000
2.058416867080535e-002	1.825797e-001	-1.753610e+000
2.072616465226495e-002	2.260703e-001	-2.188392e+000
2.086816063372455e-002	2.691551e-001	-2.619135e+000
2.101015661518415e-002	3.118341e-001	-3.045839e+000
2.115215259664375e-002	3.541074e-001	-3.468505e+000
2.145878967033167e-002	4.424173e-001	-4.351529e+000
2.175094872238057e-002	5.240164e-001	-5.167538e+000
2.204310777442947e-002	5.998036e-001	-5.925509e+000
2.233526682647837e-002	6.697791e-001	-6.625442e+000
2.262742587852728e-002	7.339427e-001	-7.267336e+000
2.291958493057618e-002	7.922945e-001	-7.851193e+000
2.321174398262508e-002	8.448344e-001	-8.377011e+000
2.350390303467398e-002	8.915625e-001	-8.844790e+000
2.404736438435887e-002	9.543848e-001	-9.474244e+000
2.459082573404377e-002	9.894500e-001	-9.826217e+000
2.513428708372867e-002	9.967581e-001	-9.900709e+000
2.567774843341356e-002	9.763090e-001	-9.697720e+000
2.622120978309846e-002	9.281028e-001	-9.217250e+000
2.676467113278335e-002	8.521395e-001	-8.459299e+000
2.730813248246825e-002	7.484190e-001	-7.423867e+000
2.754311783403076e-002	6.974638e-001	-6.915025e+000
2.777069177376292e-002	6.437176e-001	-6.378241e+000
2.799826571349507e-002	5.874395e-001	-5.816113e+000
2.822583965322723e-002	5.286296e-001	-5.228639e+000
2.845341359295939e-002	4.672879e-001	-4.615820e+000
2.868098753269155e-002	4.034144e-001	-3.977656e+000
2.890856147242370e-002	3.370090e-001	-3.314147e+000
2.913613541215586e-002	2.680719e-001	-2.625293e+000
2.924415729073869e-002	2.351328e-001	-2.296109e+000
2.935217916932152e-002	2.020191e-001	-1.965185e+000
2.946020104790435e-002	1.687309e-001	-1.632519e+000
2.956822292648718e-002	1.352681e-001	-1.298113e+000
2.967624480507001e-002	1.016307e-001	-9.619651e-001
2.978426668365284e-002	6.781867e-002	-6.240766e-001
2.989228856223566e-002	3.383209e-002	-2.844471e-001
2.989950721779653e-002	3.156549e-002	-2.866303e-001
2.989965131949506e-002	3.152025e-002	-2.866752e-001
2.989993952289214e-002	3.142975e-002	-2.856503e-001
2.990012914801890e-002	3.137021e-002	-2.842219e-001
2.990031771912309e-002	3.131099e-002	-2.835505e-001
2.990535749041941e-002	2.972844e-002	-2.852145e-001
2.990566467654066e-002	2.963198e-002	-2.853105e-001
2.990619257564117e-002	2.946621e-002	-2.817015e-001
2.990672161116075e-002	2.930008e-002	-2.726001e-001
2.990719504436204e-002	2.915141e-002	-2.647286e-001
2.990782301022784e-002	2.895421e-002	-2.567090e-001
2.990885358597301e-002	2.863058e-002	-2.458996e-001
2.990994565987762e-002	2.828763e-002	-2.375584e-001
2.991178012258269e-002	2.771154e-002	-2.269619e-001
2.991373362913559e-002	2.709806e-002	-2.186803e-001
2.991673258233489e-002	2.615625e-002	-2.079418e-001
2.991996093600271e-002	2.514236e-002	-1.975616e-001
2.998269499139436e-002	5.436502e-003	-4.933677e-004
3.003604884085008e-002	-1.133659e-002	1.671594e-001
3.008940269030580e-002	-2.809474e-002	3.346653e-001
3.014275653976152e-002	-4.483795e-002	5.020243e-001
3.019611038921725e-002	-6.156622e-002	6.692364e-001
3.024946423867297e-002	-7.827955e-002	8.363017e-001
3.030281808812869e-002	-9.497793e-002	1.003220e+000
3.035617193758441e-002	-1.116614e-001	1.169991e+000
3.046799575904640e-002	-1.466018e-001	1.519272e+000
3.057981958050839e-002	-1.812554e-001	1.865697e+000
3.069164340197038e-002	-2.156223e-001	2.209266e+000
3.080346722343236e-002	-2.497024e-001	2.549979e+000
3.091529104489435e-002	-2.834957e-001	2.887836e+000
3.102711486635634e-002	-3.170022e-001	3.222838e+000
3.113893868781833e-002	-3.502220e-001	3.554983e+000
3.114064406200185e-002	-3.507238e-001	3.560000e+000
3.139352669092896e-002	-4.249671e-001	4.302363e+000
3.164640931985607e-002	-4.954870e-001	5.007553e+000
3.189929194878319e-002	-5.622834e-001	5.675570e+000
3.215217457771030e-002	-6.253563e-001	6.306415e+000
3.240505720663742e-002	-6.847057e-001	6.900087e+000
3.265793983556452e-002	-7.403318e-001	7.456586e+000
3.291082246449164e-002	-7.922343e-001	7.975913e+000
3.353466041427333e-002	-8.965018e-001	9.019731e+000
3.415849836405501e-002	-9.642274e-001	9.698290e+000
3.478233631383670e-002	-9.954112e-001	1.001159e+001
3.540617426361838e-002	-9.900532e-001	9.959630e+000
3.603001221340007e-002	-9.481533e-001	9.542410e+000
3.665385016318176e-002	-8.697116e-001	8.759930e+000
3.727768811296344e-002	-7.547281e-001	7.612191e+000
3.747605237077589e-002	-7.124065e-001	7.189578e+000
3.770863991262851e-002	-6.584559e-001	6.650771e+000
3.794122745448113e-002	-6.017901e-001	6.084785e+000
3.817381499633375e-002	-5.424093e-001	5.491621e+000
3.840640253818636e-002	-4.803132e-001	4.871278e+000
3.863899008003898e-002	-4.155021e-001	4.223756e+000
3.887157762189160e-002	-3.479758e-001	3.549055e+000
3.910416516374422e-002	-2.777343e-001	2.847175e+000
3.922531659083133e-002	-2.408417e-001	2.478510e+000
3.934646801791845e-002	-2.037359e-001	2.107700e+000
3.946761944500557e-002	-1.664168e-001	1.734746e+000
3.958877087209269e-002	-1.288845e-001	1.359649e+000
3.970992229917980e-002	-9.113903e-002	9.824074e-001
3.983107372626692e-002	-5.318030e-002	6.030222e-001
3.995222515335404e-002	-1.500835e-002	2.214932e-001
4.001952931104767e-002	6.135276e-003	1.015688e-002
4.002612775788037e-002	8.208185e-003	-1.056263e-002
4.011376588442428e-002	3.573300e-002	-2.855830e-001
4.012188232398951e-002	3.828111e-002	-2.823237e-001
4.012223056574413e-002	3.839043e-002	-2.855965e-001
4.012245347622379e-002	3.846041e-002	-2.862788e-001
4.013317442469402e-002	4.182578e-002	-2.817461e-001
4.013346847252126e-002	4.191807e-002	-2.844793e-001
4.013369815023259e-002	4.199016e-002	-2.858801e-001
4.014470847804883e-002	4.544585e-002	-2.812055e-001
4.014481980289186e-002	4.548079e-002	-2.820039e-001
4.014494143648074e-002	4.551896e-002	-2.854206e-001
4.014508910155121e-002	4.556530e-002	-2.877778e-001
4.015024226553145e-002	4.718247e-002	-2.857853e-001
4.015069548948311e-002	4.732470e-002	-2.855956e-001
4.015125163787176e-002	4.749922e-002	-2.948931e-001
4.015181379274129e-002	4.767563e-002	-3.177342e-001
4.015223540889344e-002	4.780794e-002	-3.335901e-001
4.015279756376297e-002	4.798434e-002	-3.504250e-001
4.015321917991512e-002	4.811664e-002	-3.609735e-001
4.015378133478465e-002	4.829304e-002	-3.728454e-001
4.015490564452372e-002	4.864584e-002	-3.908802e-001
4.015637706949169e-002	4.910755e-002	-4.066485e-001
4.015805483960463e-002	4.963399e-002	-4.184781e-001
4.015995522211042e-002	5.023027e-002	-4.279155e-001
4.016235333777123e-002	5.098270e-002	-4.372184e-001
4.016543660603603e-002	5.195005e-002	-4.475879e-001
4.017618621506323e-002	5.532237e-002	-4.813854e-001
4.018693582409044e-002	5.869397e-002	-5.151557e-001
4.019768543311764e-002	6.206484e-002	-5.488989e-001
4.020843504214484e-002	6.543498e-002	-5.826150e-001
4.021918465117205e-002	6.880439e-002	-6.163039e-001
4.022993426019925e-002	7.217308e-002	-6.499657e-001
4.024068386922645e-002	7.554103e-002	-6.836003e-001
4.064199587329918e-002	2.003243e-001	-1.931002e+000
4.084838490396515e-002	2.640093e-001	-2.567688e+000
4.105477393463113e-002	3.259554e-001	-3.187027e+000
4.126116296529710e-002	3.861628e-001	-3.789021e+000
4.146755199596307e-002	4.446315e-001	-4.373670e+000
4.167394102662905e-002	5.013614e-001	-4.940972e+000
4.188033005729502e-002	5.563526e-001	-5.490928e+000
4.208671908796100e-002	6.096050e-001	-6.023539e+000
4.244789989162656e-002	6.970811e-001	-6.898566e+000
4.280908069529211e-002	7.736409e-001	-7.664537e+000
4.317026149895767e-002	8.392843e-001	-8.321453e+000
4.353144230262322e-002	8.940112e-001	-8.869314e+000
4.389262310628878e-002	9.378218e-001	-9.308119e+000
4.425380390995433e-002	9.707160e-001	-9.637870e+000
4.461498471361988e-002	9.926937e-001	-9.858564e+000
4.488501590921636e-002	9.990557e-001	-9.922913e+000
4.515504710481285e-002	9.984193e-001	-9.917300e+000
4.542507830040933e-002	9.907847e-001	-9.841726e+000
4.569510949600582e-002	9.761517e-001	-9.696190e+000
4.596514069160230e-002	9.545205e-001	-9.480692e+000
4.623517188719879e-002	9.258910e-001	-9.195233e+000
4.650520308279527e-002	8.902633e-001	-8.839812e+000
4.651741011404527e-002	8.885101e-001	-8.822319e+000
4.680165955600950e-002	8.428061e-001	-8.366187e+000
4.708590899797373e-002	7.915499e-001	-7.854510e+000
4.737015843993796e-002	7.347415e-001	-7.287287e+000
4.765440788190219e-002	6.723809e-001	-6.664520e+000
4.793865732386642e-002	6.044682e-001	-5.986207e+000
4.822290676583065e-002	5.310033e-001	-5.252349e+000
4.850715620779488e-002	4.519862e-001	-4.462945e+000
4.867609280098680e-002	4.036741e-001	-3.980253e+000
4.884502939417872e-002	3.545775e-001	-3.489694e+000
4.901396598737064e-002	3.046963e-001	-2.991269e+000
4.918290258056256e-002	2.540305e-001	-2.484978e+000
4.935183917375449e-002	2.025800e-001	-1.970822e+000
4.952077576694641e-002	1.503450e-001	-1.448799e+000
4.968971236013833e-002	9.732543e-002	-9.189101e-001
4.989215029815648e-002	3.387550e-002	-2.847450e-001
4.989248032226899e-002	3.377188e-002	-2.841696e-001
4.990081007347532e-002	3.115639e-002	-2.867550e-001
4.990095720819596e-002	3.111019e-002	-2.868007e-001
4.990125147763722e-002	3.101779e-002	-2.856051e-001
4.990144218561472e-002	3.095790e-002	-2.839820e-001
4.990163393848614e-002	3.089769e-002	-2.832200e-001
4.990668200803104e-002	2.931251e-002	-2.849036e-001
4.990698937413719e-002	2.921599e-002	-2.849997e-001
4.990749949886143e-002	2.905580e-002	-2.812825e-001
4.990801151140339e-002	2.889501e-002	-2.718293e-001
4.990846168825130e-002	2.875365e-002	-2.637127e-001
4.990906518960843e-002	2.856413e-002	-2.553373e-001
4.991000885556193e-002	2.826779e-002	-2.444965e-001
4.991104908247586e-002	2.794112e-002	-2.357240e-001
4.991278901954609e-002	2.739471e-002	-2.247436e-001
4.991464639944392e-002	2.681141e-002	-2.163125e-001
4.991744886506409e-002	2.593130e-002	-2.058805e-001
4.992045750220109e-002	2.498641e-002	-1.960560e-001
4.992890080715397e-002	2.233457e-002	-1.694816e-001
4.993734411210687e-002	1.968261e-002	-1.429214e-001
4.994578741705975e-002	1.703054e-002	-1.163756e-001
4.995423072201265e-002	1.437837e-002	-8.984411e-002
4.996267402696553e-002	1.172608e-002	-6.332689e-002
4.997111733191843e-002	9.073680e-003	-3.682396e-002
4.997956063687131e-002	6.421171e-003	-1.033533e-002
4.998718112509332e-002	4.027158e-003	1.359348e-002
5.022023490340451e-002	-6.913365e-002	7.448796e-001
5.037958467711226e-002	-1.192729e-001	1.246080e+000
5.053893445082001e-002	-1.688076e-001	1.741257e+000
5.069828422452776e-002	-2.177376e-001	2.230413e+000
5.085763399823551e-002	-2.660629e-001	2.713546e+000
5.101698377194326e-002	-3.137836e-001	3.190657e+000
5.117633354565102e-002	-3.608996e-001	3.661745e+000
