Freq.	V(vin)/I(R6)
1.00000000000000e+000	(8.79371216094231e+001dB,1.79999898111910e+002°)
1.25892541179417e+000	(8.79371216094154e+001dB,1.79999871730494e+002°)
1.58489319246111e+000	(8.79371216094032e+001dB,1.79999838518260e+002°)
1.99526231496888e+000	(8.79371216093838e+001dB,1.79999796706533e+002°)
2.51188643150958e+000	(8.79371216093532e+001dB,1.79999744068689e+002°)
3.16227766016838e+000	(8.79371216093046e+001dB,1.79999677801569e+002°)
3.98107170553497e+000	(8.79371216092277e+001dB,1.79999594376207e+002°)
5.01187233627272e+000	(8.79371216091057e+001dB,1.79999489349900e+002°)
6.30957344480194e+000	(8.79371216089123e+001dB,1.79999357129612e+002°)
7.94328234724282e+000	(8.79371216086060e+001dB,1.79999190674132e+002°)
1.00000000000000e+001	(8.79371216081204e+001dB,1.79998981119099e+002°)
1.25892541179417e+001	(8.79371216073507e+001dB,1.79998717304942e+002°)
1.58489319246111e+001	(8.79371216061310e+001dB,1.79998385182596e+002°)
1.99526231496888e+001	(8.79371216041977e+001dB,1.79997967065335e+002°)
2.51188643150958e+001	(8.79371216011338e+001dB,1.79997440686890e+002°)
3.16227766016838e+001	(8.79371215962777e+001dB,1.79996778015691e+002°)
3.98107170553498e+001	(8.79371215885814e+001dB,1.79995943762079e+002°)
5.01187233627273e+001	(8.79371215763835e+001dB,1.79994893499009e+002°)
6.30957344480194e+001	(8.79371215570513e+001dB,1.79993571296147e+002°)
7.94328234724283e+001	(8.79371215264117e+001dB,1.79991906741373e+002°)
1.00000000000000e+002	(8.79371214778512e+001dB,1.79989811191087e+002°)
1.25892541179417e+002	(8.79371214008881e+001dB,1.79987173049617e+002°)
1.58489319246112e+002	(8.79371212789096e+001dB,1.79983851826354e+002°)
1.99526231496888e+002	(8.79371210855869e+001dB,1.79979670654136e+002°)
2.51188643150958e+002	(8.79371207791911e+001dB,1.79974406870472e+002°)
3.16227766016838e+002	(8.79371202935864e+001dB,1.79967780160036e+002°)
3.98107170553498e+002	(8.79371195239550e+001dB,1.79959437627034e+002°)
5.01187233627273e+002	(8.79371183041717e+001dB,1.79948935002557e+002°)
6.30957344480194e+002	(8.79371163709462e+001dB,1.79935712986335e+002°)
7.94328234724283e+002	(8.79371133069921e+001dB,1.79919067463344e+002°)
1.00000000000000e+003	(8.79371084509564e+001dB,1.79898112009867e+002°)
1.25892541179417e+003	(8.79371007546696e+001dB,1.79871730693696e+002°)
1.58489319246112e+003	(8.79370885569052e+001dB,1.79838518657654e+002°)
1.99526231496888e+003	(8.79370692248219e+001dB,1.79796707327721e+002°)
2.51188643150959e+003	(8.79370385857114e+001dB,1.79744070273704e+002°)
3.16227766016839e+003	(8.79369900264382e+001dB,1.79677804730883e+002°)
3.98107170553498e+003	(8.79369130662927e+001dB,1.79594382516481e+002°)
5.01187233627273e+003	(8.79367910954851e+001dB,1.79489362488033e+002°)
6.30957344480195e+003	(8.79365977918236e+001dB,1.79357154728551e+002°)
7.94328234724283e+003	(8.79362914438508e+001dB,1.79190724243864e+002°)
1.00000000000000e+004	(8.79358059594484e+001dB,1.78981219077587e+002°)
1.25892541179417e+004	(8.79350366300605e+001dB,1.78717504404119e+002°)
1.58489319246112e+004	(8.79338176052084e+001dB,1.78385580506563e+002°)
1.99526231496889e+004	(8.79318862840575e+001dB,1.77967859053594e+002°)
2.51188643150959e+004	(8.79288271105390e+001dB,1.77442269880348e+002°)
3.16227766016839e+004	(8.79239830719296e+001dB,1.76781172002153e+002°)
3.98107170553498e+004	(8.79163168751619e+001dB,1.75950052904053e+002°)
5.01187233627274e+004	(8.79041945136114e+001dB,1.74906029284003e+002°)
6.30957344480195e+004	(8.78850511226174e+001dB,1.73596229471512e+002°)
7.94328234724284e+004	(8.78548831824873e+001dB,1.71956277069689e+002°)
1.00000000000000e+005	(8.78074964434917e+001dB,1.69909363478467e+002°)
1.25892541179417e+005	(8.77334388445569e+001dB,1.67366870948339e+002°)
1.58489319246112e+005	(8.76185950315120e+001dB,1.64232245379708e+002°)
1.99526231496889e+005	(8.74425776848848e+001dB,1.60410705976690e+002°)
2.51188643150959e+005	(8.71774051142935e+001dB,1.55827763811624e+002°)
3.16227766016839e+005	(8.67875073204980e+001dB,1.50457704168132e+002°)
3.98107170553499e+005	(8.62324934267488e+001dB,1.44356792267417e+002°)
5.01187233627274e+005	(8.54733465909541e+001dB,1.37685784297296e+002°)
6.30957344480196e+005	(8.44799557240165e+001dB,1.30704164596244e+002°)
7.94328234724285e+005	(8.32356755409579e+001dB,1.23744732086303e+002°)
1.00000000000000e+006	(8.17410406653748e+001dB,1.17211503838021e+002°)
1.25892541179417e+006	(8.00296632254495e+001dB,1.11554227333646e+002°)
1.58489319246112e+006	(7.81778395095740e+001dB,1.07038800337805e+002°)
1.99526231496889e+006	(7.62622070549759e+001dB,1.03556435189401e+002°)
2.51188643150959e+006	(7.43203418410471e+001dB,1.00835026794261e+002°)
3.16227766016839e+006	(7.23628600459518e+001dB,9.86659132866097e+001°)
3.98107170553499e+006	(7.03931472658880e+001dB,9.69227990407796e+001°)
5.01187233627275e+006	(6.84139119931764e+001dB,9.55217835170210e+001°)
6.30957344480196e+006	(6.64277363636207e+001dB,9.43985515482997e+001°)
7.94328234724285e+006	(6.44367613623508e+001dB,9.35004510276873e+001°)
1.00000000000000e+007	(6.24425795782179e+001dB,9.27838958274683e+001°)
1.25892541179417e+007	(6.04463007453310e+001dB,9.22130589483337e+001°)
1.58489319246112e+007	(5.84486688079797e+001dB,9.17587753298968e+001°)
1.99526231496889e+007	(5.64501710527158e+001dB,9.13974917800070e+001°)
2.51188643150959e+007	(5.44511221756903e+001dB,9.11102953994728e+001°)
3.16227766016839e+007	(5.24517236531347e+001dB,9.08820577311876e+001°)
3.98107170553499e+007	(5.04521037862980e+001dB,9.07007079881163e+001°)
5.01187233627275e+007	(4.84523440139774e+001dB,9.05566307109957e+001°)
6.30957344480196e+007	(4.64524959358631e+001dB,9.04421742653315e+001°)
7.94328234724286e+007	(4.44525922218654e+001dB,9.03512537118184e+001°)
1.00000000000001e+008	(4.24526535585959e+001dB,9.02790319088483e+001°)
1.25892541179417e+008	(4.04526930463776e+001dB,9.02216644394752e+001°)
1.58489319246112e+008	(3.84527189598241e+001dB,9.01760961469188e+001°)
1.99526231496889e+008	(3.64527364647187e+001dB,9.01398992356121e+001°)
2.51188643150959e+008	(3.44527486937020e+001dB,9.01111447621466e+001°)
3.16227766016840e+008	(3.24527574638875e+001dB,9.00883007240471e+001°)
3.98107170553499e+008	(3.04527638038060e+001dB,9.00701509839771e+001°)
5.01187233627275e+008	(2.84527683356224e+001dB,9.00557303962492e+001°)
6.30957344480197e+008	(2.64527715019947e+001dB,9.00442728351515e+001°)
7.94328234724286e+008	(2.44527736588530e+001dB,9.00351698239789e+001°)
1.00000000000001e+009	(2.24527750955345e+001dB,9.00279378509673e+001°)
1.25892541179417e+009	(2.04527760360453e+001dB,9.00221926064358e+001°)
1.58489319246112e+009	(1.84527766441218e+001dB,9.00176286223596e+001°)
1.99526231496889e+009	(1.64527770339305e+001dB,9.00140031226003e+001°)
2.51188643150960e+009	(1.44527772824077e+001dB,9.00111231827307e+001°)
3.16227766016840e+009	(1.24527774402124e+001dB,9.00088355123376e+001°)
3.98107170553500e+009	(1.04527775401943e+001dB,9.00070183242822e+001°)
5.01187233627275e+009	(8.45277760344488e+000dB,9.00055748669107e+001°)
6.30957344480197e+009	(6.45277764341978e+000dB,9.00044282811133e+001°)
7.94328234724287e+009	(4.45277766866880e+000dB,9.00035175121943e+001°)
1.00000000000001e+010	(2.45277768461045e+000dB,9.00027940609953e+001°)
1.25892541179418e+010	(4.52777694673180e-001dB,9.00022194024124e+001°)
1.58489319246112e+010	(-1.54722229897599e+000dB,9.00017629344388e+001°)
1.99526231496889e+010	(-3.54722229496821e+000dB,9.00014003488205e+001°)
2.51188643150960e+010	(-5.54722229243921e+000dB,9.00011123367167e+001°)
3.16227766016840e+010	(-7.54722229084341e+000dB,9.00008835605158e+001°)
3.98107170553500e+010	(-9.54722228983649e+000dB,9.00007018370925e+001°)
5.01187233627276e+010	(-1.15472222892011e+001dB,9.00005574890326e+001°)
6.30957344480198e+010	(-1.35472222888003e+001dB,9.00004428292861e+001°)
7.94328234724287e+010	(-1.55472222885473e+001dB,9.00003517518086e+001°)
1.00000000000000e+011	(-1.75472222883877e+001dB,9.00002794063949e+001°)
