v3	V(vout)	V(vsensor)
1.000000000000000e-001	-4.415220e-001	1.000000e-001
1.010000000000000e-001	-4.415303e-001	1.010000e-001
1.020000000000000e-001	-4.415386e-001	1.020000e-001
1.030000000000000e-001	-4.415469e-001	1.030000e-001
1.040000000000000e-001	-4.415552e-001	1.040000e-001
1.050000000000000e-001	-4.415635e-001	1.050000e-001
1.060000000000000e-001	-4.415718e-001	1.060000e-001
1.070000000000000e-001	-4.415801e-001	1.070000e-001
1.080000000000000e-001	-4.415885e-001	1.080000e-001
1.090000000000000e-001	-4.415968e-001	1.090000e-001
1.100000000000000e-001	-4.416051e-001	1.100000e-001
1.110000000000000e-001	-4.416134e-001	1.110000e-001
1.120000000000000e-001	-4.416217e-001	1.120000e-001
1.130000000000000e-001	-4.416300e-001	1.130000e-001
1.140000000000000e-001	-4.416383e-001	1.140000e-001
1.150000000000000e-001	-4.416466e-001	1.150000e-001
1.160000000000000e-001	-4.416549e-001	1.160000e-001
1.170000000000000e-001	-4.416632e-001	1.170000e-001
1.180000000000000e-001	-4.416715e-001	1.180000e-001
1.190000000000000e-001	-4.416798e-001	1.190000e-001
1.200000000000000e-001	-4.416881e-001	1.200000e-001
1.210000000000000e-001	-4.416964e-001	1.210000e-001
1.220000000000000e-001	-4.417047e-001	1.220000e-001
1.230000000000000e-001	-4.417129e-001	1.230000e-001
1.240000000000000e-001	-4.417212e-001	1.240000e-001
1.250000000000000e-001	-4.417295e-001	1.250000e-001
1.260000000000000e-001	-4.417378e-001	1.260000e-001
1.270000000000000e-001	-4.417461e-001	1.270000e-001
1.280000000000000e-001	-4.417544e-001	1.280000e-001
1.290000000000000e-001	-4.417627e-001	1.290000e-001
1.300000000000000e-001	-4.417709e-001	1.300000e-001
1.310000000000000e-001	-4.417792e-001	1.310000e-001
1.320000000000000e-001	-4.417875e-001	1.320000e-001
1.330000000000000e-001	-4.417958e-001	1.330000e-001
1.340000000000000e-001	-4.418041e-001	1.340000e-001
1.350000000000000e-001	-4.418123e-001	1.350000e-001
1.360000000000000e-001	-4.418206e-001	1.360000e-001
1.370000000000000e-001	-4.418289e-001	1.370000e-001
1.380000000000000e-001	-4.418372e-001	1.380000e-001
1.390000000000000e-001	-4.418454e-001	1.390000e-001
1.400000000000000e-001	-4.418537e-001	1.400000e-001
1.410000000000000e-001	-4.418620e-001	1.410000e-001
1.420000000000000e-001	-4.418702e-001	1.420000e-001
1.430000000000000e-001	-4.418785e-001	1.430000e-001
1.440000000000000e-001	-4.418868e-001	1.440000e-001
1.450000000000001e-001	-4.418950e-001	1.450000e-001
1.460000000000001e-001	-4.419033e-001	1.460000e-001
1.470000000000001e-001	-4.419115e-001	1.470000e-001
1.480000000000001e-001	-4.419198e-001	1.480000e-001
1.490000000000001e-001	-4.419281e-001	1.490000e-001
1.500000000000001e-001	-4.419363e-001	1.500000e-001
1.510000000000001e-001	-4.419446e-001	1.510000e-001
1.520000000000001e-001	-4.419528e-001	1.520000e-001
1.530000000000001e-001	-4.419611e-001	1.530000e-001
1.540000000000001e-001	-4.419693e-001	1.540000e-001
1.550000000000001e-001	-4.419776e-001	1.550000e-001
1.560000000000001e-001	-4.419858e-001	1.560000e-001
1.570000000000001e-001	-4.419941e-001	1.570000e-001
1.580000000000001e-001	-4.420023e-001	1.580000e-001
1.590000000000001e-001	-4.420106e-001	1.590000e-001
1.600000000000001e-001	-4.420188e-001	1.600000e-001
1.610000000000001e-001	-4.420271e-001	1.610000e-001
1.620000000000001e-001	-4.420353e-001	1.620000e-001
1.630000000000001e-001	-4.420435e-001	1.630000e-001
1.640000000000001e-001	-4.420518e-001	1.640000e-001
1.650000000000001e-001	-4.420600e-001	1.650000e-001
1.660000000000001e-001	-4.420683e-001	1.660000e-001
1.670000000000001e-001	-4.420765e-001	1.670000e-001
1.680000000000001e-001	-4.420847e-001	1.680000e-001
1.690000000000001e-001	-4.420930e-001	1.690000e-001
1.700000000000001e-001	-4.421012e-001	1.700000e-001
1.710000000000001e-001	-4.421094e-001	1.710000e-001
1.720000000000001e-001	-4.421177e-001	1.720000e-001
1.730000000000001e-001	-4.421259e-001	1.730000e-001
1.740000000000001e-001	-4.421341e-001	1.740000e-001
1.750000000000001e-001	-4.421424e-001	1.750000e-001
1.760000000000001e-001	-4.421506e-001	1.760000e-001
1.770000000000001e-001	-4.421588e-001	1.770000e-001
1.780000000000001e-001	-4.421670e-001	1.780000e-001
1.790000000000001e-001	-4.421753e-001	1.790000e-001
1.800000000000001e-001	-4.421835e-001	1.800000e-001
1.810000000000001e-001	-4.421917e-001	1.810000e-001
1.820000000000001e-001	-4.421999e-001	1.820000e-001
1.830000000000001e-001	-4.422081e-001	1.830000e-001
1.840000000000001e-001	-4.422163e-001	1.840000e-001
1.850000000000001e-001	-4.422246e-001	1.850000e-001
1.860000000000001e-001	-4.422328e-001	1.860000e-001
1.870000000000001e-001	-4.422410e-001	1.870000e-001
1.880000000000001e-001	-4.422492e-001	1.880000e-001
1.890000000000001e-001	-4.422574e-001	1.890000e-001
1.900000000000001e-001	-4.422656e-001	1.900000e-001
1.910000000000001e-001	-4.422738e-001	1.910000e-001
1.920000000000001e-001	-4.422821e-001	1.920000e-001
1.930000000000001e-001	-4.422902e-001	1.930000e-001
1.940000000000001e-001	-4.422984e-001	1.940000e-001
1.950000000000001e-001	-4.423066e-001	1.950000e-001
1.960000000000001e-001	-4.423149e-001	1.960000e-001
1.970000000000001e-001	-4.423231e-001	1.970000e-001
1.980000000000001e-001	-4.423313e-001	1.980000e-001
1.990000000000001e-001	-4.423395e-001	1.990000e-001
2.000000000000001e-001	-4.423476e-001	2.000000e-001
2.010000000000001e-001	-4.423558e-001	2.010000e-001
2.020000000000001e-001	-4.423640e-001	2.020000e-001
2.030000000000001e-001	-4.423722e-001	2.030000e-001
2.040000000000001e-001	-4.423804e-001	2.040000e-001
2.050000000000001e-001	-4.423886e-001	2.050000e-001
2.060000000000001e-001	-4.423968e-001	2.060000e-001
2.070000000000001e-001	-4.424050e-001	2.070000e-001
2.080000000000001e-001	-4.424132e-001	2.080000e-001
2.090000000000001e-001	-4.424214e-001	2.090000e-001
2.100000000000001e-001	-4.424295e-001	2.100000e-001
2.110000000000001e-001	-4.424377e-001	2.110000e-001
2.120000000000001e-001	-4.424459e-001	2.120000e-001
2.130000000000001e-001	-4.424541e-001	2.130000e-001
2.140000000000001e-001	-4.424623e-001	2.140000e-001
2.150000000000001e-001	-4.424705e-001	2.150000e-001
2.160000000000001e-001	-4.424787e-001	2.160000e-001
2.170000000000001e-001	-4.424868e-001	2.170000e-001
2.180000000000001e-001	-4.424950e-001	2.180000e-001
2.190000000000001e-001	-4.425032e-001	2.190000e-001
2.200000000000001e-001	-4.425113e-001	2.200000e-001
2.210000000000001e-001	-4.425195e-001	2.210000e-001
2.220000000000001e-001	-4.425277e-001	2.220000e-001
2.230000000000001e-001	-4.425358e-001	2.230000e-001
2.240000000000001e-001	-4.425440e-001	2.240000e-001
2.250000000000001e-001	-4.425522e-001	2.250000e-001
2.260000000000001e-001	-4.425604e-001	2.260000e-001
2.270000000000001e-001	-4.425685e-001	2.270000e-001
2.280000000000001e-001	-4.425767e-001	2.280000e-001
2.290000000000001e-001	-4.425849e-001	2.290000e-001
2.300000000000001e-001	-4.425930e-001	2.300000e-001
2.310000000000001e-001	-4.426012e-001	2.310000e-001
2.320000000000001e-001	-4.426093e-001	2.320000e-001
2.330000000000001e-001	-4.426175e-001	2.330000e-001
2.340000000000001e-001	-4.426256e-001	2.340000e-001
2.350000000000001e-001	-4.426338e-001	2.350000e-001
2.360000000000001e-001	-4.426420e-001	2.360000e-001
2.370000000000001e-001	-4.426501e-001	2.370000e-001
2.380000000000001e-001	-4.426583e-001	2.380000e-001
2.390000000000001e-001	-4.426664e-001	2.390000e-001
2.400000000000001e-001	-4.426746e-001	2.400000e-001
2.410000000000001e-001	-4.426827e-001	2.410000e-001
2.420000000000001e-001	-4.426909e-001	2.420000e-001
2.430000000000001e-001	-4.426990e-001	2.430000e-001
2.440000000000001e-001	-4.427072e-001	2.440000e-001
2.450000000000001e-001	-4.427153e-001	2.450000e-001
2.460000000000001e-001	-4.427235e-001	2.460000e-001
2.470000000000001e-001	-4.427316e-001	2.470000e-001
2.480000000000001e-001	-4.427397e-001	2.480000e-001
2.490000000000001e-001	-4.427479e-001	2.490000e-001
2.500000000000001e-001	-4.427560e-001	2.500000e-001
2.510000000000001e-001	-4.427642e-001	2.510000e-001
2.520000000000001e-001	-4.427723e-001	2.520000e-001
2.530000000000001e-001	-4.427804e-001	2.530000e-001
2.540000000000001e-001	-4.427886e-001	2.540000e-001
2.550000000000001e-001	-4.427967e-001	2.550000e-001
2.560000000000001e-001	-4.428048e-001	2.560000e-001
2.570000000000001e-001	-4.428129e-001	2.570000e-001
2.580000000000001e-001	-4.428211e-001	2.580000e-001
2.590000000000001e-001	-4.428292e-001	2.590000e-001
2.600000000000001e-001	-4.428373e-001	2.600000e-001
2.610000000000001e-001	-4.428455e-001	2.610000e-001
2.620000000000001e-001	-4.428536e-001	2.620000e-001
2.630000000000001e-001	-4.428617e-001	2.630000e-001
2.640000000000001e-001	-4.428698e-001	2.640000e-001
2.650000000000001e-001	-4.428779e-001	2.650000e-001
2.660000000000001e-001	-4.428861e-001	2.660000e-001
2.670000000000001e-001	-4.428942e-001	2.670000e-001
2.680000000000001e-001	-4.429023e-001	2.680000e-001
2.690000000000001e-001	-4.429104e-001	2.690000e-001
2.700000000000001e-001	-4.429185e-001	2.700000e-001
2.710000000000001e-001	-4.429266e-001	2.710000e-001
2.720000000000001e-001	-4.429348e-001	2.720000e-001
2.730000000000001e-001	-4.429429e-001	2.730000e-001
2.740000000000001e-001	-4.429510e-001	2.740000e-001
2.750000000000001e-001	-4.429591e-001	2.750000e-001
2.760000000000001e-001	-4.429672e-001	2.760000e-001
2.770000000000001e-001	-4.429753e-001	2.770000e-001
2.780000000000001e-001	-4.429834e-001	2.780000e-001
2.790000000000001e-001	-4.429915e-001	2.790000e-001
2.800000000000001e-001	-4.429996e-001	2.800000e-001
2.810000000000001e-001	-4.430077e-001	2.810000e-001
2.820000000000001e-001	-4.430158e-001	2.820000e-001
2.830000000000001e-001	-4.430239e-001	2.830000e-001
2.840000000000001e-001	-4.430321e-001	2.840000e-001
2.850000000000001e-001	-4.430401e-001	2.850000e-001
2.860000000000001e-001	-4.430482e-001	2.860000e-001
2.870000000000001e-001	-4.430563e-001	2.870000e-001
2.880000000000001e-001	-4.430644e-001	2.880000e-001
2.890000000000002e-001	-4.430725e-001	2.890000e-001
2.900000000000002e-001	-4.430806e-001	2.900000e-001
2.910000000000002e-001	-4.430887e-001	2.910000e-001
2.920000000000002e-001	-4.430968e-001	2.920000e-001
2.930000000000002e-001	-4.431049e-001	2.930000e-001
2.940000000000002e-001	-4.431130e-001	2.940000e-001
2.950000000000002e-001	-4.431211e-001	2.950000e-001
2.960000000000002e-001	-4.431292e-001	2.960000e-001
2.970000000000002e-001	-4.431372e-001	2.970000e-001
2.980000000000002e-001	-4.431453e-001	2.980000e-001
2.990000000000002e-001	-4.431534e-001	2.990000e-001
3.000000000000002e-001	-4.431615e-001	3.000000e-001
3.010000000000002e-001	-4.431696e-001	3.010000e-001
3.020000000000002e-001	-4.431776e-001	3.020000e-001
3.030000000000002e-001	-4.431857e-001	3.030000e-001
3.040000000000002e-001	-4.431938e-001	3.040000e-001
3.050000000000002e-001	-4.432019e-001	3.050000e-001
3.060000000000002e-001	-4.432099e-001	3.060000e-001
3.070000000000002e-001	-4.432180e-001	3.070000e-001
3.080000000000002e-001	-4.432260e-001	3.080000e-001
3.090000000000002e-001	-4.432339e-001	3.090000e-001
3.100000000000002e-001	-4.432417e-001	3.100000e-001
3.110000000000002e-001	-4.432494e-001	3.110000e-001
3.120000000000002e-001	-4.432569e-001	3.120000e-001
3.130000000000002e-001	-4.432644e-001	3.130000e-001
3.140000000000002e-001	-4.432717e-001	3.140000e-001
3.150000000000002e-001	-4.432790e-001	3.150000e-001
3.160000000000002e-001	-4.432861e-001	3.160000e-001
3.170000000000002e-001	-4.432932e-001	3.170000e-001
3.180000000000002e-001	-4.433001e-001	3.180000e-001
3.190000000000002e-001	-4.433069e-001	3.190000e-001
3.200000000000002e-001	-4.433136e-001	3.200000e-001
3.210000000000002e-001	-4.433202e-001	3.210000e-001
3.220000000000002e-001	-4.433267e-001	3.220000e-001
3.230000000000002e-001	-4.433330e-001	3.230000e-001
3.240000000000002e-001	-4.433392e-001	3.240000e-001
3.250000000000002e-001	-4.433452e-001	3.250000e-001
3.260000000000002e-001	-4.433510e-001	3.260000e-001
3.270000000000002e-001	-4.433567e-001	3.270000e-001
3.280000000000002e-001	-4.433621e-001	3.280000e-001
3.290000000000002e-001	-4.433673e-001	3.290000e-001
3.300000000000002e-001	-4.433722e-001	3.300000e-001
3.310000000000002e-001	-4.433767e-001	3.310000e-001
3.320000000000002e-001	-4.433809e-001	3.320000e-001
3.330000000000002e-001	-4.433846e-001	3.330000e-001
3.340000000000002e-001	-4.433876e-001	3.340000e-001
3.350000000000002e-001	-4.433899e-001	3.350000e-001
3.360000000000002e-001	-4.433911e-001	3.360000e-001
3.370000000000002e-001	-4.433908e-001	3.370000e-001
3.380000000000002e-001	-4.433881e-001	3.380000e-001
3.390000000000002e-001	-4.433813e-001	3.390000e-001
3.400000000000002e-001	-4.433646e-001	3.400000e-001
3.410000000000002e-001	-4.432909e-001	3.410000e-001
3.420000000000002e-001	-4.004466e-001	3.420000e-001
3.430000000000002e-001	-3.504744e-001	3.430000e-001
3.440000000000002e-001	-3.004895e-001	3.440000e-001
3.450000000000002e-001	-2.505024e-001	3.450000e-001
3.460000000000002e-001	-2.005151e-001	3.460000e-001
3.470000000000002e-001	-1.505276e-001	3.470000e-001
3.480000000000002e-001	-1.005402e-001	3.480000e-001
3.490000000000002e-001	-5.055278e-002	3.490000e-001
3.500000000000002e-001	-5.653480e-004	3.500000e-001
3.510000000000002e-001	4.942209e-002	3.510000e-001
3.520000000000002e-001	9.940951e-002	3.520000e-001
3.530000000000002e-001	1.493969e-001	3.530000e-001
3.540000000000002e-001	1.993844e-001	3.540000e-001
3.550000000000002e-001	2.493718e-001	3.550000e-001
3.560000000000002e-001	2.993592e-001	3.560000e-001
3.570000000000002e-001	3.493467e-001	3.570000e-001
3.580000000000002e-001	3.993341e-001	3.580000e-001
3.590000000000002e-001	4.493215e-001	3.590000e-001
3.600000000000002e-001	4.993090e-001	3.600000e-001
3.610000000000002e-001	5.492964e-001	3.610000e-001
3.620000000000002e-001	5.992838e-001	3.620000e-001
3.630000000000002e-001	6.492712e-001	3.630000e-001
3.640000000000002e-001	6.992587e-001	3.640000e-001
3.650000000000002e-001	7.492461e-001	3.650000e-001
3.660000000000002e-001	7.992336e-001	3.660000e-001
3.670000000000002e-001	8.492210e-001	3.670000e-001
3.680000000000002e-001	8.992084e-001	3.680000e-001
3.690000000000002e-001	9.491959e-001	3.690000e-001
3.700000000000002e-001	9.991833e-001	3.700000e-001
3.710000000000002e-001	1.049171e+000	3.710000e-001
3.720000000000002e-001	1.099158e+000	3.720000e-001
3.730000000000002e-001	1.149146e+000	3.730000e-001
3.740000000000002e-001	1.199133e+000	3.740000e-001
3.750000000000002e-001	1.249120e+000	3.750000e-001
3.760000000000002e-001	1.299108e+000	3.760000e-001
3.770000000000002e-001	1.349095e+000	3.770000e-001
3.780000000000002e-001	1.399083e+000	3.780000e-001
3.790000000000002e-001	1.449070e+000	3.790000e-001
3.800000000000002e-001	1.499058e+000	3.800000e-001
3.810000000000002e-001	1.549045e+000	3.810000e-001
3.820000000000002e-001	1.599033e+000	3.820000e-001
3.830000000000002e-001	1.649020e+000	3.830000e-001
3.840000000000002e-001	1.699007e+000	3.840000e-001
3.850000000000002e-001	1.748995e+000	3.850000e-001
3.860000000000002e-001	1.798982e+000	3.860000e-001
3.870000000000002e-001	1.848970e+000	3.870000e-001
3.880000000000002e-001	1.898957e+000	3.880000e-001
3.890000000000002e-001	1.948944e+000	3.890000e-001
3.900000000000002e-001	1.998932e+000	3.900000e-001
3.910000000000002e-001	2.048919e+000	3.910000e-001
3.920000000000002e-001	2.098907e+000	3.920000e-001
3.930000000000002e-001	2.148894e+000	3.930000e-001
3.940000000000002e-001	2.198882e+000	3.940000e-001
3.950000000000002e-001	2.248869e+000	3.950000e-001
3.960000000000002e-001	2.298856e+000	3.960000e-001
3.970000000000002e-001	2.348844e+000	3.970000e-001
3.980000000000002e-001	2.398831e+000	3.980000e-001
3.990000000000002e-001	2.448819e+000	3.990000e-001
4.000000000000002e-001	2.498806e+000	4.000000e-001
4.010000000000003e-001	2.548794e+000	4.010000e-001
4.020000000000003e-001	2.598781e+000	4.020000e-001
4.030000000000003e-001	2.648769e+000	4.030000e-001
4.040000000000003e-001	2.698756e+000	4.040000e-001
4.050000000000003e-001	2.748744e+000	4.050000e-001
4.060000000000003e-001	2.798731e+000	4.060000e-001
4.070000000000003e-001	2.848718e+000	4.070000e-001
4.080000000000003e-001	2.898706e+000	4.080000e-001
4.090000000000003e-001	2.948693e+000	4.090000e-001
4.100000000000003e-001	2.998681e+000	4.100000e-001
4.110000000000003e-001	3.048668e+000	4.110000e-001
4.120000000000003e-001	3.098655e+000	4.120000e-001
4.130000000000003e-001	3.148643e+000	4.130000e-001
4.140000000000003e-001	3.198630e+000	4.140000e-001
4.150000000000003e-001	3.248618e+000	4.150000e-001
4.160000000000003e-001	3.298605e+000	4.160000e-001
4.170000000000003e-001	3.348593e+000	4.170000e-001
4.180000000000003e-001	3.398580e+000	4.180000e-001
4.190000000000003e-001	3.448567e+000	4.190000e-001
4.200000000000003e-001	3.498555e+000	4.200000e-001
4.210000000000003e-001	3.548542e+000	4.210000e-001
4.220000000000003e-001	3.598530e+000	4.220000e-001
4.230000000000003e-001	3.648517e+000	4.230000e-001
4.240000000000003e-001	3.698505e+000	4.240000e-001
4.250000000000003e-001	3.748492e+000	4.250000e-001
4.260000000000003e-001	3.798480e+000	4.260000e-001
4.270000000000003e-001	3.848467e+000	4.270000e-001
4.280000000000003e-001	3.898454e+000	4.280000e-001
4.290000000000003e-001	3.948442e+000	4.290000e-001
4.300000000000003e-001	3.998429e+000	4.300000e-001
4.310000000000003e-001	4.048417e+000	4.310000e-001
4.320000000000003e-001	4.098404e+000	4.320000e-001
4.330000000000003e-001	4.148392e+000	4.330000e-001
4.340000000000003e-001	4.198379e+000	4.340000e-001
4.350000000000003e-001	4.248366e+000	4.350000e-001
4.360000000000003e-001	4.298354e+000	4.360000e-001
4.370000000000003e-001	4.348341e+000	4.370000e-001
4.380000000000003e-001	4.398329e+000	4.380000e-001
4.390000000000003e-001	4.448316e+000	4.390000e-001
4.400000000000003e-001	4.498303e+000	4.400000e-001
4.410000000000003e-001	4.548291e+000	4.410000e-001
4.420000000000003e-001	4.598279e+000	4.420000e-001
4.430000000000003e-001	4.648266e+000	4.430000e-001
4.440000000000003e-001	4.698253e+000	4.440000e-001
4.450000000000003e-001	4.748240e+000	4.450000e-001
4.460000000000003e-001	4.798228e+000	4.460000e-001
4.470000000000003e-001	4.848216e+000	4.470000e-001
4.480000000000003e-001	4.898203e+000	4.480000e-001
4.490000000000003e-001	4.948190e+000	4.490000e-001
4.500000000000003e-001	4.998178e+000	4.500000e-001
4.510000000000003e-001	5.048165e+000	4.510000e-001
4.520000000000003e-001	5.098153e+000	4.520000e-001
4.530000000000003e-001	5.148140e+000	4.530000e-001
4.540000000000003e-001	5.198128e+000	4.540000e-001
4.550000000000003e-001	5.248115e+000	4.550000e-001
4.560000000000003e-001	5.298102e+000	4.560000e-001
4.570000000000003e-001	5.348090e+000	4.570000e-001
4.580000000000003e-001	5.398077e+000	4.580000e-001
4.590000000000003e-001	5.448064e+000	4.590000e-001
4.600000000000003e-001	5.498052e+000	4.600000e-001
4.610000000000003e-001	5.548038e+000	4.610000e-001
4.620000000000003e-001	5.598024e+000	4.620000e-001
4.630000000000003e-001	5.648010e+000	4.630000e-001
4.640000000000003e-001	5.697993e+000	4.640000e-001
4.650000000000003e-001	5.747972e+000	4.650000e-001
4.660000000000003e-001	5.797945e+000	4.660000e-001
4.670000000000003e-001	5.847908e+000	4.670000e-001
4.680000000000003e-001	5.859849e+000	4.680000e-001
4.690000000000003e-001	5.859910e+000	4.690000e-001
4.700000000000003e-001	5.859933e+000	4.700000e-001
4.710000000000003e-001	5.859943e+000	4.710000e-001
4.720000000000003e-001	5.859946e+000	4.720000e-001
4.730000000000003e-001	5.859944e+000	4.730000e-001
4.740000000000003e-001	5.859939e+000	4.740000e-001
4.750000000000003e-001	5.859932e+000	4.750000e-001
4.760000000000003e-001	5.859924e+000	4.760000e-001
4.770000000000003e-001	5.859914e+000	4.770000e-001
4.780000000000003e-001	5.859903e+000	4.780000e-001
4.790000000000003e-001	5.859892e+000	4.790000e-001
4.800000000000003e-001	5.859879e+000	4.800000e-001
4.810000000000003e-001	5.859867e+000	4.810000e-001
4.820000000000003e-001	5.859853e+000	4.820000e-001
4.830000000000003e-001	5.859839e+000	4.830000e-001
4.840000000000003e-001	5.859825e+000	4.840000e-001
4.850000000000003e-001	5.859809e+000	4.850000e-001
