Freq.	V(vout)/V(vin)
Step Information: Run=1  (Run: 1/18)
1.00000000000000e+001	(3.86555120855214e+001dB,-4.97762340140114e-003°)
1.02329299228075e+001	(3.86555120840026e+001dB,-5.09356714427779e-003°)
1.04712854805090e+001	(3.86555120824123e+001dB,-5.21221156382018e-003°)
1.07151930523761e+001	(3.86555120807470e+001dB,-5.33361956686602e-003°)
1.09647819614319e+001	(3.86555120790032e+001dB,-5.45785552554128e-003°)
1.12201845430196e+001	(3.86555120771773e+001dB,-5.58498531139116e-003°)
1.14815362149688e+001	(3.86555120752652e+001dB,-5.71507633030600e-003°)
1.17489755493953e+001	(3.86555120732631e+001dB,-5.84819755826075e-003°)
1.20226443461741e+001	(3.86555120711667e+001dB,-5.98441957788691e-003°)
1.23026877081238e+001	(3.86555120689714e+001dB,-6.12381461589643e-003°)
1.25892541179417e+001	(3.86555120666726e+001dB,-6.26645658137712e-003°)
1.28824955169313e+001	(3.86555120642655e+001dB,-6.41242110498026e-003°)
1.31825673855641e+001	(3.86555120617450e+001dB,-6.56178557902095e-003°)
1.34896288259165e+001	(3.86555120591057e+001dB,-6.71462919851247e-003°)
1.38038426460288e+001	(3.86555120563420e+001dB,-6.87103300315653e-003°)
1.41253754462275e+001	(3.86555120534481e+001dB,-7.03107992031148e-003°)
1.44543977074593e+001	(3.86555120504177e+001dB,-7.19485480896155e-003°)
1.47910838816821e+001	(3.86555120472446e+001dB,-7.36244450471008e-003°)
1.51356124843621e+001	(3.86555120439219e+001dB,-7.53393786582086e-003°)
1.54881661891248e+001	(3.86555120404426e+001dB,-7.70942582033196e-003°)
1.58489319246111e+001	(3.86555120367994e+001dB,-7.88900141426687e-003°)
1.62181009735893e+001	(3.86555120329844e+001dB,-8.07275986096869e-003°)
1.65958690743756e+001	(3.86555120289896e+001dB,-8.26079859158345e-003°)
1.69824365246174e+001	(3.86555120248066e+001dB,-8.45321730671932e-003°)
1.73780082874937e+001	(3.86555120204265e+001dB,-8.65011802930907e-003°)
1.77827941003892e+001	(3.86555120158399e+001dB,-8.85160515870398e-003°)
1.81970085860998e+001	(3.86555120110371e+001dB,-9.05778552602759e-003°)
1.86208713666287e+001	(3.86555120060080e+001dB,-9.26876845081897e-003°)
1.90546071796325e+001	(3.86555120007419e+001dB,-9.48466579899520e-003°)
1.94984459975804e+001	(3.86555119952276e+001dB,-9.70559204216410e-003°)
1.99526231496888e+001	(3.86555119894534e+001dB,-9.93166431831849e-003°)
2.04173794466953e+001	(3.86555119834071e+001dB,-1.01630024939441e-002°)
2.08929613085404e+001	(3.86555119770758e+001dB,-1.03997292275744e-002°)
2.13796208950223e+001	(3.86555119704462e+001dB,-1.06419700348255e-002°)
2.18776162394955e+001	(3.86555119635041e+001dB,-1.08898533549459e-002°)
2.23872113856834e+001	(3.86555119562348e+001dB,-1.11435106189171e-002°)
2.29086765276777e+001	(3.86555119486230e+001dB,-1.14030763191390e-002°)
2.34422881531992e+001	(3.86555119406524e+001dB,-1.16686880807401e-002°)
2.39883291901949e+001	(3.86555119323062e+001dB,-1.19404867345477e-002°)
2.45470891568503e+001	(3.86555119235666e+001dB,-1.22186163917580e-002°)
2.51188643150958e+001	(3.86555119144152e+001dB,-1.25032245203456e-002°)
2.57039578276886e+001	(3.86555119048324e+001dB,-1.27944620232527e-002°)
2.63026799189538e+001	(3.86555118947980e+001dB,-1.30924833183996e-002°)
2.69153480392691e+001	(3.86555118842908e+001dB,-1.33974464205589e-002°)
2.75422870333816e+001	(3.86555118732883e+001dB,-1.37095130251366e-002°)
2.81838293126445e+001	(3.86555118617673e+001dB,-1.40288485939049e-002°)
2.88403150312660e+001	(3.86555118497033e+001dB,-1.43556224427318e-002°)
2.95120922666638e+001	(3.86555118370708e+001dB,-1.46900078313545e-002°)
3.01995172040201e+001	(3.86555118238429e+001dB,-1.50321820552432e-002°)
3.09029543251359e+001	(3.86555118099916e+001dB,-1.53823265396054e-002°)
3.16227766016838e+001	(3.86555117954875e+001dB,-1.57406269355795e-002°)
3.23593656929628e+001	(3.86555117802999e+001dB,-1.61072732186687e-002°)
3.31131121482591e+001	(3.86555117643965e+001dB,-1.64824597894683e-002°)
3.38844156139202e+001	(3.86555117477436e+001dB,-1.68663855767388e-002°)
3.46736850452531e+001	(3.86555117303058e+001dB,-1.72592541428799e-002°)
3.54813389233575e+001	(3.86555117120463e+001dB,-1.76612737918616e-002°)
3.63078054770101e+001	(3.86555116929262e+001dB,-1.80726576796686e-002°)
3.71535229097172e+001	(3.86555116729050e+001dB,-1.84936239273182e-002°)
3.80189396320561e+001	(3.86555116519402e+001dB,-1.89243957365096e-002°)
3.89045144994280e+001	(3.86555116299874e+001dB,-1.93652015079680e-002°)
3.98107170553497e+001	(3.86555116070000e+001dB,-1.98162749625447e-002°)
4.07380277804112e+001	(3.86555115829292e+001dB,-2.02778552651377e-002°)
4.16869383470335e+001	(3.86555115577240e+001dB,-2.07501871514996e-002°)
4.26579518801592e+001	(3.86555115313309e+001dB,-2.12335210579981e-002°)
4.36515832240165e+001	(3.86555115036939e+001dB,-2.17281132543996e-002°)
4.46683592150962e+001	(3.86555114747545e+001dB,-2.22342259797460e-002°)
4.57088189614874e+001	(3.86555114444512e+001dB,-2.27521275813952e-002°)
4.67735141287197e+001	(3.86555114127197e+001dB,-2.32820926573014e-002°)
4.78630092322638e+001	(3.86555113794928e+001dB,-2.38244022016092e-002°)
4.89778819368445e+001	(3.86555113446999e+001dB,-2.43793437536381e-002°)
5.01187233627271e+001	(3.86555113082673e+001dB,-2.49472115503383e-002°)
5.12861383991364e+001	(3.86555112701177e+001dB,-2.55283066822970e-002°)
5.24807460249772e+001	(3.86555112301702e+001dB,-2.61229372533787e-002°)
5.37031796370252e+001	(3.86555111883399e+001dB,-2.67314185440830e-002°)
5.49540873857624e+001	(3.86555111445383e+001dB,-2.73540731787092e-002°)
5.62341325190348e+001	(3.86555110986724e+001dB,-2.79912312964126e-002°)
5.75439937337156e+001	(3.86555110506449e+001dB,-2.86432307262462e-002°)
5.88843655355588e+001	(3.86555110003539e+001dB,-2.93104171662790e-002°)
6.02559586074357e+001	(3.86555109476928e+001dB,-2.99931443668871e-002°)
6.16595001861481e+001	(3.86555108925498e+001dB,-3.06917743183129e-002°)
6.30957344480192e+001	(3.86555108348080e+001dB,-3.14066774425934e-002°)
6.45654229034654e+001	(3.86555107743450e+001dB,-3.21382327899598e-002°)
6.60693448007595e+001	(3.86555107110324e+001dB,-3.28868282398099e-002°)
6.76082975391980e+001	(3.86555106447360e+001dB,-3.36528607063630e-002°)
6.91830970918935e+001	(3.86555105753151e+001dB,-3.44367363491041e-002°)
7.07945784384136e+001	(3.86555105026225e+001dB,-3.52388707881301e-002°)
7.24435960074988e+001	(3.86555104265040e+001dB,-3.60596893245113e-002°)
7.41310241300916e+001	(3.86555103467982e+001dB,-3.68996271657861e-002°)
7.58577575029182e+001	(3.86555102633359e+001dB,-3.77591296567075e-002°)
7.76247116628690e+001	(3.86555101759403e+001dB,-3.86386525153639e-002°)
7.94328234724279e+001	(3.86555100844257e+001dB,-3.95386620747999e-002°)
8.12830516164097e+001	(3.86555099885982e+001dB,-4.04596355302639e-002°)
8.31763771102669e+001	(3.86555098882546e+001dB,-4.14020611922162e-002°)
8.51138038202374e+001	(3.86555097831818e+001dB,-4.23664387452276e-002°)
8.70963589956078e+001	(3.86555096731572e+001dB,-4.33532795129103e-002°)
8.91250938133743e+001	(3.86555095579472e+001dB,-4.43631067290173e-002°)
9.12010839355907e+001	(3.86555094373076e+001dB,-4.53964558148578e-002°)
9.33254300796988e+001	(3.86555093109824e+001dB,-4.64538746631725e-002°)
9.54992586021433e+001	(3.86555091787037e+001dB,-4.75359239286214e-002°)
9.77237220955808e+001	(3.86555090401909e+001dB,-4.86431773250364e-002°)
9.99999999999997e+001	(3.86555088951502e+001dB,-4.97762219295980e-002°)
1.02329299228075e+002	(3.86555087432739e+001dB,-5.09356584940961e-002°)
1.04712854805090e+002	(3.86555085842399e+001dB,-5.21221017634396e-002°)
1.07151930523760e+002	(3.86555084177109e+001dB,-5.33361808015849e-002°)
1.09647819614318e+002	(3.86555082433336e+001dB,-5.45785393250551e-002°)
1.12201845430196e+002	(3.86555080607382e+001dB,-5.58498360442262e-002°)
1.14815362149688e+002	(3.86555078695374e+001dB,-5.71507450125630e-002°)
1.17489755493953e+002	(3.86555076693255e+001dB,-5.84819559839873e-002°)
1.20226443461741e+002	(3.86555074596780e+001dB,-5.98441747785701e-002°)
1.23026877081238e+002	(3.86555072401501e+001dB,-6.12381236567391e-002°)
1.25892541179416e+002	(3.86555070102761e+001dB,-6.26645417022033e-002°)
1.28824955169313e+002	(3.86555067695686e+001dB,-6.41241852137929e-002°)
1.31825673855640e+002	(3.86555065175168e+001dB,-6.56178281064272e-002°)
1.34896288259165e+002	(3.86555062535863e+001dB,-6.71462623214188e-002°)
1.38038426460288e+002	(3.86555059772171e+001dB,-6.87102982463329e-002°)
1.41253754462275e+002	(3.86555056878230e+001dB,-7.03107651446262e-002°)
1.44543977074592e+002	(3.86555053847902e+001dB,-7.19485115952890e-002°)
1.47910838816820e+002	(3.86555050674760e+001dB,-7.36244059427272e-002°)
1.51356124843620e+002	(3.86555047352072e+001dB,-7.53393367571193e-002°)
1.54881661891248e+002	(3.86555043872791e+001dB,-7.70942133054957e-002°)
1.58489319246111e+002	(3.86555040229537e+001dB,-7.88899660337860e-002°)
1.62181009735892e+002	(3.86555036414582e+001dB,-8.07275470600932e-002°)
1.65958690743755e+002	(3.86555032419834e+001dB,-8.26079306794527e-002°)
1.69824365246174e+002	(3.86555028236820e+001dB,-8.45321138803471e-002°)
1.73780082874937e+002	(3.86555023856667e+001dB,-8.65011168732464e-002°)
1.77827941003892e+002	(3.86555019270084e+001dB,-8.85159836314566e-002°)
1.81970085860998e+002	(3.86555014467343e+001dB,-9.05777824445616e-002°)
1.86208713666286e+002	(3.86555009438256e+001dB,-9.26876064847516e-002°)
1.90546071796324e+002	(3.86555004172156e+001dB,-9.48465743863379e-002°)
1.94984459975804e+002	(3.86554998657873e+001dB,-9.70558308387614e-002°)
1.99526231496887e+002	(3.86554992883710e+001dB,-9.93165471934077e-002°)
2.04173794466952e+002	(3.86554986837421e+001dB,-1.01629922084551e-001°)
2.08929613085403e+002	(3.86554980506179e+001dB,-1.03997182064753e-001°)
2.13796208950222e+002	(3.86554973876557e+001dB,-1.06419582255061e-001°)
2.18776162394954e+002	(3.86554966934491e+001dB,-1.08898407010335e-001°)
2.23872113856833e+002	(3.86554959665256e+001dB,-1.11434970600069e-001°)
2.29086765276776e+002	(3.86554952053435e+001dB,-1.14030617905066e-001°)
2.34422881531991e+002	(3.86554944082881e+001dB,-1.16686725130318e-001°)
2.39883291901948e+002	(3.86554935736688e+001dB,-1.19404700534496e-001°)
2.45470891568502e+002	(3.86554926997152e+001dB,-1.22185985176416e-001°)
2.51188643150957e+002	(3.86554917845737e+001dB,-1.25032053678872e-001°)
2.57039578276885e+002	(3.86554908263031e+001dB,-1.27944415010266e-001°)
2.63026799189537e+002	(3.86554898228708e+001dB,-1.30924613284412e-001°)
2.69153480392690e+002	(3.86554887721485e+001dB,-1.33974228578974e-001°)
2.75422870333816e+002	(3.86554876719074e+001dB,-1.37094877772937e-001°)
2.81838293126444e+002	(3.86554865198138e+001dB,-1.40288215403582e-001°)
2.88403150312659e+002	(3.86554853134241e+001dB,-1.43555934543391e-001°)
2.95120922666637e+002	(3.86554840501794e+001dB,-1.46899767697376e-001°)
3.01995172040200e+002	(3.86554827274001e+001dB,-1.50321487721272e-001°)
3.09029543251358e+002	(3.86554813422806e+001dB,-1.53822908761110e-001°)
3.16227766016837e+002	(3.86554798918829e+001dB,-1.57405887214645e-001°)
3.23593656929627e+002	(3.86554783731306e+001dB,-1.61072322715154e-001°)
3.31131121482590e+002	(3.86554767828023e+001dB,-1.64824159138127e-001°)
3.38844156139201e+002	(3.86554751175248e+001dB,-1.68663385631377e-001°)
3.46736850452530e+002	(3.86554733737658e+001dB,-1.72592037669110e-001°)
3.54813389233574e+002	(3.86554715478267e+001dB,-1.76612198130522e-001°)
3.63078054770100e+002	(3.86554696358346e+001dB,-1.80725998403477e-001°)
3.71535229097171e+002	(3.86554676337340e+001dB,-1.84935619513865e-001°)
3.80189396320559e+002	(3.86554655372783e+001dB,-1.89243293281217e-001°)
3.89045144994279e+002	(3.86554633420207e+001dB,-1.93651303501202e-001°)
3.98107170553495e+002	(3.86554610433050e+001dB,-1.98161987155615e-001°)
4.07380277804111e+002	(3.86554586362556e+001dB,-2.02777735650508e-001°)
4.16869383470333e+002	(3.86554561157668e+001dB,-2.07500996083100e-001°)
4.26579518801591e+002	(3.86554534764925e+001dB,-2.12334272538149e-001°)
4.36515832240164e+002	(3.86554507128349e+001dB,-2.17280127414452e-001°)
4.46683592150961e+002	(3.86554478189319e+001dB,-2.22341182782183e-001°)
4.57088189614873e+002	(3.86554447886456e+001dB,-2.27520121771779e-001°)
4.67735141287196e+002	(3.86554416155485e+001dB,-2.32819689995095e-001°)
4.78630092322636e+002	(3.86554382929105e+001dB,-2.38242696999593e-001°)
4.89778819368444e+002	(3.86554348136841e+001dB,-2.43792017756312e-001°)
5.01187233627270e+002	(3.86554311704898e+001dB,-2.49470594182404e-001°)
5.12861383991362e+002	(3.86554273556003e+001dB,-2.55281436699039e-001°)
5.24807460249770e+002	(3.86554233609242e+001dB,-2.61227625825498e-001°)
5.37031796370250e+002	(3.86554191779887e+001dB,-2.67312313810271e-001°)
5.49540873857622e+002	(3.86554147979219e+001dB,-2.73538726300041e-001°)
5.62341325190346e+002	(3.86554102114337e+001dB,-2.79910164047409e-001°)
5.75439937337154e+002	(3.86554054087960e+001dB,-2.86430004658257e-001°)
5.88843655355586e+002	(3.86554003798228e+001dB,-2.93101704379665e-001°)
6.02559586074355e+002	(3.86553951138476e+001dB,-2.99928799929313e-001°)
6.16595001861479e+002	(3.86553895997014e+001dB,-3.06914910367334e-001°)
6.30957344480190e+002	(3.86553838256891e+001dB,-3.14063739011567e-001°)
6.45654229034652e+002	(3.86553777795641e+001dB,-3.21379075397248e-001°)
6.60693448007592e+002	(3.86553714485031e+001dB,-3.28864797282119e-001°)
6.76082975391978e+002	(3.86553648190783e+001dB,-3.36524872698031e-001°)
6.91830970918933e+002	(3.86553578772292e+001dB,-3.44363362050086e-001°)
7.07945784384134e+002	(3.86553506082326e+001dB,-3.52384420264416e-001°)
7.24435960074986e+002	(3.86553429966719e+001dB,-3.60592298985727e-001°)
7.41310241300914e+002	(3.86553350264036e+001dB,-3.68991348825710e-001°)
7.58577575029180e+002	(3.86553266805239e+001dB,-3.77586021663532e-001°)
7.76247116628688e+002	(3.86553179413322e+001dB,-3.86380872999552e-001°)
7.94328234724277e+002	(3.86553087902938e+001dB,-3.95380564363510e-001°)
8.12830516164095e+002	(3.86552992080010e+001dB,-4.04589865778417e-001°)
8.31763771102666e+002	(3.86552891741313e+001dB,-4.14013658281411e-001°)
8.51138038202372e+002	(3.86552786674047e+001dB,-4.23656936502894e-001°)
8.70963589956076e+002	(3.86552676655386e+001dB,-4.33524811305252e-001°)
8.91250938133741e+002	(3.86552561452004e+001dB,-4.43622512482539e-001°)
9.12010839355905e+002	(3.86552440819582e+001dB,-4.53955391522475e-001°)
9.33254300796986e+002	(3.86552314502287e+001dB,-4.64528924432203e-001°)
9.54992586021431e+002	(3.86552182232236e+001dB,-4.75348714629230e-001°)
9.77237220955805e+002	(3.86552043728921e+001dB,-4.86420495899018e-001°)
9.99999999999994e+002	(3.86551898698619e+001dB,-4.97750135420754e-001°)
1.02329299228075e+003	(3.86551746833768e+001dB,-5.09343636862810e-001°)
1.04712854805089e+003	(3.86551587812317e+001dB,-5.21207143549477e-001°)
1.07151930523760e+003	(3.86551421297039e+001dB,-5.33346941700555e-001°)
1.09647819614318e+003	(3.86551246934823e+001dB,-5.45769463745470e-001°)
1.12201845430196e+003	(3.86551064355918e+001dB,-5.58481291713528e-001°)
1.14815362149688e+003	(3.86550873173158e+001dB,-5.71489160702064e-001°)
1.17489755493952e+003	(3.86550672981133e+001dB,-5.84799962424183e-001°)
1.20226443461741e+003	(3.86550463355338e+001dB,-5.98420748837875e-001°)
1.23026877081237e+003	(3.86550243851268e+001dB,-6.12358735858320e-001°)
1.25892541179416e+003	(3.86550014003479e+001dB,-6.26621307155203e-001°)
1.28824955169313e+003	(3.86549773324600e+001dB,-6.41216018036931e-001°)
1.31825673855640e+003	(3.86549521304306e+001dB,-6.56150599423661e-001°)
1.34896288259165e+003	(3.86549257408227e+001dB,-6.71432961911089e-001°)
1.38038426460288e+003	(3.86548981076828e+001dB,-6.87071199926984e-001°)
1.41253754462275e+003	(3.86548691724216e+001dB,-7.03073595982494e-001°)
1.44543977074592e+003	(3.86548388736902e+001dB,-7.19448625020283e-001°)
1.47910838816820e+003	(3.86548071472500e+001dB,-7.36204958861608e-001°)
1.51356124843620e+003	(3.86547739258371e+001dB,-7.53351470754449e-001°)
1.54881661891247e+003	(3.86547391390197e+001dB,-7.70897240024893e-001°)
1.58489319246110e+003	(3.86547027130486e+001dB,-7.88851556833967e-001°)
1.62181009735892e+003	(3.86546645707018e+001dB,-8.07223927042180e-001°)
1.65958690743755e+003	(3.86546246311206e+001dB,-8.26024077184052e-001°)
1.69824365246173e+003	(3.86545828096385e+001dB,-8.45261959554965e-001°)
1.73780082874936e+003	(3.86545390176023e+001dB,-8.64947757412691e-001°)
1.77827941003891e+003	(3.86544931621843e+001dB,-8.85091890296002e-001°)
1.81970085860997e+003	(3.86544451461858e+001dB,-9.05705019462794e-001°)
1.86208713666286e+003	(3.86543948678319e+001dB,-9.26798053450195e-001°)
1.90546071796323e+003	(3.86543422205560e+001dB,-9.48382153759182e-001°)
1.94984459975803e+003	(3.86542870927743e+001dB,-9.70468740666217e-001°)
1.99526231496887e+003	(3.86542293676503e+001dB,-9.93069499164502e-001°)
2.04173794466952e+003	(3.86541689228472e+001dB,-1.01619638503746e+000°)
2.08929613085403e+003	(3.86541056302698e+001dB,-1.03986163106709e+000°)
2.13796208950222e+003	(3.86540393557936e+001dB,-1.06407775337980e+000°)
2.18776162394954e+003	(3.86539699589815e+001dB,-1.08885755793254e+000°)
2.23872113856832e+003	(3.86538972927867e+001dB,-1.11421414714184e+000°)
2.29086765276776e+003	(3.86538212032426e+001dB,-1.14016092665859e+000°)
2.34422881531991e+003	(3.86537415291373e+001dB,-1.16671161229127e+000°)
2.39883291901947e+003	(3.86536581016736e+001dB,-1.19388023708046e+000°)
2.45470891568501e+003	(3.86535707441120e+001dB,-1.22168115852747e+000°)
2.51188643150956e+003	(3.86534792713985e+001dB,-1.25012906597984e+000°)
2.57039578276885e+003	(3.86533834897735e+001dB,-1.27923898817661e+000°)
2.63026799189536e+003	(3.86532831963633e+001dB,-1.30902630095621e+000°)
2.69153480392690e+003	(3.86531781787523e+001dB,-1.33950673512977e+000°)
2.75422870333815e+003	(3.86530682145351e+001dB,-1.37069638452273e+000°)
2.81838293126443e+003	(3.86529530708478e+001dB,-1.40261171418766e+000°)
2.88403150312659e+003	(3.86528325038772e+001dB,-1.43526956879100e+000°)
2.95120922666636e+003	(3.86527062583471e+001dB,-1.46868718117662e+000°)
3.01995172040199e+003	(3.86525740669813e+001dB,-1.50288218110901e+000°)
3.09029543251357e+003	(3.86524356499402e+001dB,-1.53787260419885e+000°)
3.16227766016836e+003	(3.86522907142324e+001dB,-1.57367690101369e+000°)
3.23593656929626e+003	(3.86521389530985e+001dB,-1.61031394637645e+000°)
3.31131121482589e+003	(3.86519800453657e+001dB,-1.64780304885432e+000°)
3.38844156139200e+003	(3.86518136547731e+001dB,-1.68616396044082e+000°)
3.46736850452529e+003	(3.86516394292648e+001dB,-1.72541688643327e+000°)
3.54813389233573e+003	(3.86514570002512e+001dB,-1.76558249550831e+000°)
3.63078054770099e+003	(3.86512659818350e+001dB,-1.80668192999774e+000°)
3.71535229097170e+003	(3.86510659700015e+001dB,-1.84873681636687e+000°)
3.80189396320558e+003	(3.86508565417717e+001dB,-1.89176927589752e+000°)
3.89045144994278e+003	(3.86506372543158e+001dB,-1.93580193557767e+000°)
3.98107170553494e+003	(3.86504076440258e+001dB,-1.98085793919960e+000°)
4.07380277804110e+003	(3.86501672255449e+001dB,-2.02696095866804e+000°)
4.16869383470332e+003	(3.86499154907521e+001dB,-2.07413520552003e+000°)
4.26579518801589e+003	(3.86496519077003e+001dB,-2.12240544265756e+000°)
4.36515832240162e+003	(3.86493759195047e+001dB,-2.17179699629416e+000°)
4.46683592150960e+003	(3.86490869431804e+001dB,-2.22233576811614e+000°)
4.57088189614871e+003	(3.86487843684262e+001dB,-2.27404824765904e+000°)
4.67735141287194e+003	(3.86484675563527e+001dB,-2.32696152489958e+000°)
4.78630092322634e+003	(3.86481358381514e+001dB,-2.38110330306283e+000°)
4.89778819368442e+003	(3.86477885137034e+001dB,-2.43650191164432e+000°)
5.01187233627268e+003	(3.86474248501235e+001dB,-2.49318631964599e+000°)
5.12861383991361e+003	(3.86470440802384e+001dB,-2.55118614902502e+000°)
5.24807460249768e+003	(3.86466454009947e+001dB,-2.61053168835345e+000°)
5.37031796370248e+003	(3.86462279717945e+001dB,-2.67125390668649e+000°)
5.49540873857620e+003	(3.86457909127548e+001dB,-2.73338446763676e+000°)
5.62341325190344e+003	(3.86453333028883e+001dB,-2.79695574365091e+000°)
