Freq.	V(vin)/-I(R3)
1.00000000000000e+002	(1.72834540061984e+002dB,-5.54330969334157e+001°)
1.02329299228075e+002	(1.72698557300962e+002dB,-5.60531554498633e+001°)
1.04712854805090e+002	(1.72560586695475e+002dB,-5.66681037341726e+001°)
1.07151930523761e+002	(1.72420662677673e+002dB,-5.72777140471265e+001°)
1.09647819614318e+002	(1.72278820807836e+002dB,-5.78817705130746e+001°)
1.12201845430196e+002	(1.72135097659612e+002dB,-5.84800693166090e+001°)
1.14815362149688e+002	(1.71989530705671e+002dB,-5.90724188446758e+001°)
1.17489755493953e+002	(1.71842158204345e+002dB,-5.96586397760365e+001°)
1.20226443461741e+002	(1.71693019087917e+002dB,-6.02385651198231e+001°)
1.23026877081238e+002	(1.71542152853052e+002dB,-6.08120402051718e+001°)
1.25892541179417e+002	(1.71389599453962e+002dB,-6.13789226253266e+001°)
1.28824955169313e+002	(1.71235399198658e+002dB,-6.19390821378539e+001°)
1.31825673855641e+002	(1.71079592648792e+002dB,-6.24924005247121e+001°)
1.34896288259165e+002	(1.70922220523352e+002dB,-6.30387714145016e+001°)
1.38038426460288e+002	(1.70763323606620e+002dB,-6.35781000711611e+001°)
1.41253754462275e+002	(1.70602942660475e+002dB,-6.41103031505456e+001°)
1.44543977074593e+002	(1.70441118341402e+002dB,-6.46353084295688e+001°)
1.47910838816821e+002	(1.70277891122276e+002dB,-6.51530545107464e+001°)
1.51356124843621e+002	(1.70113301218994e+002dB,-6.56634905042208e+001°)
1.54881661891248e+002	(1.69947388522086e+002dB,-6.61665756919064e+001°)
1.58489319246111e+002	(1.69780192533278e+002dB,-6.66622791754759e+001°)
1.62181009735893e+002	(1.69611752307015e+002dB,-6.71505795117554e+001°)
1.65958690743756e+002	(1.69442106396835e+002dB,-6.76314643371393e+001°)
1.69824365246174e+002	(1.69271292806648e+002dB,-6.81049299857188e+001°)
1.73780082874937e+002	(1.69099348946631e+002dB,-6.85709811006222e+001°)
1.77827941003892e+002	(1.68926311593780e+002dB,-6.90296302436356e+001°)
1.81970085860998e+002	(1.68752216856855e+002dB,-6.94808975029388e+001°)
1.86208713666287e+002	(1.68577100145610e+002dB,-6.99248101022883e+001°)
1.90546071796324e+002	(1.68400996144127e+002dB,-7.03614020128279e+001°)
1.94984459975804e+002	(1.68223938788033e+002dB,-7.07907135690892e+001°)
1.99526231496888e+002	(1.68045961245443e+002dB,-7.12127910906961e+001°)
2.04173794466953e+002	(1.67867095901387e+002dB,-7.16276865109042e+001°)
2.08929613085404e+002	(1.67687374345569e+002dB,-7.20354570134329e+001°)
2.13796208950223e+002	(1.67506827363178e+002dB,-7.24361646778080e+001°)
2.18776162394955e+002	(1.67325484928632e+002dB,-7.28298761351844e+001°)
2.23872113856834e+002	(1.67143376201950e+002dB,-7.32166622336727e+001°)
2.29086765276777e+002	(1.66960529527655e+002dB,-7.35965977156428e+001°)
2.34422881531992e+002	(1.66776972435927e+002dB,-7.39697609059851e+001°)
2.39883291901949e+002	(1.66592731645859e+002dB,-7.43362334121978e+001°)
2.45470891568503e+002	(1.66407833070620e+002dB,-7.46960998366817e+001°)
2.51188643150958e+002	(1.66222301824351e+002dB,-7.50494475013461e+001°)
2.57039578276886e+002	(1.66036162230606e+002dB,-7.53963661839745e+001°)
2.63026799189538e+002	(1.65849437832201e+002dB,-7.57369478677042e+001°)
2.69153480392691e+002	(1.65662151402302e+002dB,-7.60712865020187e+001°)
2.75422870333816e+002	(1.65474324956607e+002dB,-7.63994777763528e+001°)
2.81838293126445e+002	(1.65285979766482e+002dB,-7.67216189053448e+001°)
2.88403150312660e+002	(1.65097136372932e+002dB,-7.70378084260598e+001°)
2.95120922666638e+002	(1.64907814601272e+002dB,-7.73481460065750e+001°)
3.01995172040201e+002	(1.64718033576401e+002dB,-7.76527322659810e+001°)
3.09029543251358e+002	(1.64527811738565e+002dB,-7.79516686051566e+001°)
3.16227766016837e+002	(1.64337166859500e+002dB,-7.82450570481547e+001°)
3.23593656929628e+002	(1.64146116058903e+002dB,-7.85330000940170e+001°)
3.31131121482590e+002	(1.63954675821097e+002dB,-7.88156005782797e+001°)
3.38844156139202e+002	(1.63762862011867e+002dB,-7.90929615443227e+001°)
3.46736850452531e+002	(1.63570689895364e+002dB,-7.93651861236441e+001°)
3.54813389233575e+002	(1.63378174151020e+002dB,-7.96323774250952e+001°)
3.63078054770101e+002	(1.63185328890430e+002dB,-7.98946384324192e+001°)
3.71535229097172e+002	(1.62992167674142e+002dB,-8.01520719101003e+001°)
3.80189396320560e+002	(1.62798703528305e+002dB,-8.04047803166556e+001°)
3.89045144994280e+002	(1.62604948961147e+002dB,-8.06528657253943e+001°)
3.98107170553496e+002	(1.62410915979234e+002dB,-8.08964297521479e+001°)
4.07380277804112e+002	(1.62216616103482e+002dB,-8.11355734895675e+001°)
4.16869383470335e+002	(1.62022060384907e+002dB,-8.13703974477757e+001°)
4.26579518801592e+002	(1.61827259420063e+002dB,-8.16010015008909e+001°)
4.36515832240165e+002	(1.61632223366173e+002dB,-8.18274848393771e+001°)
4.46683592150962e+002	(1.61436961955919e+002dB,-8.20499459272502e+001°)
4.57088189614874e+002	(1.61241484511883e+002dB,-8.22684824650291e+001°)
4.67735141287197e+002	(1.61045799960625e+002dB,-8.24831913566117e+001°)
4.78630092322637e+002	(1.60849916846389e+002dB,-8.26941686812140e+001°)
4.89778819368445e+002	(1.60653843344426e+002dB,-8.29015096691980e+001°)
5.01187233627271e+002	(1.60457587273931e+002dB,-8.31053086819040e+001°)
5.12861383991364e+002	(1.60261156110593e+002dB,-8.33056591950718e+001°)
5.24807460249771e+002	(1.60064556998748e+002dB,-8.35026537859265e+001°)
5.37031796370251e+002	(1.59867796763140e+002dB,-8.36963841233044e+001°)
5.49540873857623e+002	(1.59670881920281e+002dB,-8.38869409607704e+001°)
5.62341325190348e+002	(1.59473818689431e+002dB,-8.40744141327259e+001°)
5.75439937337155e+002	(1.59276613003172e+002dB,-8.42588925530743e+001°)
5.88843655355587e+002	(1.59079270517607e+002dB,-8.44404642162688e+001°)
6.02559586074356e+002	(1.58881796622165e+002dB,-8.46192162006580e+001°)
6.16595001861481e+002	(1.58684196449026e+002dB,-8.47952346740487e+001°)
6.30957344480192e+002	(1.58486474882182e+002dB,-8.49686049011396e+001°)
6.45654229034654e+002	(1.58288636566111e+002dB,-8.51394112528025e+001°)
6.60693448007594e+002	(1.58090685914098e+002dB,-8.53077372170586e+001°)
6.76082975391980e+002	(1.57892627116192e+002dB,-8.54736654116328e+001°)
6.91830970918935e+002	(1.57694464146814e+002dB,-8.56372775979458e+001°)
7.07945784384136e+002	(1.57496200772011e+002dB,-8.57986546963920e+001°)
7.24435960074988e+002	(1.57297840556378e+002dB,-8.59578768028717e+001°)
7.41310241300916e+002	(1.57099386869639e+002dB,-8.61150232066023e+001°)
7.58577575029182e+002	(1.56900842892903e+002dB,-8.62701724086439e+001°)
7.76247116628690e+002	(1.56702211624599e+002dB,-8.64234021416726e+001°)
7.94328234724279e+002	(1.56503495886091e+002dB,-8.65747893904415e+001°)
8.12830516164097e+002	(1.56304698326990e+002dB,-8.67244104131770e+001°)
8.31763771102669e+002	(1.56105821430155e+002dB,-8.68723407635803e+001°)
8.51138038202374e+002	(1.55906867516402e+002dB,-8.70186553134935e+001°)
8.70963589956078e+002	(1.55707838748916e+002dB,-8.71634282762344e+001°)
8.91250938133743e+002	(1.55508737137380e+002dB,-8.73067332304255e+001°)
9.12010839355907e+002	(1.55309564541815e+002dB,-8.74486431442583e+001°)
9.33254300796988e+002	(1.55110322676152e+002dB,-8.75892304002396e+001°)
9.54992586021433e+002	(1.54911013111521e+002dB,-8.77285668203481e+001°)
9.77237220955808e+002	(1.54711637279279e+002dB,-8.78667236914141e+001°)
9.99999999999997e+002	(1.54512196473768e+002dB,-8.80037717909022e+001°)
1.02329299228075e+003	(1.54312691854816e+002dB,-8.81397814129362e+001°)
1.04712854805090e+003	(1.54113124449978e+002dB,-8.82748223944320e+001°)
1.07151930523760e+003	(1.53913495156517e+002dB,-8.84089641415812e+001°)
1.09647819614318e+003	(1.53713804743145e+002dB,-8.85422756563056e+001°)
1.12201845430196e+003	(1.53514053851501e+002dB,-8.86748255629766e+001°)
1.14815362149688e+003	(1.53314242997389e+002dB,-8.88066821351420e+001°)
1.17489755493953e+003	(1.53114372571766e+002dB,-8.89379133222760e+001°)
1.20226443461741e+003	(1.52914442841486e+002dB,-8.90685867766639e+001°)
1.23026877081238e+003	(1.52714453949799e+002dB,-8.91987698801743e+001°)
1.25892541179416e+003	(1.52514405916607e+002dB,-8.93285297710502e+001°)
1.28824955169313e+003	(1.52314298638474e+002dB,-8.94579333706679e+001°)
1.31825673855640e+003	(1.52114131888396e+002dB,-8.95870474101829e+001°)
1.34896288259165e+003	(1.51913905315322e+002dB,-8.97159384570530e+001°)
1.38038426460288e+003	(1.51713618443431e+002dB,-8.98446729414686e+001°)
1.41253754462275e+003	(1.51513270671167e+002dB,-8.99733171826094e+001°)
1.44543977074592e+003	(1.51312861270015e+002dB,-9.01019374146734e+001°)
1.47910838816820e+003	(1.51112389383037e+002dB,-9.02305998127895e+001°)
1.51356124843620e+003	(1.50911854023147e+002dB,-9.03593705185518e+001°)
1.54881661891248e+003	(1.50711254071135e+002dB,-9.04883156653896e+001°)
1.58489319246111e+003	(1.50510588273428e+002dB,-9.06175014035928e+001°)
1.62181009735892e+003	(1.50309855239589e+002dB,-9.07469939249950e+001°)
1.65958690743755e+003	(1.50109053439555e+002dB,-9.08768594872963e+001°)
1.69824365246174e+003	(1.49908181200589e+002dB,-9.10071644379903e+001°)
1.73780082874937e+003	(1.49707236703976e+002dB,-9.11379752378061e+001°)
1.77827941003892e+003	(1.49506217981416e+002dB,-9.12693584837515e+001°)
1.81970085860998e+003	(1.49305122911150e+002dB,-9.14013809315170e+001°)
1.86208713666286e+003	(1.49103949213779e+002dB,-9.15341095174193e+001°)
1.90546071796324e+003	(1.48902694447793e+002dB,-9.16676113796492e+001°)
1.94984459975804e+003	(1.48701356004789e+002dB,-9.18019538788794e+001°)
1.99526231496887e+003	(1.48499931104379e+002dB,-9.19372046181532e+001°)
2.04173794466952e+003	(1.48298416788781e+002dB,-9.20734314619825e+001°)
2.08929613085403e+003	(1.48096809917076e+002dB,-9.22107025545948e+001°)
2.13796208950222e+003	(1.47895107159137e+002dB,-9.23490863372661e+001°)
2.18776162394954e+003	(1.47693304989211e+002dB,-9.24886515646894e+001°)
2.23872113856833e+003	(1.47491399679150e+002dB,-9.26294673202637e+001°)
2.29086765276776e+003	(1.47289387291282e+002dB,-9.27716030302398e+001°)
2.34422881531991e+003	(1.47087263670911e+002dB,-9.29151284766491e+001°)
2.39883291901948e+003	(1.46885024438442e+002dB,-9.30601138089279e+001°)
2.45470891568502e+003	(1.46682664981115e+002dB,-9.32066295540353e+001°)
2.51188643150957e+003	(1.46480180444342e+002dB,-9.33547466251727e+001°)
2.57039578276885e+003	(1.46277565722638e+002dB,-9.35045363287574e+001°)
2.63026799189537e+003	(1.46074815450136e+002dB,-9.36560703696812e+001°)
2.69153480392690e+003	(1.45871923990672e+002dB,-9.38094208546590e+001°)
2.75422870333815e+003	(1.45668885427441e+002dB,-9.39646602935933e+001°)
2.81838293126444e+003	(1.45465693552200e+002dB,-9.41218615986966e+001°)
2.88403150312659e+003	(1.45262341854019e+002dB,-9.42810980813548e+001°)
2.95120922666637e+003	(1.45058823507571e+002dB,-9.44424434464800e+001°)
3.01995172040200e+003	(1.44855131360941e+002dB,-9.46059717841586e+001°)
3.09029543251358e+003	(1.44651257922963e+002dB,-9.47717575585356e+001°)
3.16227766016836e+003	(1.44447195350058e+002dB,-9.49398755935918e+001°)
3.23593656929627e+003	(1.44242935432579e+002dB,-9.51104010556871e+001°)
3.31131121482590e+003	(1.44038469580654e+002dB,-9.52834094326577e+001°)
3.38844156139201e+003	(1.43833788809513e+002dB,-9.54589765092197e+001°)
3.46736850452530e+003	(1.43628883724301e+002dB,-9.56371783384030e+001°)
3.54813389233574e+003	(1.43423744504376e+002dB,-9.58180912088445e+001°)
3.63078054770100e+003	(1.43218360887077e+002dB,-9.60017916075887e+001°)
3.71535229097171e+003	(1.43012722150973e+002dB,-9.61883561781673e+001°)
3.80189396320559e+003	(1.42806817098582e+002dB,-9.63778616736498e+001°)
3.89045144994279e+003	(1.42600634038576e+002dB,-9.65703849043452e+001°)
3.98107170553495e+003	(1.42394160767457e+002dB,-9.67660026798560e+001°)
4.07380277804111e+003	(1.42187384550727e+002dB,-9.69647917451176e+001°)
4.16869383470333e+003	(1.41980292103546e+002dB,-9.71668287101329e+001°)
4.26579518801591e+003	(1.41772869570902e+002dB,-9.73721899729503e+001°)
4.36515832240164e+003	(1.41565102507292e+002dB,-9.75809516356016e+001°)
4.46683592150961e+003	(1.41356975855946e+002dB,-9.77931894125382e+001°)
4.57088189614873e+003	(1.41148473927597e+002dB,-9.80089785312183e+001°)
4.67735141287196e+003	(1.40939580378839e+002dB,-9.82283936243954e+001°)
4.78630092322636e+003	(1.40730278190079e+002dB,-9.84515086136914e+001°)
4.89778819368444e+003	(1.40520549643137e+002dB,-9.86783965840438e+001°)
5.01187233627270e+003	(1.40310376298515e+002dB,-9.89091296485423e+001°)
5.12861383991362e+003	(1.40099738972379e+002dB,-9.91437788032490e+001°)
5.24807460249770e+003	(1.39888617713300e+002dB,-9.93824137715142e+001°)
5.37031796370250e+003	(1.39676991778816e+002dB,-9.96251028373414e+001°)
5.49540873857622e+003	(1.39464839611852e+002dB,-9.98719126673313e+001°)
5.62341325190346e+003	(1.39252138817077e+002dB,-1.00122908120781e+002°)
5.75439937337154e+003	(1.39038866137270e+002dB,-1.00378152047418e+002°)
5.88843655355586e+003	(1.38824997429749e+002dB,-1.00637705072390e+002°)
6.02559586074354e+003	(1.38610507642979e+002dB,-1.00901625368022e+002°)
6.16595001861479e+003	(1.38395370793419e+002dB,-1.01169968411956e+002°)
6.30957344480190e+003	(1.38179559942725e+002dB,-1.01442786731235e+002°)
6.45654229034652e+003	(1.37963047175401e+002dB,-1.01720129631981e+002°)
6.60693448007592e+003	(1.37745803577021e+002dB,-1.02002042914305e+002°)
6.76082975391978e+003	(1.37527799213133e+002dB,-1.02288568572133e+002°)
6.91830970918932e+003	(1.37309003108968e+002dB,-1.02579744477654e+002°)
7.07945784384134e+003	(1.37089383230107e+002dB,-1.02875604050207e+002°)
7.24435960074986e+003	(1.36868906464220e+002dB,-1.03176175909359e+002°)
7.41310241300913e+003	(1.36647538604038e+002dB,-1.03481483512120e+002°)
7.58577575029179e+003	(1.36425244331715e+002dB,-1.03791544774193e+002°)
7.76247116628687e+003	(1.36201987204727e+002dB,-1.04106371675297e+002°)
7.94328234724277e+003	(1.35977729643467e+002dB,-1.04425969848650e+002°)
8.12830516164094e+003	(1.35752432920717e+002dB,-1.04750338154807e+002°)
8.31763771102666e+003	(1.35526057153153e+002dB,-1.05079468240095e+002°)
8.51138038202371e+003	(1.35298561295043e+002dB,-1.05413344080057e+002°)
8.70963589956075e+003	(1.35069903134327e+002dB,-1.05751941508341e+002°)
8.91250938133740e+003	(1.34840039291224e+002dB,-1.06095227731646e+002°)
9.12010839355904e+003	(1.34608925219531e+002dB,-1.06443160831392e+002°)
9.33254300796985e+003	(1.34376515210773e+002dB,-1.06795689252954e+002°)
9.54992586021430e+003	(1.34142762401341e+002dB,-1.07152751283363e+002°)
9.77237220955804e+003	(1.33907618782752e+002dB,-1.07514274518533e+002°)
9.99999999999993e+003	(1.33671035215152e+002dB,-1.07880175321153e+002°)
1.02329299228075e+004	(1.33432961444152e+002dB,-1.08250358270542e+002°)
1.04712854805089e+004	(1.33193346121087e+002dB,-1.08624715605794e+002°)
1.07151930523760e+004	(1.32952136826748e+002dB,-1.09003126663728e+002°)
1.09647819614318e+004	(1.32709280098609e+002dB,-1.09385457313139e+002°)
1.12201845430196e+004	(1.32464721461553e+002dB,-1.09771559386994e+002°)
1.14815362149688e+004	(1.32218405462054e+002dB,-1.10161270114218e+002°)
1.17489755493952e+004	(1.31970275705738e+002dB,-1.10554411552732e+002°)
1.20226443461740e+004	(1.31720274898211e+002dB,-1.10950790025429e+002°)
1.23026877081237e+004	(1.31468344888981e+002dB,-1.11350195560711e+002°)
1.25892541179416e+004	(1.31214426718274e+002dB,-1.11752401339141e+002°)
1.28824955169313e+004	(1.30958460666481e+002dB,-1.12157163147632e+002°)
1.31825673855640e+004	(1.30700386305925e+002dB,-1.12564218842465e+002°)
1.34896288259164e+004	(1.30440142554580e+002dB,-1.12973287822179e+002°)
1.38038426460288e+004	(1.30177667731334e+002dB,-1.13384070511108e+002°)
1.41253754462274e+004	(1.29912899612302e+002dB,-1.13796247854025e+002°)
1.44543977074592e+004	(1.29645775487681e+002dB,-1.14209480821949e+002°)
1.47910838816820e+004	(1.29376232218560e+002dB,-1.14623409928684e+002°)
1.51356124843620e+004	(1.29104206293048e+002dB,-1.15037654757153e+002°)
1.54881661891247e+004	(1.28829633881050e+002dB,-1.15451813493938e+002°)
1.58489319246110e+004	(1.28552450886976e+002dB,-1.15865462469768e+002°)
1.62181009735892e+004	(1.28272592999623e+002dB,-1.16278155702895e+002°)
1.65958690743755e+004	(1.27989995738448e+002dB,-1.16689424441449e+002°)
1.69824365246173e+004	(1.27704594495444e+002dB,-1.17098776699876e+002°)
1.73780082874936e+004	(1.27416324571791e+002dB,-1.17505696783571e+002°)
1.77827941003891e+004	(1.27125121208492e+002dB,-1.17909644794603e+002°)
1.81970085860997e+004	(1.26830919610190e+002dB,-1.18310056110271e+002°)
1.86208713666285e+004	(1.26533654961421e+002dB,-1.18706340824832e+002°)
1.90546071796323e+004	(1.26233262434574e+002dB,-1.19097883143349e+002°)
1.94984459975803e+004	(1.25929677188927e+002dB,-1.19484040715035e+002°)
1.99526231496887e+004	(1.25622834360190e+002dB,-1.19864143891826e+002°)
2.04173794466951e+004	(1.25312669040102e+002dB,-1.20237494896164e+002°)
2.08929613085402e+004	(1.24999116245783e+002dB,-1.20603366880009e+002°)
2.13796208950222e+004	(1.24682110878659e+002dB,-1.20961002855141e+002°)
2.18776162394954e+004	(1.24361587673028e+002dB,-1.21309614472550e+002°)
2.23872113856832e+004	(1.24037481134518e+002dB,-1.21648380626385e+002°)
2.29086765276776e+004	(1.23709725468985e+002dB,-1.21976445855372e+002°)
2.34422881531990e+004	(1.23378254502712e+002dB,-1.22292918511834e+002°)
2.39883291901947e+004	(1.23043001595136e+002dB,-1.22596868665458e+002°)
2.45470891568501e+004	(1.22703899545781e+002dB,-1.22887325705629e+002°)
2.51188643150956e+004	(1.22360880497574e+002dB,-1.23163275602583e+002°)
2.57039578276884e+004	(1.22013875839352e+002dB,-1.23423657783683e+002°)
2.63026799189536e+004	(1.21662816111056e+002dB,-1.23667361576754e+002°)
2.69153480392689e+004	(1.21307630915995e+002dB,-1.23893222167666e+002°)
2.75422870333814e+004	(1.20948248845545e+002dB,-1.24100016014098e+002°)
2.81838293126443e+004	(1.20584597422901e+002dB,-1.24286455651637e+002°)
2.88403150312658e+004	(1.20216603073908e+002dB,-1.24451183822110e+002°)
2.95120922666636e+004	(1.19844191134821e+002dB,-1.24592766847178e+002°)
3.01995172040199e+004	(1.19467285908881e+002dB,-1.24709687162892e+002°)
3.09029543251357e+004	(1.19085810786246e+002dB,-1.24800334923122e+002°)
3.16227766016835e+004	(1.18699688444851e+002dB,-1.24862998571626e+002°)
3.23593656929626e+004	(1.18308841153607e+002dB,-1.24895854274381e+002°)
3.31131121482588e+004	(1.17913191203914e+002dB,-1.24896954095856e+002°)
3.38844156139200e+004	(1.17512661501061e+002dB,-1.24864212795845e+002°)
3.46736850452529e+004	(1.17107176353883e+002dB,-1.24795393118109e+002°)
3.54813389233573e+004	(1.16696662509296e+002dB,-1.24688089439543e+002°)
3.63078054770098e+004	(1.16281050488357e+002dB,-1.24539709650683e+002°)
3.71535229097169e+004	(1.15860276292598e+002dB,-1.24347455147506e+002°)
3.80189396320558e+004	(1.15434283564000e+002dB,-1.24108298834020e+002°)
3.89045144994277e+004	(1.15003026299475e+002dB,-1.23818961069846e+002°)
3.98107170553494e+004	(1.14566472241580e+002dB,-1.23475883553264e+002°)
4.07380277804109e+004	(1.14124607091792e+002dB,-1.23075201216800e+002°)
4.16869383470332e+004	(1.13677439721282e+002dB,-1.22612712341163e+002°)
4.26579518801589e+004	(1.13225008586893e+002dB,-1.22083847279851e+002°)
4.36515832240162e+004	(1.12767389596494e+002dB,-1.21483636451564e+002°)
4.46683592150959e+004	(1.12304705706993e+002dB,-1.20806678627182e+002°)
4.57088189614871e+004	(1.11837138577757e+002dB,-1.20047111045722e+002°)
4.67735141287194e+004	(1.11364942637706e+002dB,-1.19198583579897e+002°)
4.78630092322634e+004	(1.10888461948917e+002dB,-1.18254240083717e+002°)
4.89778819368442e+004	(1.10408150251814e+002dB,-1.17206711242177e+002°)
5.01187233627268e+004	(1.09924594539720e+002dB,-1.16048124753124e+002°)
5.12861383991360e+004	(1.09438542408514e+002dB,-1.14770140531900e+002°)
5.24807460249768e+004	(1.08950933225292e+002dB,-1.13364020825281e+002°)
5.37031796370248e+004	(1.08462932811846e+002dB,-1.11820747552796e+002°)
5.49540873857620e+004	(1.07975970788036e+002dB,-1.10131201615406e+002°)
5.62341325190344e+004	(1.07491778905502e+002dB,-1.08286420849144e+002°)
5.75439937337152e+004	(1.07012427572503e+002dB,-1.06277953953793e+002°)
