Freq.	V(vout)/V(vin)
Step Information: Run=1  (Run: 1/18)
1.00000000000000e+001	(3.86555121421062e+001dB,-4.97759619755721e-003°)
1.02329299228075e+001	(3.86555121405864e+001dB,-5.09353930677431e-003°)
1.04712854805090e+001	(3.86555121389949e+001dB,-5.21218307789725e-003°)
1.07151930523761e+001	(3.86555121373284e+001dB,-5.33359041741997e-003°)
1.09647819614319e+001	(3.86555121355833e+001dB,-5.45782569711663e-003°)
1.12201845430196e+001	(3.86555121337561e+001dB,-5.58495478817240e-003°)
1.14815362149688e+001	(3.86555121318427e+001dB,-5.71504509610923e-003°)
1.17489755493953e+001	(3.86555121298391e+001dB,-5.84816559652511e-003°)
1.20226443461741e+001	(3.86555121277411e+001dB,-5.98438687166578e-003°)
1.23026877081238e+001	(3.86555121255442e+001dB,-6.12378114784842e-003°)
1.25892541179417e+001	(3.86555121232438e+001dB,-6.26642233375692e-003°)
1.28824955169313e+001	(3.86555121208350e+001dB,-6.41238605962924e-003°)
1.31825673855641e+001	(3.86555121183126e+001dB,-6.56174971735747e-003°)
1.34896288259165e+001	(3.86555121156714e+001dB,-6.71459250152207e-003°)
1.38038426460288e+001	(3.86555121129057e+001dB,-6.87099545138184e-003°)
1.41253754462275e+001	(3.86555121100097e+001dB,-7.03104149384193e-003°)
1.44543977074593e+001	(3.86555121069771e+001dB,-7.19481548742274e-003°)
1.47910838816821e+001	(3.86555121038017e+001dB,-7.36240426725302e-003°)
1.51356124843621e+001	(3.86555121004766e+001dB,-7.53389669111095e-003°)
1.54881661891248e+001	(3.86555120969948e+001dB,-7.70938368653763e-003°)
1.58489319246111e+001	(3.86555120933489e+001dB,-7.88895829904802e-003°)
1.62181009735893e+001	(3.86555120895312e+001dB,-8.07271574146484e-003°)
1.65958690743756e+001	(3.86555120855335e+001dB,-8.26075344440160e-003°)
1.69824365246174e+001	(3.86555120813475e+001dB,-8.45317110792158e-003°)
1.73780082874937e+001	(3.86555120769641e+001dB,-8.65007075439996e-003°)
1.77827941003892e+001	(3.86555120723742e+001dB,-8.85155678261741e-003°)
1.81970085860998e+001	(3.86555120675680e+001dB,-9.05773602311362e-003°)
1.86208713666287e+001	(3.86555120625352e+001dB,-9.26871779483014e-003°)
1.90546071796325e+001	(3.86555120572653e+001dB,-9.48461396307268e-003°)
1.94984459975804e+001	(3.86555120517470e+001dB,-9.70553899882341e-003°)
1.99526231496888e+001	(3.86555120459686e+001dB,-9.93161003943492e-003°)
2.04173794466953e+001	(3.86555120399180e+001dB,-1.01629469507379e-002°)
2.08929613085404e+001	(3.86555120335821e+001dB,-1.03996723905952e-002°)
2.13796208950223e+001	(3.86555120269477e+001dB,-1.06419118739371e-002°)
2.18776162394955e+001	(3.86555120200005e+001dB,-1.08897938393102e-002°)
2.23872113856834e+001	(3.86555120127260e+001dB,-1.11434497169774e-002°)
2.29086765276777e+001	(3.86555120051086e+001dB,-1.14030139986037e-002°)
2.34422881531992e+001	(3.86555119971323e+001dB,-1.16686243085654e-002°)
2.39883291901949e+001	(3.86555119887800e+001dB,-1.19404214769200e-002°)
2.45470891568503e+001	(3.86555119800341e+001dB,-1.22185496140761e-002°)
2.51188643150958e+001	(3.86555119708760e+001dB,-1.25031561872022e-002°)
2.57039578276886e+001	(3.86555119612863e+001dB,-1.27943920984157e-002°)
2.63026799189538e+001	(3.86555119512447e+001dB,-1.30924117647931e-002°)
2.69153480392691e+001	(3.86555119407298e+001dB,-1.33973732002431e-002°)
2.75422870333816e+001	(3.86555119297193e+001dB,-1.37094380992880e-002°)
2.81838293126445e+001	(3.86555119181900e+001dB,-1.40287719227957e-002°)
2.88403150312660e+001	(3.86555119061173e+001dB,-1.43555439857088e-002°)
2.95120922666638e+001	(3.86555118934756e+001dB,-1.46899275468173e-002°)
3.01995172040201e+001	(3.86555118802381e+001dB,-1.50320999006224e-002°)
3.09029543251359e+001	(3.86555118663768e+001dB,-1.53822424713401e-002°)
3.16227766016838e+001	(3.86555118518622e+001dB,-1.57405409090938e-002°)
3.23593656929628e+001	(3.86555118366636e+001dB,-1.61071851883485e-002°)
3.31131121482591e+001	(3.86555118207486e+001dB,-1.64823697086368e-002°)
3.38844156139202e+001	(3.86555118040837e+001dB,-1.68662933976319e-002°)
3.46736850452531e+001	(3.86555117866333e+001dB,-1.72591598166209e-002°)
3.54813389233575e+001	(3.86555117683605e+001dB,-1.76611772684351e-002°)
3.63078054770101e+001	(3.86555117492265e+001dB,-1.80725589078941e-002°)
3.71535229097172e+001	(3.86555117291908e+001dB,-1.84935228548228e-002°)
3.80189396320561e+001	(3.86555117082109e+001dB,-1.89242923097005e-002°)
3.89045144994280e+001	(3.86555116862421e+001dB,-1.93650956720039e-002°)
3.98107170553497e+001	(3.86555116632381e+001dB,-1.98161666613066e-002°)
4.07380277804112e+001	(3.86555116391498e+001dB,-2.02777444411994e-002°)
4.16869383470335e+001	(3.86555116139264e+001dB,-2.07500737460969e-002°)
4.26579518801592e+001	(3.86555115875142e+001dB,-2.12334050109977e-002°)
4.36515832240165e+001	(3.86555115598572e+001dB,-2.17279945042677e-002°)
4.46683592150962e+001	(3.86555115308968e+001dB,-2.22341044635149e-002°)
4.57088189614874e+001	(3.86555115005715e+001dB,-2.27520032346304e-002°)
4.67735141287197e+001	(3.86555114688170e+001dB,-2.32819654140673e-002°)
4.78630092322638e+001	(3.86555114355660e+001dB,-2.38242719944339e-002°)
4.89778819368445e+001	(3.86555114007479e+001dB,-2.43792105134779e-002°)
5.01187233627271e+001	(3.86555113642889e+001dB,-2.49470752065409e-002°)
5.12861383991364e+001	(3.86555113261117e+001dB,-2.55281671625640e-002°)
5.24807460249772e+001	(3.86555112861352e+001dB,-2.61227944837272e-002°)
5.37031796370252e+001	(3.86555112442746e+001dB,-2.67312724488066e-002°)
5.49540873857624e+001	(3.86555112004413e+001dB,-2.73539236803375e-002°)
5.62341325190348e+001	(3.86555111545421e+001dB,-2.79910783156702e-002°)
5.75439937337156e+001	(3.86555111064798e+001dB,-2.86430741820106e-002°)
5.88843655355588e+001	(3.86555110561524e+001dB,-2.93102569755379e-002°)
6.02559586074357e+001	(3.86555110034531e+001dB,-2.99929804446936e-002°)
6.16595001861481e+001	(3.86555109482702e+001dB,-3.06916065777409e-002°)
6.30957344480192e+001	(3.86555108904865e+001dB,-3.14065057946915e-002°)
6.45654229034654e+001	(3.86555108299797e+001dB,-3.21380571437038e-002°)
6.60693448007595e+001	(3.86555107666212e+001dB,-3.28866485020547e-002°)
6.76082975391980e+001	(3.86555107002767e+001dB,-3.36526767817931e-002°)
6.91830970918935e+001	(3.86555106308055e+001dB,-3.44365481401828e-002°)
7.07945784384136e+001	(3.86555105580603e+001dB,-3.52386781950477e-002°)
7.24435960074988e+001	(3.86555104818867e+001dB,-3.60594922451326e-002°)
7.41310241300916e+001	(3.86555104021231e+001dB,-3.68994254955956e-002°)
7.58577575029182e+001	(3.86555103186003e+001dB,-3.77589232887541e-002°)
7.76247116628690e+001	(3.86555102311413e+001dB,-3.86384413402038e-002°)
7.94328234724279e+001	(3.86555101395605e+001dB,-3.95384459804389e-002°)
8.12830516164097e+001	(3.86555100436636e+001dB,-4.04594144020979e-002°)
8.31763771102669e+001	(3.86555099432472e+001dB,-4.14018349129697e-002°)
8.51138038202374e+001	(3.86555098380983e+001dB,-4.23662071948920e-002°)
8.70963589956078e+001	(3.86555097279939e+001dB,-4.33530425686797e-002°)
8.91250938133743e+001	(3.86555096127005e+001dB,-4.43628642652236e-002°)
9.12010839355907e+001	(3.86555094919734e+001dB,-4.53962077029036e-002°)
9.33254300796988e+001	(3.86555093655567e+001dB,-4.64536207714629e-002°)
9.54992586021433e+001	(3.86555092331821e+001dB,-4.75356641224937e-002°)
9.77237220955808e+001	(3.86555090945689e+001dB,-4.86429114666890e-002°)
9.99999999999997e+001	(3.86555089494231e+001dB,-4.97759498780168e-002°)
1.02329299228075e+002	(3.86555087974368e+001dB,-5.09353801049793e-002°)
1.04712854805090e+002	(3.86555086382876e+001dB,-5.21218168891213e-002°)
1.07151930523760e+002	(3.86555084716379e+001dB,-5.33358892909562e-002°)
1.09647819614318e+002	(3.86555082971343e+001dB,-5.45782410234839e-002°)
1.12201845430196e+002	(3.86555081144065e+001dB,-5.58495307934750e-002°)
1.14815362149688e+002	(3.86555079230671e+001dB,-5.71504326507041e-002°)
1.17489755493953e+002	(3.86555077227102e+001dB,-5.84816363453170e-002°)
1.20226443461741e+002	(3.86555075129107e+001dB,-5.98438476935204e-002°)
1.23026877081238e+002	(3.86555072932237e+001dB,-6.12377889517875e-002°)
1.25892541179416e+002	(3.86555070631832e+001dB,-6.26641991997796e-002°)
1.28824955169313e+002	(3.86555068223012e+001dB,-6.41238347321856e-002°)
1.31825673855640e+002	(3.86555065700668e+001dB,-6.56174694596859e-002°)
1.34896288259165e+002	(3.86555063059450e+001dB,-6.71458953192551e-002°)
1.38038426460288e+002	(3.86555060293755e+001dB,-6.87099226940192e-002°)
1.41253754462275e+002	(3.86555057397718e+001dB,-7.03103808428914e-002°)
1.44543977074592e+002	(3.86555054365194e+001dB,-7.19481183402126e-002°)
1.47910838816820e+002	(3.86555051189752e+001dB,-7.36240035256299e-002°)
1.51356124843620e+002	(3.86555047864657e+001dB,-7.53389249644521e-002°)
1.54881661891248e+002	(3.86555044382855e+001dB,-7.70937919187252e-002°)
1.58489319246111e+002	(3.86555040736961e+001dB,-7.88895348292782e-002°)
1.62181009735892e+002	(3.86555036919241e+001dB,-8.07271058089934e-002°)
1.65958690743755e+002	(3.86555032921598e+001dB,-8.26074791475637e-002°)
1.69824365246174e+002	(3.86555028735553e+001dB,-8.45316518280030e-002°)
1.73780082874937e+002	(3.86555024352226e+001dB,-8.65006440551851e-002°)
1.77827941003892e+002	(3.86555019762319e+001dB,-8.85154997966881e-002°)
1.81970085860998e+002	(3.86555014956097e+001dB,-9.05772873362335e-002°)
1.86208713666286e+002	(3.86555009923366e+001dB,-9.26870998400115e-002°)
1.90546071796324e+002	(3.86555004653450e+001dB,-9.48460559361924e-002°)
1.94984459975804e+002	(3.86554999135171e+001dB,-9.70553003079317e-002°)
1.99526231496887e+002	(3.86554993356825e+001dB,-9.93160043001815e-002°)
2.04173794466952e+002	(3.86554987306154e+001dB,-1.01629366540632e-001°)
2.08929613085403e+002	(3.86554980970324e+001dB,-1.03996613575105e-001°)
2.13796208950222e+002	(3.86554974335898e+001dB,-1.06419000517749e-001°)
2.18776162394954e+002	(3.86554967388801e+001dB,-1.08897811716364e-001°)
2.23872113856833e+002	(3.86554960114299e+001dB,-1.11434361433218e-001°)
2.29086765276776e+002	(3.86554952496962e+001dB,-1.14029994541712e-001°)
2.34422881531991e+002	(3.86554944520632e+001dB,-1.16686087239269e-001°)
2.39883291901948e+002	(3.86554936168391e+001dB,-1.19404047776809e-001°)
2.45470891568502e+002	(3.86554927422522e+001dB,-1.22185317205212e-001°)
2.51188643150957e+002	(3.86554918264475e+001dB,-1.25031370139151e-001°)
2.57039578276885e+002	(3.86554908674825e+001dB,-1.27943715538713e-001°)
2.63026799189537e+002	(3.86554898633231e+001dB,-1.30923897509202e-001°)
2.69153480392690e+002	(3.86554888118394e+001dB,-1.33973496119568e-001°)
2.75422870333816e+002	(3.86554877108010e+001dB,-1.37094128239877e-001°)
2.81838293126444e+002	(3.86554865578726e+001dB,-1.40287448398279e-001°)
2.88403150312659e+002	(3.86554853506087e+001dB,-1.43555149657908e-001°)
2.95120922666637e+002	(3.86554840864485e+001dB,-1.46898964514204e-001°)
3.01995172040200e+002	(3.86554827627107e+001dB,-1.50320665813105e-001°)
3.09029543251358e+002	(3.86554813765875e+001dB,-1.53822067690610e-001°)
3.16227766016837e+002	(3.86554799251388e+001dB,-1.57405026534203e-001°)
3.23593656929627e+002	(3.86554784052860e+001dB,-1.61071441966645e-001°)
3.31131121482590e+002	(3.86554768138052e+001dB,-1.64823257852658e-001°)
3.38844156139201e+002	(3.86554751473209e+001dB,-1.68662463329029e-001°)
3.46736850452530e+002	(3.86554734022983e+001dB,-1.72591093858675e-001°)
3.54813389233574e+002	(3.86554715750361e+001dB,-1.76611232309230e-001°)
3.63078054770100e+002	(3.86554696616585e+001dB,-1.80725010056721e-001°)
3.71535229097171e+002	(3.86554676581071e+001dB,-1.84934608114915e-001°)
3.80189396320559e+002	(3.86554655601322e+001dB,-1.89242258290927e-001°)
3.89045144994279e+002	(3.86554633632839e+001dB,-1.93650244367711e-001°)
3.98107170553495e+002	(3.86554610629025e+001dB,-1.98160903314039e-001°)
4.07380277804111e+002	(3.86554586541087e+001dB,-2.02776626522625e-001°)
4.16869383470333e+002	(3.86554561317935e+001dB,-2.07499861077029e-001°)
4.26579518801591e+002	(3.86554534906067e+001dB,-2.12333111048014e-001°)
4.36515832240164e+002	(3.86554507249464e+001dB,-2.17278938820042e-001°)
4.46683592150961e+002	(3.86554478289465e+001dB,-2.22339966448606e-001°)
4.57088189614873e+002	(3.86554447964643e+001dB,-2.27518877049098e-001°)
4.67735141287196e+002	(3.86554416210679e+001dB,-2.32818416217962e-001°)
4.78630092322636e+002	(3.86554382960221e+001dB,-2.38241393486871e-001°)
4.89778819368444e+002	(3.86554348142746e+001dB,-2.43790683810684e-001°)
5.01187233627270e+002	(3.86554311684403e+001dB,-2.49469229089977e-001°)
5.12861383991362e+002	(3.86554273507864e+001dB,-2.55280039728933e-001°)
5.24807460249770e+002	(3.86554233532156e+001dB,-2.61226196229422e-001°)
5.37031796370250e+002	(3.86554191672490e+001dB,-2.67310850822092e-001°)
5.49540873857622e+002	(3.86554147840083e+001dB,-2.73537229135340e-001°)
5.62341325190346e+002	(3.86554101941965e+001dB,-2.79908631903022e-001°)
5.75439937337154e+002	(3.86554053880788e+001dB,-2.86428436711803e-001°)
5.88843655355586e+002	(3.86554003554614e+001dB,-2.93100099789066e-001°)
6.02559586074355e+002	(3.86553950856703e+001dB,-2.99927157832294e-001°)
6.16595001861479e+002	(3.86553895675284e+001dB,-3.06913229880910e-001°)
6.30957344480190e+002	(3.86553837893321e+001dB,-3.14062019231519e-001°)
6.45654229034652e+002	(3.86553777388259e+001dB,-3.21377315397577e-001°)
6.60693448007592e+002	(3.86553714031773e+001dB,-3.28862996114490e-001°)
6.76082975391978e+002	(3.86553647689486e+001dB,-3.36523029391197e-001°)
6.91830970918933e+002	(3.86553578220693e+001dB,-3.44361475609294e-001°)
7.07945784384134e+002	(3.86553505478055e+001dB,-3.52382489670802e-001°)
7.24435960074986e+002	(3.86553429307292e+001dB,-3.60590323195678e-001°)
7.41310241300914e+002	(3.86553349546856e+001dB,-3.68989326770225e-001°)
7.58577575029180e+002	(3.86553266027582e+001dB,-3.77583952247543e-001°)
7.76247116628688e+002	(3.86553178572339e+001dB,-3.86378755101242e-001°)
7.94328234724277e+002	(3.86553086995646e+001dB,-3.95378396833598e-001°)
8.12830516164095e+002	(3.86552991103284e+001dB,-4.04587647439421e-001°)
8.31763771102666e+002	(3.86552890691880e+001dB,-4.14011387926893e-001°)
8.51138038202372e+002	(3.86552785548481e+001dB,-4.23654612896670e-001°)
8.70963589956076e+002	(3.86552675450100e+001dB,-4.33522433180591e-001°)
8.91250938133741e+002	(3.86552560163241e+001dB,-4.43620078541315e-001°)
9.12010839355905e+002	(3.86552439443407e+001dB,-4.53952900434310e-001°)
9.33254300796986e+002	(3.86552313034583e+001dB,-4.64526374833566e-001°)
9.54992586021431e+002	(3.86552180668689e+001dB,-4.75346105122511e-001°)
9.77237220955805e+002	(3.86552042065014e+001dB,-4.86417825051572e-001°)
9.99999999999994e+002	(3.86551896929624e+001dB,-4.97747401763903e-001°)
1.02329299228075e+003	(3.86551744954733e+001dB,-5.09340838890815e-001°)
1.04712854805089e+003	(3.86551585818057e+001dB,-5.21204279718470e-001°)
1.07151930523760e+003	(3.86551419182124e+001dB,-5.33344010427438e-001°)
1.09647819614318e+003	(3.86551244693567e+001dB,-5.45766463406758e-001°)
1.12201845430196e+003	(3.86551061982370e+001dB,-5.58478220644165e-001°)
1.14815362149688e+003	(3.86550870661082e+001dB,-5.71486017194182e-001°)
1.17489755493952e+003	(3.86550670324003e+001dB,-5.84796744725817e-001°)
1.20226443461741e+003	(3.86550460546319e+001dB,-5.98417455151632e-001°)
1.23026877081237e+003	(3.86550240883203e+001dB,-6.12355364339985e-001°)
1.25892541179416e+003	(3.86550010868875e+001dB,-6.26617855912296e-001°)
1.28824955169313e+003	(3.86549770015610e+001dB,-6.41212485127203e-001°)
1.31825673855640e+003	(3.86549517812712e+001dB,-6.56146982853530e-001°)
1.34896288259165e+003	(3.86549253725427e+001dB,-6.71429259634008e-001°)
1.38038426460288e+003	(3.86548977193813e+001dB,-6.87067409841737e-001°)
1.41253754462275e+003	(3.86548687631552e+001dB,-7.03069715931428e-001°)
1.44543977074592e+003	(3.86548384424712e+001dB,-7.19444652787455e-001°)
1.47910838816820e+003	(3.86548066930441e+001dB,-7.36200892170852e-001°)
1.51356124843620e+003	(3.86547734475615e+001dB,-7.53347307267360e-001°)
1.54881661891247e+003	(3.86547386355402e+001dB,-7.70892977338718e-001°)
1.58489319246110e+003	(3.86547021831779e+001dB,-7.88847192479399e-001°)
1.62181009735892e+003	(3.86546640131966e+001dB,-8.07219458481051e-001°)
1.65958690743755e+003	(3.86546240446791e+001dB,-8.26019501806921e-001°)
1.69824365246173e+003	(3.86545821928975e+001dB,-8.45257274678586e-001°)
1.73780082874936e+003	(3.86545383691344e+001dB,-8.64942960277365e-001°)
1.77827941003891e+003	(3.86544924804949e+001dB,-8.85086978062798e-001°)
1.81970085860997e+003	(3.86544444297101e+001dB,-9.05699989210636e-001°)
1.86208713666286e+003	(3.86543941149313e+001dB,-9.26792902172808e-001°)
1.90546071796323e+003	(3.86543414295147e+001dB,-9.48376878361874e-001°)
1.94984459975803e+003	(3.86542862617958e+001dB,-9.70463337962505e-001°)
1.99526231496887e+003	(3.86542284948534e+001dB,-9.93063965872576e-001°)
2.04173794466952e+003	(3.86541680062624e+001dB,-1.01619071777645e+000°)
2.08929613085403e+003	(3.86541046678347e+001dB,-1.03985582635313e+000°)
2.13796208950222e+003	(3.86540383453488e+001dB,-1.06407180762192e+000°)
2.18776162394954e+003	(3.86539688982659e+001dB,-1.08885146742830e+000°)
2.23872113856832e+003	(3.86538961794328e+001dB,-1.11420790807276e+000°)
2.29086765276776e+003	(3.86538200347715e+001dB,-1.14015453508531e+000°)
2.34422881531991e+003	(3.86537403029536e+001dB,-1.16670506414843e+000°)
2.39883291901947e+003	(3.86536568150596e+001dB,-1.19387352817138e+000°)
2.45470891568501e+003	(3.86535693942223e+001dB,-1.22167428451842e+000°)
2.51188643150956e+003	(3.86534778552536e+001dB,-1.25012202239406e+000°)
2.57039578276885e+003	(3.86533820042538e+001dB,-1.27923177038798e+000°)
2.63026799189536e+003	(3.86532816382027e+001dB,-1.30901890418255e+000°)
2.69153480392690e+003	(3.86531765445309e+001dB,-1.33949915442574e+000°)
2.75422870333815e+003	(3.86530665006722e+001dB,-1.37068861477238e+000°)
2.81838293126443e+003	(3.86529512735944e+001dB,-1.40260375009645e+000°)
2.88403150312659e+003	(3.86528306193079e+001dB,-1.43526140487741e+000°)
2.95120922666636e+003	(3.86527042823521e+001dB,-1.46867881176328e+000°)
3.01995172040199e+003	(3.86525719952574e+001dB,-1.50287360031324e+000°)
3.09029543251357e+003	(3.86524334779821e+001dB,-1.53786380592269e+000°)
3.16227766016836e+003	(3.86522884373232e+001dB,-1.57366787893330e+000°)
3.23593656929626e+003	(3.86521365662995e+001dB,-1.61030469393084e+000°)
3.31131121482589e+003	(3.86519775435061e+001dB,-1.64779355923347e+000°)
3.38844156139200e+003	(3.86518110324393e+001dB,-1.68615422657297e+000°)
3.46736850452529e+003	(3.86516366807890e+001dB,-1.72540690097149e+000°)
3.54813389233573e+003	(3.86514541196993e+001dB,-1.76557225081623e+000°)
3.63078054770099e+003	(3.86512629629943e+001dB,-1.80667141813437e+000°)
3.71535229097170e+003	(3.86510628063677e+001dB,-1.84872602907046e+000°)
3.80189396320558e+003	(3.86508532265353e+001dB,-1.89175820456841e+000°)
3.89045144994278e+003	(3.86506337803477e+001dB,-1.93579057126008e+000°)
3.98107170553494e+003	(3.86504040038623e+001dB,-1.98084627256221e+000°)
4.07380277804110e+003	(3.86501634113723e+001dB,-2.02694897998339e+000°)
4.16869383470332e+003	(3.86499114943903e+001dB,-2.07412290464253e+000°)
4.26579518801589e+003	(3.86496477205856e+001dB,-2.12239280900014e+000°)
4.36515832240162e+003	(3.86493715326720e+001dB,-2.17178401880335e+000°)
4.46683592150960e+003	(3.86490823472446e+001dB,-2.22232243524561e+000°)
4.57088189614871e+003	(3.86487795535624e+001dB,-2.27403454734136e+000°)
4.67735141287194e+003	(3.86484625122758e+001dB,-2.32694744451615e+000°)
4.78630092322634e+003	(3.86481305540948e+001dB,-2.38108882941185e+000°)
4.89778819368442e+003	(3.86477829783964e+001dB,-2.43648703090659e+000°)
5.01187233627268e+003	(3.86474190517683e+001dB,-2.49317101734861e+000°)
5.12861383991361e+003	(3.86470380064851e+001dB,-2.55117041000253e+000°)
5.24807460249768e+003	(3.86466390389159e+001dB,-2.61051549670644e+000°)
5.37031796370248e+003	(3.86462213078586e+001dB,-2.67123724573753e+000°)
5.49540873857620e+003	(3.86457839327981e+001dB,-2.73336731988334e+000°)
5.62341325190344e+003	(3.86453259920852e+001dB,-2.79693809071522e+000°)
