Freq.	V(vin)/-I(R3)
Step Information: Run=1  (Run: 1/18)
1.00000000000000e+003	(50234985.52933919dB,-87.9790487808208°)
1.02329299228075e+003	(49094297.24236488dB,-88.114508384168°)
1.04712854805090e+003	(47979163.651669286dB,-88.2489859356668°)
1.07151930523761e+003	(46889025.09280997dB,-88.3825505404774°)
1.09647819614319e+003	(45823333.0708876dB,-88.5152708921943°)
1.12201845430196e+003	(44781550.106547154dB,-88.6472152992964°)
1.14815362149688e+003	(43763149.579036474dB,-88.7784517117612°)
1.17489755493953e+003	(42767615.56669351dB,-88.9090477476653°)
1.20226443461741e+003	(41794442.6853378dB,-89.0390707197691°)
1.23026877081238e+003	(40843135.924999386dB,-89.1685876622102°)
1.25892541179417e+003	(39913210.48534275dB,-89.2976653570321°)
1.28824955169313e+003	(39004191.610119574dB,-89.4263703607511°)
1.31825673855641e+003	(38115614.42102545dB,-89.5547690308091°)
1.34896288259165e+003	(37247023.75120848dB,-89.6829275518603°)
1.38038426460288e+003	(36397973.97872483dB,-89.810911962003°)
1.41253754462275e+003	(35568028.86017294dB,-89.9387881788105°)
1.44543977074593e+003	(34756761.36478219dB,-90.0666220251049°)
1.47910838816821e+003	(33963753.50909689dB,-90.1944792546439°)
1.51356124843621e+003	(33188596.192502923dB,-90.322425577438°)
1.54881661891248e+003	(32430889.033719193dB,-90.4505266848153°)
1.58489319246111e+003	(31690240.20849275dB,-90.5788482742397°)
1.62181009735893e+003	(30966266.288538758dB,-90.7074560736897°)
1.65958690743756e+003	(30258592.081928346dB,-90.8364158657403°)
1.69824365246174e+003	(29566850.475007318dB,-90.9657935111811°)
1.73780082874937e+003	(28890682.275977172dB,-91.0956549721988°)
1.77827941003892e+003	(28229736.060181048dB,-91.2260663350877°)
1.81970085860998e+003	(27583668.017247185dB,-91.3570938323896°)
1.86208713666287e+003	(26952141.80009004dB,-91.4888038644778°)
1.90546071796325e+003	(26334828.375915375dB,-91.6212630205078°)
1.94984459975804e+003	(25731405.879182953dB,-91.754538098699°)
1.99526231496888e+003	(25141559.466696076dB,-91.8886961258535°)
2.04173794466953e+003	(24564981.174745973dB,-92.0238043761099°)
2.08929613085404e+003	(24001369.77844281dB,-92.1599303888373°)
2.13796208950223e+003	(23450430.653187532dB,-92.2971419855687°)
2.18776162394955e+003	(22911875.638369054dB,-92.4355072859951°)
2.23872113856834e+003	(22385422.903256588dB,-92.5750947228526°)
2.29086765276777e+003	(21870796.81515054dB,-92.715973055659°)
2.34422881531992e+003	(21367727.80976792dB,-92.8582113831899°)
2.39883291901949e+003	(20875952.263874874dB,-93.0018791546757°)
2.45470891568503e+003	(20395212.370199483dB,-93.1470461794978°)
2.51188643150958e+003	(19925256.014588535dB,-93.2937826353727°)
2.57039578276886e+003	(19465836.655430064dB,-93.4421590748782°)
2.63026799189538e+003	(19016713.20532931dB,-93.5922464302011°)
2.69153480392691e+003	(18577649.91504095dB,-93.7441160159692°)
2.75422870333816e+003	(18148416.259634636dB,-93.8978395300461°)
2.81838293126445e+003	(17728786.82690058dB,-94.0534890521381°)
2.88403150312660e+003	(17318541.207976487dB,-94.2111370400467°)
2.95120922666638e+003	(16917463.890170958dB,-94.3708563234195°)
3.01995172040201e+003	(16525344.152010018dB,-94.5327200948054°)
3.09029543251359e+003	(16141975.960431777dB,-94.6968018978524°)
3.16227766016838e+003	(15767157.870170036dB,-94.863175612444°)
3.23593656929628e+003	(15400692.925276102dB,-95.0319154365384°)
3.31131121482591e+003	(15042388.56278031dB,-95.2030958645374°)
3.38844156139202e+003	(14692056.518457398dB,-95.3767916619369°)
3.46736850452531e+003	(14349512.734703936dB,-95.5530778359868°)
3.54813389233575e+003	(14014577.270484773dB,-95.7320296021671°)
3.63078054770101e+003	(13687074.213343527dB,-95.9137223461391°)
3.71535229097172e+003	(13366831.593461607dB,-96.0982315809519°)
3.80189396320561e+003	(13053681.299731309dB,-96.2856328991613°)
3.89045144994280e+003	(12747458.99784492dB,-96.4760019195851°)
3.98107170553497e+003	(12448004.050375259dB,-96.6694142283524°)
4.07380277804112e+003	(12155159.438808346dB,-96.8659453139106°)
4.16869383470335e+003	(11868771.687550288dB,-97.0656704956471°)
4.26579518801592e+003	(11588690.789845003dB,-97.2686648457587°)
4.36515832240165e+003	(11314770.135630932dB,-97.4750031039834°)
4.46683592150962e+003	(11046866.44126744dB,-97.6847595847948°)
4.57088189614874e+003	(10784839.681164796dB,-97.8980080766928°)
4.67735141287197e+003	(10528553.021253318dB,-98.1148217331162°)
4.78630092322637e+003	(10277872.75430402dB,-98.3352729546075°)
4.89778819368445e+003	(10032668.23706853dB,-98.5594332617388°)
5.01187233627271e+003	(9792811.829220084dB,-98.7873731583993°)
5.12861383991364e+003	(9558178.834072929dB,-99.0191619849474°)
5.24807460249772e+003	(9328647.441072052dB,-99.2548677607995°)
5.37031796370252e+003	(9104098.670006562dB,-99.4945570159825°)
5.49540873857624e+003	(8884416.316958241dB,-99.7382946111523°)
5.62341325190348e+003	(8669486.901926484dB,-99.9861435456796°)
5.75439937337156e+003	(8459199.618129633dB,-100.238164753268°)
5.88843655355588e+003	(8253446.282939727dB,-100.494416884699°)
6.02559586074357e+003	(8052121.290433872dB,-100.754956077242°)
6.16595001861481e+003	(7855121.56552216dB,-101.019835710301°)
6.30957344480192e+003	(7662346.519619899dB,-101.28910614688°)
6.45654229034654e+003	(7473698.007827573dB,-101.562814460493°)
6.60693448007595e+003	(7289080.287584617dB,-101.841004147138°)
6.76082975391980e+003	(7108399.978742096dB,-102.123714822035°)
6.91830970918935e+003	(6931566.025019738dB,-102.4109819008°)
7.07945784384136e+003	(6758489.656780146dB,-102.702836264858°)
7.24435960074989e+003	(6589084.355084584dB,-102.999303910861°)
7.41310241300916e+003	(6423265.816950474dB,-103.300405584002°)
7.58577575029182e+003	(6260951.921755985dB,-103.606156395144°)
7.76247116628690e+003	(6102062.698711571dB,-103.916565421765°)
7.94328234724280e+003	(5946520.295335926dB,-104.231635292791°)
8.12830516164097e+003	(5794248.946829229dB,-104.551361757498°)
8.31763771102669e+003	(5645174.946282271dB,-104.875733238701°)
8.51138038202374e+003	(5499226.615596725dB,-105.204730370613°)
8.70963589956079e+003	(5356334.277037613dB,-105.538325521803°)
8.91250938133744e+003	(5216430.22529477dB,-105.876482303806°)
9.12010839355908e+003	(5079448.699943287dB,-106.219155066076°)
9.33254300796989e+003	(4945325.858175555dB,-106.566288378028°)
9.54992586021434e+003	(4813999.747688431dB,-106.91781649909°)
9.77237220955809e+003	(4685410.279577825dB,-107.273662837759°)
9.99999999999998e+003	(4559499.2011108445dB,-107.633739400776°)
1.02329299228075e+004	(4436210.068234818dB,-107.997946233655°)
1.04712854805090e+004	(4315488.217669929dB,-108.366170853893°)
1.07151930523760e+004	(4197280.738438997dB,-108.73828767825°)
1.09647819614318e+004	(4081536.4426932833dB,-109.114157445628°)
1.12201845430196e+004	(3968205.835670256dB,-109.493626637068°)
1.14815362149688e+004	(3857241.0846501924dB,-109.876526894475°)
1.17489755493953e+004	(3748595.9867567397dB,-110.262674439667°)
1.20226443461741e+004	(3642225.935471101dB,-110.651869495349°)
1.23026877081238e+004	(3538087.885721641dB,-111.043895709555°)
1.25892541179416e+004	(3436140.317435731dB,-111.438519585026°)
1.28824955169313e+004	(3336343.1974341767dB,-111.83548991486°)
1.31825673855640e+004	(3238657.9395836308dB,-112.234537225607°)
1.34896288259165e+004	(3143047.3631210537dB,-112.635373228738°)
1.38038426460288e+004	(3049475.649090989dB,-113.037690281158°)
1.41253754462275e+004	(2957908.294864956dB,-113.441160855083°)
1.44543977074592e+004	(2868312.0667152037dB,-113.845437017172°)
1.47910838816820e+004	(2780654.950466629dB,-114.250149916359°)
1.51356124843620e+004	(2694906.1002549147dB,-114.654909279249°)
1.54881661891248e+004	(2611035.7854640465dB,-115.05930291132°)
1.58489319246111e+004	(2529015.3359360266dB,-115.462896201467°)
1.62181009735893e+004	(2448817.0855828873dB,-115.865231626607°)
1.65958690743756e+004	(2370414.314559039dB,-116.265828252192°)
1.69824365246174e+004	(2293781.1901833927dB,-116.664181223502°)
1.73780082874937e+004	(2218892.7068331614dB,-117.05976124152°)
1.77827941003892e+004	(2145724.6250578766dB,-117.452014016013°)
1.81970085860998e+004	(2074253.4101903946dB,-117.840359687212°)
1.86208713666286e+004	(2004456.1707604376dB,-118.224192206107°)
1.90546071796324e+004	(1936310.5970300734dB,-118.602878661911°)
1.94984459975804e+004	(1869794.9000015254dB,-118.975758543676°)
1.99526231496887e+004	(1804887.7512508994dB,-119.342142921386°)
2.04173794466952e+004	(1741568.2239616998dB,-119.701313530024°)
2.08929613085403e+004	(1679815.735534415dB,-120.052521738197°)
2.13796208950222e+004	(1619609.9921495474dB,-120.394987380858°)
2.18776162394954e+004	(1560930.9356606058dB,-120.727897433428°)
2.23872113856833e+004	(1503758.6931870803dB,-121.050404502273°)
2.29086765276777e+004	(1448073.5297590944dB,-121.361625103927°)
2.34422881531991e+004	(1393855.8043550556dB,-121.660637702701°)
2.39883291901948e+004	(1341085.9296473095dB,-121.946480473358°)
2.45470891568502e+004	(1289744.335749743dB,-122.218148752278°)
2.51188643150957e+004	(1239811.438228335dB,-122.474592137073°)
2.57039578276885e+004	(1191267.610609851dB,-122.714711190794°)
2.63026799189537e+004	(1144093.161588312dB,-122.937353702733°)
2.69153480392691e+004	(1098268.3170956841dB,-123.141310453361°)
2.75422870333816e+004	(1053773.2073697688dB,-123.325310426089°)
2.81838293126444e+004	(1010587.8591202183dB,-123.488015403313°)
2.88403150312660e+004	(968692.1928612903dB,-123.628013878661°)
2.95120922666637e+004	(928066.0254500876dB,-123.743814211497°)
3.01995172040200e+004	(888689.0778454088dB,-123.83383694366°)
3.09029543251358e+004	(850540.9880790679dB,-123.896406192323°)
3.16227766016837e+004	(813601.3294160453dB,-123.929740026964°)
3.23593656929627e+004	(777849.6336655058dB,-123.931939733149°)
3.31131121482590e+004	(743265.4196023747dB,-123.900977861634°)
3.38844156139201e+004	(709828.2264544723dB,-123.834684959181°)
3.46736850452530e+004	(677517.6524200507dB,-123.730734878326°)
3.54813389233574e+004	(646313.3981864967dB,-123.586628568991°)
3.63078054770100e+004	(616195.3154402771dB,-123.399676267354°)
3.71535229097171e+004	(587143.460373112dB,-123.166978019862°)
3.80189396320560e+004	(559138.1522073699dB,-122.885402516815°)
3.89045144994279e+004	(532160.0367818461dB,-122.551564266173°)
3.98107170553496e+004	(506190.15524107567dB,-122.161799221501°)
4.07380277804111e+004	(481210.01786755613dB,-121.712139098173°)
4.16869383470334e+004	(457201.6830581174dB,-121.198284782041°)
4.26579518801591e+004	(434147.84137464414dB,-120.615579471093°)
4.36515832240164e+004	(412031.9044661638dB,-119.958982514458°)
4.46683592150961e+004	(390838.0984438845dB,-119.223045349944°)
4.57088189614873e+004	(370551.5609573721dB,-118.401891521987°)
4.67735141287196e+004	(351158.4407274958dB,-117.489203520858°)
4.78630092322636e+004	(332645.9975833293dB,-116.478220156682°)
4.89778819368444e+004	(315002.7000609792dB,-115.361749398455°)
5.01187233627270e+004	(298218.3162826903dB,-114.132203082666°)
5.12861383991362e+004	(282283.9920590535dB,-112.781661606291°)
5.24807460249770e+004	(267192.30789352785dB,-111.301978577378°)
5.37031796370250e+004	(252937.30378270533dB,-109.684937206316°)
5.49540873857622e+004	(239514.45746432594dB,-107.922471618979°)
5.62341325190346e+004	(226920.59827334862dB,-106.006966664588°)
5.75439937337154e+004	(215153.7354731582dB,-103.931648296593°)
5.88843655355586e+004	(204212.77761754917dB,-101.691072056748°)
6.02559586074355e+004	(194097.11937737328dB,-99.2817082515598°)
6.16595001861479e+004	(184806.07595342502dB,-96.7026078898869°)
6.30957344480190e+004	(176338.15456207973dB,-93.9561129331696°)
6.45654229034652e+004	(168690.16915007605dB,-91.0485491504642°)
6.60693448007593e+004	(161856.22903402973dB,-87.9908137751061°)
6.76082975391979e+004	(155826.66296609852dB,-84.798750306225°)
6.91830970918933e+004	(150586.97245870432dB,-81.4931986858298°)
7.07945784384134e+004	(146116.93404391006dB,-78.0996299058773°)
7.24435960074987e+004	(142389.97966568556dB,-74.6473242034953°)
7.41310241300914e+004	(139372.96926862642dB,-71.1681262326119°)
7.58577575029180e+004	(137026.42723116506dB,-67.694892618658°)
7.76247116628688e+004	(135305.25068883086dB,-64.2598134810933°)
7.94328234724277e+004	(134159.8273402283dB,-60.892818037534°)
8.12830516164095e+004	(133537.44096733324dB,-57.6202552869914°)
8.31763771102667e+004	(133383.8093473212dB,-54.4639807426041°)
8.51138038202372e+004	(133644.59749593615dB,-51.440899377632°)
8.70963589956076e+004	(134266.77526514733dB,-48.5629374735199°)
8.91250938133741e+004	(135199.731246035dB,-45.8373602552045°)
9.12010839355905e+004	(136396.10187670676dB,-43.2673255158225°)
9.33254300796986e+004	(137812.3153866908dB,-40.8525631306007°)
9.54992586021431e+004	(139408.87918054409dB,-38.5900878223267°)
9.77237220955805e+004	(141150.4554377416dB,-36.4748780398552°)
9.99999999999995e+004	(143005.77505244222dB,-34.5004796581924°)
1.02329299228075e+005	(144947.43781336743dB,-32.6595148658129°)
1.04712854805089e+005	(146951.64018858687dB,-30.9440923518551°)
1.07151930523760e+005	(148997.86381659005dB,-29.3461249004055°)
1.09647819614318e+005	(151068.54953243784dB,-27.8575658313816°)
1.12201845430196e+005	(153148.77443140885dB,-26.4705777406188°)
1.14815362149688e+005	(155225.94348463917dB,-25.1776469028331°)
1.17489755493952e+005	(157289.50261792282dB,-23.9716554509458°)
1.20226443461741e+005	(159330.67680027473dB,-22.8459216830692°)
1.23026877081237e+005	(161342.23434703232dB,-21.794216979353°)
1.25892541179416e+005	(163318.27709382732dB,-20.8107660605306°)
1.28824955169313e+005	(165254.05513842698dB,-19.8902357941724°)
1.31825673855640e+005	(167145.8043073185dB,-19.0277164857976°)
1.34896288259165e+005	(168990.60425350952dB,-18.2186985717746°)
1.38038426460288e+005	(170786.25503033376dB,-17.4590468313309°)
1.41253754462275e+005	(172531.17004541468dB,-16.7449736209993°)
1.44543977074592e+005	(174224.28342685322dB,-16.0730121714359°)
1.47910838816820e+005	(175864.96999905794dB,-15.4399906421987°)
1.51356124843620e+005	(177452.97624450616dB,-14.8430073779573°)
1.54881661891247e+005	(178988.36080720418dB,-14.2794076278058°)
1.58489319246110e+005	(180471.44326463286dB,-13.7467618604536°)
1.62181009735892e+005	(181902.76005365615dB,-13.242845718503°)
1.65958690743755e+005	(183283.0265789378dB,-12.7656215943743°)
1.69824365246173e+005	(184613.10466155017dB,-12.3132217708222°)
1.73780082874937e+005	(185893.97459711856dB,-11.8839330444828°)
1.77827941003891e+005	(187126.71119388766dB,-11.4761827371095°)
1.81970085860997e+005	(188312.4632453712dB,-11.0885259928472°)
1.86208713666286e+005	(189452.43596905665dB,-10.7196342587072°)
1.90546071796324e+005	(190547.87600572428dB,-10.3682848476063°)
1.94984459975803e+005	(191600.05863087223dB,-10.0333514877036°)
1.99526231496887e+005	(192610.27687699033dB,-9.71379576742727°)
2.04173794466952e+005	(193579.8323073734dB,-9.40865939192055°)
2.08929613085403e+005	(194510.02721731336dB,-9.11705717322366°)
2.13796208950222e+005	(195402.1580691941dB,-8.83817068307201°)
2.18776162394954e+005	(196257.50999409886dB,-8.57124250353468°)
2.23872113856833e+005	(197077.352215651dB,-8.31557101673467°)
2.29086765276776e+005	(197862.9342706108dB,-8.07050568051501°)
2.34422881531991e+005	(198615.48291791303dB,-7.83544274211271°)
2.39883291901948e+005	(199336.19964213367dB,-7.60982134666975°)
2.45470891568501e+005	(200026.25866974547dB,-7.39312000175386°)
2.51188643150956e+005	(200686.80542764423dB,-7.18485336300195°)
2.57039578276885e+005	(201318.9553820007dB,-6.98456930955776°)
2.63026799189536e+005	(201923.79320437892dB,-6.7918462811823°)
2.69153480392690e+005	(202502.37221828479dB,-6.60629085179719°)
2.75422870333815e+005	(203055.71408594036dB,-6.427535516807°)
2.81838293126444e+005	(203584.80869979638dB,-6.25523667386371°)
2.88403150312659e+005	(204090.6142480916dB,-6.08907277881052°)
2.95120922666637e+005	(204574.0574277535dB,-5.92874266039782°)
3.01995172040200e+005	(205036.03378153057dB,-5.77396397902274°)
3.09029543251357e+005	(205477.408138228dB,-5.62447181622704°)
3.16227766016836e+005	(205899.01513945308dB,-5.48001738301277°)
3.23593656929626e+005	(206301.6598361479dB,-5.34036683621962°)
3.31131121482589e+005	(206686.11834245708dB,-5.20530019326629°)
3.38844156139200e+005	(207053.13853443082dB,-5.07461033650385°)
3.46736850452529e+005	(207403.44078366412dB,-4.94810209927487°)
3.54813389233573e+005	(207737.71871683706dB,-4.82559142652824°)
3.63078054770099e+005	(208056.63999332004dB,-4.70690460351571°)
3.71535229097170e+005	(208360.84709423088dB,-4.59187754670159°)
3.80189396320558e+005	(208650.95811675978dB,-4.48035515155853°)
3.89045144994278e+005	(208927.56756911447dB,-4.3721906924076°)
3.98107170553494e+005	(209191.24716139102dB,-4.26724526989575°)
4.07380277804110e+005	(209442.5465885156dB,-4.16538730209357°)
4.16869383470332e+005	(209681.99430248866dB,-4.06649205554647°)
4.26579518801589e+005	(209910.098270615dB,-3.97044121292729°)
4.36515832240163e+005	(210127.34671786727dB,-3.87712247422127°)
4.46683592150960e+005	(210334.20885121374dB,-3.78642918862996°)
4.57088189614872e+005	(210531.1355643613dB,-3.69826001461137°)
4.67735141287195e+005	(210718.5601218683dB,-3.61251860568263°)
4.78630092322635e+005	(210896.89882135077dB,-3.52911331980132°)
4.89778819368442e+005	(211066.55163334135dB,-3.44795695031442°)
5.01187233627268e+005	(211227.90281821796dB,-3.36896647662238°)
5.12861383991361e+005	(211381.32151984685dB,-3.29206283285054°)
5.24807460249768e+005	(211527.16233620286dB,-3.2171706929543°)
5.37031796370248e+005	(211665.76586664518dB,-3.14421827080824°)
5.49540873857620e+005	(211797.45923646484dB,-3.07313713394437°)
5.62341325190345e+005	(211922.55659904916dB,-3.00386202971245°)
5.75439937337152e+005	(212041.3596161382dB,-2.93633072273579°)
5.88843655355584e+005	(212154.15791682134dB,-2.87048384263046°)
6.02559586074353e+005	(212261.22953617095dB,-2.80626474104522°)
6.16595001861477e+005	(212362.84133410544dB,-2.74361935716337°)
6.30957344480188e+005	(212459.24939582488dB,-2.68249609088721°)
6.45654229034650e+005	(212550.6994140874dB,-2.62284568300084°)
6.60693448007591e+005	(212637.42705500466dB,-2.564621101678°)
6.76082975391976e+005	(212719.6583079504dB,-2.507777434768°)
6.91830970918931e+005	(212797.60982077406dB,-2.45227178735577°)
7.07945784384132e+005	(212871.48922111644dB,-2.39806318415034°)
7.24435960074984e+005	(212941.49542512055dB,-2.34511247631069°)
7.41310241300911e+005	(213007.81893439798dB,-2.29338225236812°)
7.58577575029177e+005	(213070.64212192394dB,-2.24283675295067°)
7.76247116628685e+005	(213130.1395081835dB,-2.19344178905708°)
7.94328234724275e+005	(213186.4780280235dB,-2.1451646636659°)
8.12830516164092e+005	(213239.81728918973dB,-2.09797409649884°)
8.31763771102664e+005	(213290.3098231697dB,-2.05184015178786°)
8.51138038202369e+005	(213338.10132902185dB,-2.00673416892067°)
8.70963589956073e+005	(213383.3309106031dB,-1.96262869586197°)
8.91250938133738e+005	(213426.13130790807dB,-1.91949742526582°)
9.12010839355902e+005	(213466.6291229705dB,-1.87731513320975°)
9.33254300796983e+005	(213504.9450402036dB,-1.83605762049304°)
9.54992586021428e+005	(213541.1940422492dB,-1.79570165645044°)
9.77237220955802e+005	(213575.48562082523dB,-1.75622492523898°)
1.00000000000000e+006	(213607.92398329492dB,-1.71760597455939°)
Step Information: Run=2  (Run: 2/18)
1.00000000000000e+003	(54320143.30724463dB,-88.0164056534937°)
1.02329299228075e+003	(53086697.69388901dB,-88.1526849690503°)
1.04712854805090e+003	(51880885.19861485dB,-88.2880024905958°)
1.07151930523761e+003	(50702100.62807088dB,-88.4224277726733°)
1.09647819614319e+003	(49549750.86812781dB,-88.5560299693526°)
1.12201845430196e+003	(48423254.71731175dB,-88.6888778609563°)
1.14815362149688e+003	(47322042.716967784dB,-88.8210398808803°)
1.17489755493953e+003	(46245556.978727326dB,-88.9525841425264°)
1.20226443461741e+003	(45193251.00969193dB,-89.0835784661521°)
1.23026877081238e+003	(44164589.53578787dB,-89.214090405842°)
1.25892541179417e+003	(43159048.32376717dB,-89.3441872763743°)
1.28824955169313e+003	(42176114.00213633dB,-89.4739361800578°)
