Freq.	V(vout)/V(vin)
Step Information: Run=1  (Run: 1/18)
1.00000000000000e+002	(3.88691557079265e+001dB,-5.71400597618467e-002°)
1.02329299228075e+002	(3.88691562862051e+001dB,-5.84710267328503e-002°)
1.04712854805090e+002	(3.88691568917390e+001dB,-5.98329962246843e-002°)
1.07151930523761e+002	(3.88691575258106e+001dB,-6.12266903776767e-002°)
1.09647819614318e+002	(3.88691581897673e+001dB,-6.26528481306628e-002°)
1.12201845430196e+002	(3.88691588850130e+001dB,-6.41122257429095e-002°)
1.14815362149688e+002	(3.88691596130237e+001dB,-6.56055970082002e-002°)
1.17489755493953e+002	(3.88691603753450e+001dB,-6.71337537659781e-002°)
1.20226443461741e+002	(3.88691611735934e+001dB,-6.86975062826430e-002°)
1.23026877081238e+002	(3.88691620094625e+001dB,-7.02976837519474e-002°)
1.25892541179417e+002	(3.88691628847265e+001dB,-7.19351346419030e-002°)
1.28824955169313e+002	(3.88691638012385e+001dB,-7.36107271964649e-002°)
1.31825673855641e+002	(3.88691647609471e+001dB,-7.53253499139842e-002°)
1.34896288259165e+002	(3.88691657658801e+001dB,-7.70799118724630e-002°)
1.38038426460288e+002	(3.88691668181808e+001dB,-7.88753435647933e-002°)
1.41253754462275e+002	(3.88691679200708e+001dB,-8.07125968935919e-002°)
1.44543977074593e+002	(3.88691690738933e+001dB,-8.25926461262825e-002°)
1.47910838816821e+002	(3.88691702820919e+001dB,-8.45164881401519e-002°)
1.51356124843621e+002	(3.88691715472318e+001dB,-8.64851430589574e-002°)
1.54881661891248e+002	(3.88691728719959e+001dB,-8.84996547719503e-002°)
1.58489319246111e+002	(3.88691742591936e+001dB,-9.05610914772469e-002°)
1.62181009735893e+002	(3.88691757117704e+001dB,-9.26705462911577e-002°)
1.65958690743756e+002	(3.88691772328029e+001dB,-9.48291377576809e-002°)
1.69824365246174e+002	(3.88691788255213e+001dB,-9.70380105007864e-002°)
1.73780082874937e+002	(3.88691804933006e+001dB,-9.92983358304053e-002°)
1.77827941003892e+002	(3.88691822396806e+001dB,-1.01611312277851e-001°)
1.81970085860998e+002	(3.88691840683655e+001dB,-1.03978166428653e-001°)
1.86208713666287e+002	(3.88691859832335e+001dB,-1.06400153276073e-001°)
1.90546071796324e+002	(3.88691879883471e+001dB,-1.08878557168212e-001°)
1.94984459975804e+002	(3.88691900879567e+001dB,-1.11414692364921e-001°)
1.99526231496888e+002	(3.88691922865206e+001dB,-1.14009903755479e-001°)
2.04173794466953e+002	(3.88691945886983e+001dB,-1.16665567476774e-001°)
2.08929613085404e+002	(3.88691969993759e+001dB,-1.19383091875863e-001°)
2.13796208950223e+002	(3.88691995236650e+001dB,-1.22163917975941e-001°)
2.18776162394955e+002	(3.88692021669192e+001dB,-1.25009520458784e-001°)
2.23872113856834e+002	(3.88692049347475e+001dB,-1.27921408351898e-001°)
2.29086765276777e+002	(3.88692078330197e+001dB,-1.30901125835367e-001°)
2.34422881531992e+002	(3.88692108678835e+001dB,-1.33950253091117e-001°)
2.39883291901949e+002	(3.88692140457765e+001dB,-1.37070407088145e-001°)
2.45470891568503e+002	(3.88692173734387e+001dB,-1.40263242505177e-001°)
2.51188643150958e+002	(3.88692208579294e+001dB,-1.43530452601077e-001°)
2.57039578276886e+002	(3.88692245066401e+001dB,-1.46873770039037e-001°)
2.63026799189538e+002	(3.88692283273097e+001dB,-1.50294967907534e-001°)
2.69153480392691e+002	(3.88692323280422e+001dB,-1.53795860594271e-001°)
2.75422870333816e+002	(3.88692365173240e+001dB,-1.57378304779898e-001°)
2.81838293126445e+002	(3.88692409040414e+001dB,-1.61044200415200e-001°)
2.88403150312660e+002	(3.88692454974989e+001dB,-1.64795491735127e-001°)
2.95120922666638e+002	(3.88692503074399e+001dB,-1.68634168291853e-001°)
3.01995172040201e+002	(3.88692553440676e+001dB,-1.72562266001002e-001°)
3.09029543251358e+002	(3.88692606180659e+001dB,-1.76581868260384e-001°)
3.16227766016837e+002	(3.88692661406198e+001dB,-1.80695106998944e-001°)
3.23593656929628e+002	(3.88692719234456e+001dB,-1.84904163869214e-001°)
3.31131121482590e+002	(3.88692779788085e+001dB,-1.89211271358413e-001°)
3.38844156139202e+002	(3.88692843195534e+001dB,-1.93618714001511e-001°)
3.46736850452531e+002	(3.88692909591299e+001dB,-1.98128829631450e-001°)
3.54813389233575e+002	(3.88692979116217e+001dB,-2.02744010512187e-001°)
3.63078054770101e+002	(3.88693051917759e+001dB,-2.07466704772609e-001°)
3.71535229097172e+002	(3.88693128150352e+001dB,-2.12299417548505e-001°)
3.80189396320560e+002	(3.88693207975699e+001dB,-2.17244712431356e-001°)
3.89045144994280e+002	(3.88693291563122e+001dB,-2.22305212770481e-001°)
3.98107170553496e+002	(3.88693379089927e+001dB,-2.27483603115997e-001°)
4.07380277804112e+002	(3.88693470741770e+001dB,-2.32782630592307e-001°)
4.16869383470335e+002	(3.88693566713062e+001dB,-2.38205106412393e-001°)
4.26579518801592e+002	(3.88693667207377e+001dB,-2.43753907378960e-001°)
4.36515832240165e+002	(3.88693772437878e+001dB,-2.49431977333867e-001°)
4.46683592150962e+002	(3.88693882627784e+001dB,-2.55242328861045e-001°)
4.57088189614874e+002	(3.88693998010826e+001dB,-2.61188044777794e-001°)
4.67735141287197e+002	(3.88694118831750e+001dB,-2.67272279832138e-001°)
4.78630092322637e+002	(3.88694245346843e+001dB,-2.73498262390041e-001°)
4.89778819368445e+002	(3.88694377824469e+001dB,-2.79869296130235e-001°)
5.01187233627271e+002	(3.88694516545640e+001dB,-2.86388761850382e-001°)
5.12861383991364e+002	(3.88694661804608e+001dB,-2.93060119206779e-001°)
5.24807460249771e+002	(3.88694813909496e+001dB,-2.99886908651305e-001°)
5.37031796370251e+002	(3.88694973182957e+001dB,-3.06872753230788e-001°)
5.49540873857623e+002	(3.88695139962838e+001dB,-3.14021360598521e-001°)
5.62341325190348e+002	(3.88695314602916e+001dB,-3.21336524974005e-001°)
5.75439937337155e+002	(3.88695497473639e+001dB,-3.28822129122210e-001°)
5.88843655355587e+002	(3.88695688962919e+001dB,-3.36482146530023e-001°)
6.02559586074356e+002	(3.88695889476948e+001dB,-3.44320643465814e-001°)
6.16595001861481e+002	(3.88696099441060e+001dB,-3.52341781162077e-001°)
6.30957344480192e+002	(3.88696319300640e+001dB,-3.60549818064832e-001°)
6.45654229034654e+002	(3.88696549522062e+001dB,-3.68949112120117e-001°)
6.60693448007594e+002	(3.88696790593683e+001dB,-3.77544123103453e-001°)
6.76082975391980e+002	(3.88697043026875e+001dB,-3.86339415018909e-001°)
6.91830970918935e+002	(3.88697307357113e+001dB,-3.95339658532122e-001°)
7.07945784384136e+002	(3.88697584145111e+001dB,-4.04549633520230e-001°)
7.24435960074988e+002	(3.88697873978010e+001dB,-4.13974231614127e-001°)
7.41310241300916e+002	(3.88698177470625e+001dB,-4.23618458833750e-001°)
7.58577575029182e+002	(3.88698495266748e+001dB,-4.33487438297051e-001°)
7.76247116628690e+002	(3.88698828040517e+001dB,-4.43586412986193e-001°)
7.94328234724279e+002	(3.88699176497841e+001dB,-4.53920748554662e-001°)
8.12830516164097e+002	(3.88699541377902e+001dB,-4.64495936240227e-001°)
8.31763771102669e+002	(3.88699923454727e+001dB,-4.75317595833343e-001°)
8.51138038202374e+002	(3.88700323538820e+001dB,-4.86391478715630e-001°)
8.70963589956078e+002	(3.88700742478889e+001dB,-4.97723470965243e-001°)
8.91250938133743e+002	(3.88701181163648e+001dB,-5.09319596564565e-001°)
9.12010839355907e+002	(3.88701640523696e+001dB,-5.21186020650734e-001°)
9.33254300796988e+002	(3.88702121533500e+001dB,-5.33329052887278e-001°)
9.54992586021433e+002	(3.88702625213457e+001dB,-5.45755150863302e-001°)
9.77237220955808e+002	(3.88703152632060e+001dB,-5.58470923639979e-001°)
9.99999999999997e+002	(3.88703704908169e+001dB,-5.71483135337294e-001°)
1.02329299228075e+003	(3.88704283213381e+001dB,-5.84798708824550e-001°)
1.04712854805090e+003	(3.88704888774520e+001dB,-5.98424729506769e-001°)
1.07151930523760e+003	(3.88705522876237e+001dB,-6.12368449212598e-001°)
1.09647819614318e+003	(3.88706186863740e+001dB,-6.26637290152172e-001°)
1.12201845430196e+003	(3.88706882145645e+001dB,-6.41238848997814e-001°)
1.14815362149688e+003	(3.88707610196972e+001dB,-6.56180901073769e-001°)
1.17489755493953e+003	(3.88708372562267e+001dB,-6.71471404611464e-001°)
1.20226443461741e+003	(3.88709170858887e+001dB,-6.87118505163056e-001°)
1.23026877081238e+003	(3.88710006780434e+001dB,-7.03130540097095e-001°)
1.25892541179416e+003	(3.88710882100341e+001dB,-7.19516043209714e-001°)
1.28824955169313e+003	(3.88711798675646e+001dB,-7.36283749465403e-001°)
1.31825673855640e+003	(3.88712758450931e+001dB,-7.53442599859194e-001°)
1.34896288259165e+003	(3.88713763462448e+001dB,-7.71001746377202e-001°)
1.38038426460288e+003	(3.88714815842445e+001dB,-7.88970557141949e-001°)
1.41253754462275e+003	(3.88715917823689e+001dB,-8.07358621621542e-001°)
1.44543977074592e+003	(3.88717071744213e+001dB,-8.26175756045309e-001°)
1.47910838816820e+003	(3.88718280052271e+001dB,-8.45432008891373e-001°)
1.51356124843620e+003	(3.88719545311546e+001dB,-8.65137666584974e-001°)
1.54881661891248e+003	(3.88720870206588e+001dB,-8.85303259315024e-001°)
1.58489319246111e+003	(3.88722257548514e+001dB,-9.05939566991902e-001°)
1.62181009735892e+003	(3.88723710280984e+001dB,-9.27057625397542e-001°)
1.65958690743755e+003	(3.88725231486445e+001dB,-9.48668732486797e-001°)
1.69824365246174e+003	(3.88726824392683e+001dB,-9.70784454858334e-001°)
1.73780082874937e+003	(3.88728492379677e+001dB,-9.93416634406360e-001°)
1.77827941003892e+003	(3.88730238986781e+001dB,-1.01657739515261e+000°)
1.81970085860998e+003	(3.88732067920237e+001dB,-1.04027915026438e+000°)
1.86208713666286e+003	(3.88733983061056e+001dB,-1.06453460928812e+000°)
1.90546071796324e+003	(3.88735988473256e+001dB,-1.08935678555506e+000°)
1.94984459975804e+003	(3.88738088412507e+001dB,-1.11475900381841e+000°)
1.99526231496887e+003	(3.88740287335161e+001dB,-1.14075490811147e+000°)
2.04173794466952e+003	(3.88742589907734e+001dB,-1.16735846980947e+000°)
2.08929613085403e+003	(3.88745001016819e+001dB,-1.19458399594925e+000°)
2.13796208950222e+003	(3.88747525779471e+001dB,-1.22244613777187e+000°)
2.18776162394954e+003	(3.88750169554086e+001dB,-1.25095989953742e+000°)
2.23872113856833e+003	(3.88752937951794e+001dB,-1.28014064758086e+000°)
2.29086765276776e+003	(3.88755836848384e+001dB,-1.31000411965235e+000°)
2.34422881531991e+003	(3.88758872396804e+001dB,-1.34056643454588e+000°)
2.39883291901948e+003	(3.88762051040242e+001dB,-1.37184410199642e+000°)
2.45470891568502e+003	(3.88765379525831e+001dB,-1.40385403290887e+000°)
2.51188643150957e+003	(3.88768864919002e+001dB,-1.43661354989952e+000°)
2.57039578276885e+003	(3.88772514618512e+001dB,-1.47014039815897e+000°)
2.63026799189537e+003	(3.88776336372188e+001dB,-1.50445275666458e+000°)
2.69153480392690e+003	(3.88780338293416e+001dB,-1.53956924976414e+000°)
2.75422870333815e+003	(3.88784528878405e+001dB,-1.57550895911488e+000°)
2.81838293126444e+003	(3.88788917024276e+001dB,-1.61229143603461e+000°)
2.88403150312659e+003	(3.88793512047999e+001dB,-1.64993671424822e+000°)
2.95120922666637e+003	(3.88798323706239e+001dB,-1.68846532307782e+000°)
3.01995172040200e+003	(3.88803362216127e+001dB,-1.72789830105141e+000°)
3.09029543251358e+003	(3.88808638277030e+001dB,-1.76825721001727e+000°)
3.16227766016836e+003	(3.88814163093341e+001dB,-1.80956414971860e+000°)
3.23593656929627e+003	(3.88819948398358e+001dB,-1.85184177289441e+000°)
3.31131121482590e+003	(3.88826006479293e+001dB,-1.89511330091977e+000°)
3.38844156139201e+003	(3.88832350203462e+001dB,-1.93940253999979e+000°)
3.46736850452530e+003	(3.88838993045728e+001dB,-1.98473389796911e+000°)
3.54813389233574e+003	(3.88845949117236e+001dB,-2.03113240169579e+000°)
3.63078054770100e+003	(3.88853233195521e+001dB,-2.07862371515954e+000°)
3.71535229097171e+003	(3.88860860756037e+001dB,-2.12723415819001e+000°)
3.80189396320559e+003	(3.88868848005197e+001dB,-2.17699072594899e+000°)
3.89045144994279e+003	(3.88877211914969e+001dB,-2.22792110915917e+000°)
3.98107170553495e+003	(3.88885970259125e+001dB,-2.28005371513192e+000°)
4.07380277804111e+003	(3.88895141651213e+001dB,-2.33341768964713e+000°)
4.16869383470333e+003	(3.88904745584335e+001dB,-2.38804293970488e+000°)
4.26579518801591e+003	(3.88914802472819e+001dB,-2.44396015722641e+000°)
4.36515832240164e+003	(3.88925333695872e+001dB,-2.50120084374226e+000°)
4.46683592150961e+003	(3.88936361643319e+001dB,-2.55979733611190e+000°)
4.57088189614873e+003	(3.88947909763519e+001dB,-2.61978283335759e+000°)
4.67735141287196e+003	(3.88960002613559e+001dB,-2.68119142466377e+000°)
4.78630092322636e+003	(3.88972665911856e+001dB,-2.74405811859771e+000°)
4.89778819368444e+003	(3.88985926593258e+001dB,-2.80841887365392e+000°)
5.01187233627270e+003	(3.88999812866782e+001dB,-2.87431063016031e+000°)
5.12861383991362e+003	(3.89014354276108e+001dB,-2.94177134366560e+000°)
5.24807460249770e+003	(3.89029581762967e+001dB,-3.01084001987182e+000°)
5.37031796370250e+003	(3.89045527733556e+001dB,-3.08155675121700e+000°)
5.49540873857622e+003	(3.89062226128139e+001dB,-3.15396275520180e+000°)
5.62341325190346e+003	(3.89079712493974e+001dB,-3.22810041458859e+000°)
5.75439937337154e+003	(3.89098024061736e+001dB,-3.30401331954962e+000°)
5.88843655355586e+003	(3.89117199825601e+001dB,-3.38174631194028e+000°)
6.02559586074354e+003	(3.89137280627179e+001dB,-3.46134553179225e+000°)
6.16595001861479e+003	(3.89158309243468e+001dB,-3.54285846617889e+000°)
6.30957344480190e+003	(3.89180330479031e+001dB,-3.62633400062516e+000°)
6.45654229034652e+003	(3.89203391262613e+001dB,-3.71182247320557e+000°)
6.60693448007592e+003	(3.89227540748389e+001dB,-3.79937573151994e+000°)
6.76082975391978e+003	(3.89252830422096e+001dB,-3.88904719274303e+000°)
6.91830970918932e+003	(3.89279314212271e+001dB,-3.98089190694100e+000°)
7.07945784384134e+003	(3.89307048606843e+001dB,-4.07496662388994e+000°)
7.24435960074986e+003	(3.89336092775353e+001dB,-4.17132986362933e+000°)
7.41310241300913e+003	(3.89366508697066e+001dB,-4.27004199101219e+000°)
7.58577575029179e+003	(3.89398361295264e+001dB,-4.37116529452925e+000°)
7.76247116628687e+003	(3.89431718578027e+001dB,-4.47476406970218e+000°)
7.94328234724277e+003	(3.89466651785815e+001dB,-4.58090470737867e+000°)
8.12830516164094e+003	(3.89503235546184e+001dB,-4.68965578727524e+000°)
8.31763771102666e+003	(3.89541548035984e+001dB,-4.80108817713988e+000°)
8.51138038202371e+003	(3.89581671151407e+001dB,-4.91527513795428e+000°)
8.70963589956075e+003	(3.89623690686261e+001dB,-5.03229243560800e+000°)
8.91250938133740e+003	(3.89667696518874e+001dB,-5.15221845952342e+000°)
9.12010839355904e+003	(3.89713782808057e+001dB,-5.27513434875589e+000°)
9.33254300796985e+003	(3.89762048198544e+001dB,-5.40112412611948e+000°)
9.54992586021430e+003	(3.89812596036385e+001dB,-5.53027484095373e+000°)
9.77237220955804e+003	(3.89865534594771e+001dB,-5.66267672118315e+000°)
9.99999999999993e+003	(3.89920977310779e+001dB,-5.79842333539403e+000°)
1.02329299228075e+004	(3.89979043033579e+001dB,-5.93761176568937e+000°)
1.04712854805089e+004	(3.90039856284629e+001dB,-6.08034279218091e+000°)
1.07151930523760e+004	(3.90103547530441e+001dB,-6.22672109002900e+000°)
1.09647819614318e+004	(3.90170253468497e+001dB,-6.37685544001862e+000°)
1.12201845430196e+004	(3.90240117326939e+001dB,-6.53085895377653e+000°)
1.14815362149688e+004	(3.90313289178653e+001dB,-6.68884931479444e+000°)
1.17489755493952e+004	(3.90389926270423e+001dB,-6.85094903655652e+000°)
1.20226443461740e+004	(3.90470193367812e+001dB,-7.01728573917959e+000°)
1.23026877081237e+004	(3.90554263116478e+001dB,-7.18799244609845e+000°)
1.25892541179416e+004	(3.90642316420646e+001dB,-7.36320790247309e+000°)
1.28824955169313e+004	(3.90734542839437e+001dB,-7.54307691715990e+000°)
1.31825673855640e+004	(3.90831141001832e+001dB,-7.72775073024827e+000°)
1.34896288259164e+004	(3.90932319040982e+001dB,-7.91738740836573e+000°)
1.38038426460288e+004	(3.91038295048630e+001dB,-8.11215227015804e+000°)
1.41253754462274e+004	(3.91149297550389e+001dB,-8.31221834459319e+000°)
1.44543977074592e+004	(3.91265566002592e+001dB,-8.51776686498461e+000°)
1.47910838816820e+004	(3.91387351311417e+001dB,-8.72898780192664e+000°)
1.51356124843620e+004	(3.91514916374965e+001dB,-8.94608043864461e+000°)
1.54881661891247e+004	(3.91648536648883e+001dB,-9.16925399261884e+000°)
1.58489319246110e+004	(3.91788500736066e+001dB,-9.39872828772769e+000°)
1.62181009735892e+004	(3.91935111000894e+001dB,-9.63473448159744e+000°)
1.65958690743755e+004	(3.92088684208283e+001dB,-9.87751585331690e+000°)
1.69824365246173e+004	(3.92249552187712e+001dB,-1.01273286572324e+001°)
1.73780082874936e+004	(3.92418062522169e+001dB,-1.03844430491112e+001°)
1.77827941003891e+004	(3.92594579261675e+001dB,-1.06491440916596e+001°)
1.81970085860997e+004	(3.92779483660767e+001dB,-1.09217328470996e+001°)
1.86208713666285e+004	(3.92973174938894e+001dB,-1.12025275653574e+001°)
1.90546071796323e+004	(3.93176071062208e+001dB,-1.14918649773375e+001°)
1.94984459975803e+004	(3.93388609544622e+001dB,-1.17901017037948e+001°)
1.99526231496887e+004	(3.93611248265301e+001dB,-1.20976157914782e+001°)
2.04173794466951e+004	(3.93844466298840e+001dB,-1.24148083895076e+001°)
2.08929613085402e+004	(3.94088764753312e+001dB,-1.27421055804099e+001°)
2.13796208950222e+004	(3.94344667610065e+001dB,-1.30799603818384e+001°)
2.18776162394954e+004	(3.94612722557530e+001dB,-1.34288549368341e+001°)
2.23872113856832e+004	(3.94893501809409e+001dB,-1.37893029124920e+001°)
2.29086765276776e+004	(3.95187602895227e+001dB,-1.41618521291705e+001°)
2.34422881531990e+004	(3.95495649408440e+001dB,-1.45470874448976e+001°)
2.39883291901947e+004	(3.95818291693844e+001dB,-1.49456339224451e+001°)
2.45470891568501e+004	(3.96156207451879e+001dB,-1.53581603096712e+001°)
2.51188643150956e+004	(3.96510102232392e+001dB,-1.57853828672114e+001°)
2.57039578276884e+004	(3.96880709784384e+001dB,-1.62280695814483e+001°)
2.63026799189536e+004	(3.97268792220831e+001dB,-1.66870448049423e+001°)
2.69153480392689e+004	(3.97675139948828e+001dB,-1.71631943711761e+001°)
2.75422870333814e+004	(3.98100571304456e+001dB,-1.76574712355666e+001°)
2.81838293126443e+004	(3.98545931818714e+001dB,-1.81709017002254e+001°)
2.88403150312658e+004	(3.99012093024987e+001dB,-1.87045922858784e+001°)
2.95120922666636e+004	(3.99499950699323e+001dB,-1.92597373206276e+001°)
3.01995172040199e+004	(4.00010422401492e+001dB,-1.98376273217651e+001°)
3.09029543251357e+004	(4.00544444156566e+001dB,-2.04396582534267e+001°)
3.16227766016835e+004	(4.01102966082595e+001dB,-2.10673417492908e+001°)
3.23593656929626e+004	(4.01686946728506e+001dB,-2.17223163953462e+001°)
3.31131121482588e+004	(4.02297345836285e+001dB,-2.24063601724353e+001°)
3.38844156139200e+004	(4.02935115180953e+001dB,-2.31214041610004e+001°)
3.46736850452529e+004	(4.03601187068856e+001dB,-2.38695476100631e+001°)
3.54813389233573e+004	(4.04296459986928e+001dB,-2.46530744673632e+001°)
3.63078054770098e+004	(4.05021780790308e+001dB,-2.54744714555355e+001°)
3.71535229097169e+004	(4.05777922689975e+001dB,-2.63364477571842e+001°)
3.80189396320558e+004	(4.06565558152938e+001dB,-2.72419563355853e+001°)
3.89045144994277e+004	(4.07385225652029e+001dB,-2.81942168619327e+001°)
3.98107170553494e+004	(4.08237288998005e+001dB,-2.91967401371096e+001°)
4.07380277804109e+004	(4.09121887752233e+001dB,-3.02533537760454e+001°)
4.16869383470332e+004	(4.10038876954714e+001dB,-3.13682287529590e+001°)
4.26579518801589e+004	(4.10987754114477e+001dB,-3.25459061695941e+001°)
4.36515832240162e+004	(4.11967571108972e+001dB,-3.37913232849823e+001°)
4.46683592150959e+004	(4.12976828347619e+001dB,-3.51098374085185e+001°)
4.57088189614871e+004	(4.14013348309367e+001dB,-3.65072456775468e+001°)
4.67735141287194e+004	(4.15074125425247e+001dB,-3.79897979817408e+001°)
4.78630092322634e+004	(4.16155149337266e+001dB,-3.95641993238851e+001°)
4.89778819368442e+004	(4.17251198962320e+001dB,-4.12375966899839e+001°)
5.01187233627268e+004	(4.18355605720174e+001dB,-4.30175440271944e+001°)
5.12861383991360e+004	(4.19459986015015e+001dB,-4.49119372178214e+001°)
5.24807460249768e+004	(4.20553945934815e+001dB,-4.69289090790844e+001°)
5.37031796370248e+004	(4.21624765561830e+001dB,-4.90766726083606e+001°)
5.49540873857620e+004	(4.22657076702061e+001dB,-5.13632992953867e+001°)
5.62341325190344e+004	(4.23632556588577e+001dB,-5.37964189311109e+001°)
