Freq.	V(vin)/-I(R3)
Step Information: Run=1  (Run: 1/18)
1.00000000000000e+001	(1.63025841201695e+002dB,-3.64788959521158e+000°)
1.02329299228075e+001	(1.63025010489716e+002dB,-3.73262140687901e+000°)
1.04712854805090e+001	(1.63024140797651e+002dB,-3.81930988200580e+000°)
1.07151930523761e+001	(1.63023230304835e+002dB,-3.90799938906201e+000°)
1.09647819614319e+001	(1.63022277106420e+002dB,-3.99873524450360e+000°)
1.12201845430196e+001	(1.63021279209391e+002dB,-4.09156372876971e+000°)
1.14815362149688e+001	(1.63020234528590e+002dB,-4.18653210231202e+000°)
1.17489755493953e+001	(1.63019140882745e+002dB,-4.28368862163984e+000°)
1.20226443461741e+001	(1.63017995990146e+002dB,-4.38308255518555e+000°)
1.23026877081238e+001	(1.63016797463781e+002dB,-4.48476419885227e+000°)
1.25892541179417e+001	(1.63015542806986e+002dB,-4.58878489173418e+000°)
1.28824955169313e+001	(1.63014229408368e+002dB,-4.69519703136239e+000°)
1.31825673855641e+001	(1.63012854536869e+002dB,-4.80405408887470e+000°)
1.34896288259165e+001	(1.63011415335919e+002dB,-4.91541062349635e+000°)
1.38038426460288e+001	(1.63009908818592e+002dB,-5.02932229733671e+000°)
1.41253754462275e+001	(1.63008331861127e+002dB,-5.14584588899845e+000°)
1.44543977074593e+001	(1.63006681197623e+002dB,-5.26503930751364e+000°)
1.47910838816821e+001	(1.63004953412725e+002dB,-5.38696160471708e+000°)
1.51356124843621e+001	(1.63003144936341e+002dB,-5.51167298837970e+000°)
1.54881661891248e+001	(1.63001252035991e+002dB,-5.63923483340758e+000°)
1.58489319246111e+001	(1.62999270809771e+002dB,-5.76970969279867e+000°)
1.62181009735893e+001	(1.62997197179548e+002dB,-5.90316130812275e+000°)
1.65958690743756e+001	(1.62995026882836e+002dB,-6.03965461839631e+000°)
1.69824365246174e+001	(1.62992755464890e+002dB,-6.17925576826586e+000°)
1.73780082874937e+001	(1.62990378271028e+002dB,-6.32203211545399e+000°)
1.77827941003892e+001	(1.62987890437244e+002dB,-6.46805223598728e+000°)
1.81970085860998e+001	(1.62985286882247e+002dB,-6.61738592932816e+000°)
1.86208713666287e+001	(1.62982562297086e+002dB,-6.77010422049404e+000°)
1.90546071796325e+001	(1.62979711137225e+002dB,-6.92627936268414e+000°)
1.94984459975804e+001	(1.62976727611146e+002dB,-7.08598483577188e+000°)
1.99526231496888e+001	(1.62973605670874e+002dB,-7.24929534464186e+000°)
2.04173794466953e+001	(1.62970339001966e+002dB,-7.41628681541506e+000°)
2.08929613085404e+001	(1.62966921011067e+002dB,-7.58703638770300e+000°)
2.13796208950223e+001	(1.62963344816053e+002dB,-7.76162240695210e+000°)
2.18776162394955e+001	(1.62959603233725e+002dB,-7.94012441247646e+000°)
2.23872113856834e+001	(1.62955688768007e+002dB,-8.12262312346552e+000°)
2.29086765276777e+001	(1.62951593597249e+002dB,-8.30920042155128e+000°)
2.34422881531992e+001	(1.62947309562028e+002dB,-8.49993933100456e+000°)
2.39883291901949e+001	(1.62942828151028e+002dB,-8.69492399402710e+000°)
2.45470891568503e+001	(1.62938140488788e+002dB,-8.89423964457639e+000°)
2.51188643150958e+001	(1.62933237320853e+002dB,-9.09797257609605e+000°)
2.57039578276886e+001	(1.62928108999944e+002dB,-9.30621010643920e+000°)
2.63026799189538e+001	(1.62922745471433e+002dB,-9.51904053803382e+000°)
2.69153480392691e+001	(1.62917136258307e+002dB,-9.73655311314520e+000°)
2.75422870333816e+001	(1.62911270445462e+002dB,-9.95883796371329e+000°)
2.81838293126445e+001	(1.62905136665404e+002dB,-1.01859860578290e+001°)
2.88403150312660e+001	(1.62898723080571e+002dB,-1.04180891370378e+001°)
2.95120922666638e+001	(1.62892017369142e+002dB,-1.06552396520542e+001°)
3.01995172040201e+001	(1.62885006707023e+002dB,-1.08975306879405e+001°)
3.09029543251359e+001	(1.62877677751994e+002dB,-1.11450558854669e+001°)
3.16227766016838e+001	(1.62870016627164e+002dB,-1.13979093549142e+001°)
3.23593656929628e+001	(1.62862008903260e+002dB,-1.16561855811706e+001°)
3.31131121482591e+001	(1.62853639582332e+002dB,-1.19199793230828e+001°)
3.38844156139202e+001	(1.62844893079713e+002dB,-1.21893855024308e+001°)
3.46736850452531e+001	(1.62835753208000e+002dB,-1.24644990872035e+001°)
3.54813389233575e+001	(1.62826203159224e+002dB,-1.27454149634625e+001°)
3.63078054770101e+001	(1.62816225487990e+002dB,-1.30322277991218e+001°)
3.71535229097172e+001	(1.62805802094630e+002dB,-1.33250318978885e+001°)
3.80189396320561e+001	(1.62794914208960e+002dB,-1.36239210437671e+001°)
3.89045144994280e+001	(1.62783542373876e+002dB,-1.39289883344936e+001°)
3.98107170553497e+001	(1.62771666429739e+002dB,-1.42403260048409e+001°)
4.07380277804112e+001	(1.62759265498955e+002dB,-1.45580252384212e+001°)
4.16869383470335e+001	(1.62746317971544e+002dB,-1.48821759687722e+001°)
4.26579518801592e+001	(1.62732801490976e+002dB,-1.52128666680669e+001°)
4.36515832240165e+001	(1.62718692941888e+002dB,-1.55501841258011e+001°)
4.46683592150962e+001	(1.62703968437982e+002dB,-1.58942132141410e+001°)
4.57088189614874e+001	(1.62688603310454e+002dB,-1.62450366398931e+001°)
4.67735141287197e+001	(1.62672572099517e+002dB,-1.66027346876125e+001°)
4.78630092322638e+001	(1.62655848546249e+002dB,-1.69673849484352e+001°)
4.89778819368445e+001	(1.62638405585434e+002dB,-1.73390620353621e+001°)
5.01187233627271e+001	(1.62620215342148e+002dB,-1.77178372903281e+001°)
5.12861383991364e+001	(1.62601249127755e+002dB,-1.81037784741428e+001°)
5.24807460249772e+001	(1.62581477441130e+002dB,-1.84969494511389e+001°)
5.37031796370252e+001	(1.62560869969046e+002dB,-1.88974098558429e+001°)
5.49540873857624e+001	(1.62539395591220e+002dB,-1.93052147532478e+001°)
5.62341325190348e+001	(1.62517022388420e+002dB,-1.97204142898119e+001°)
5.75439937337156e+001	(1.62493717651192e+002dB,-2.01430533296138e+001°)
5.88843655355588e+001	(1.62469447893833e+002dB,-2.05731710865619e+001°)
6.02559586074357e+001	(1.62444178871729e+002dB,-2.10108007492008e+001°)
6.16595001861481e+001	(1.62417875600592e+002dB,-2.14559690949110e+001°)
6.30957344480192e+001	(1.62390502381814e+002dB,-2.19086961047802e+001°)
6.45654229034654e+001	(1.62362022829343e+002dB,-2.23689945686172e+001°)
6.60693448007595e+001	(1.62332399903044e+002dB,-2.28368696939038e+001°)
6.76082975391980e+001	(1.62301595944273e+002dB,-2.33123187089216e+001°)
6.91830970918935e+001	(1.62269572717638e+002dB,-2.37953304721153e+001°)
7.07945784384136e+001	(1.62236291456936e+002dB,-2.42858850842358e+001°)
7.24435960074988e+001	(1.62201712914691e+002dB,-2.47839535032111e+001°)
7.41310241300916e+001	(1.62165797418347e+002dB,-2.52894971728323e+001°)
7.58577575029182e+001	(1.62128504930202e+002dB,-2.58024676592977e+001°)
7.76247116628690e+001	(1.62089795112633e+002dB,-2.63228063026294e+001°)
7.94328234724279e+001	(1.62049627398292e+002dB,-2.68504438849952e+001°)
8.12830516164097e+001	(1.62007961065263e+002dB,-2.73853003189250e+001°)
8.31763771102669e+001	(1.61964755316670e+002dB,-2.79272843570536e+001°)
8.51138038202374e+001	(1.61919969366567e+002dB,-2.84762933332324e+001°)
8.70963589956078e+001	(1.61873562527250e+002dB,-2.90322129218655e+001°)
8.91250938133743e+001	(1.61825494304532e+002dB,-2.95949169421756e+001°)
9.12010839355907e+001	(1.61775724495059e+002dB,-3.01642671909183e+001°)
9.33254300796988e+001	(1.61724213287058e+002dB,-3.07401133121502e+001°)
9.54992586021433e+001	(1.61670921366363e+002dB,-3.13222927157264e+001°)
9.77237220955808e+001	(1.61615810023478e+002dB,-3.19106305327781e+001°)
9.99999999999997e+001	(1.61558841264347e+002dB,-3.25049396229243e+001°)
1.02329299228075e+002	(1.61499977922492e+002dB,-3.31050206285430e+001°)
1.04712854805090e+002	(1.61439183772853e+002dB,-3.37106620818517e+001°)
1.07151930523760e+002	(1.61376423646667e+002dB,-3.43216405667274e+001°)
1.09647819614318e+002	(1.61311663545536e+002dB,-3.49377209313620e+001°)
1.12201845430196e+002	(1.61244870756056e+002dB,-3.55586565619713e+001°)
1.14815362149688e+002	(1.61176013962431e+002dB,-3.61841897101908e+001°)
1.17489755493953e+002	(1.61105063356874e+002dB,-3.68140518764242e+001°)
1.20226443461741e+002	(1.61031990748354e+002dB,-3.74479642555698e+001°)
1.23026877081238e+002	(1.60956769665962e+002dB,-3.80856382298881e+001°)
1.25892541179416e+002	(1.60879375459752e+002dB,-3.87267759255040e+001°)
1.28824955169313e+002	(1.60799785394813e+002dB,-3.93710708133543e+001°)
1.31825673855640e+002	(1.60717978740718e+002dB,-4.00182083668046e+001°)
1.34896288259165e+002	(1.60633936853445e+002dB,-4.06678667617336e+001°)
1.38038426460288e+002	(1.60547643250910e+002dB,-4.13197176253413e+001°)
1.41253754462275e+002	(1.60459083679898e+002dB,-4.19734268212239e+001°)
1.44543977074592e+002	(1.60368246174501e+002dB,-4.26286552697678e+001°)
1.47910838816820e+002	(1.60275121106196e+002dB,-4.32850598031882e+001°)
1.51356124843620e+002	(1.60179701223692e+002dB,-4.39422940414357e+001°)
1.54881661891248e+002	(1.60081981684261e+002dB,-4.46000092963144e+001°)
1.58489319246111e+002	(1.59981960073043e+002dB,-4.52578554778461e+001°)
1.62181009735892e+002	(1.59879636414283e+002dB,-4.59154820231986e+001°)
1.65958690743755e+002	(1.59775013170336e+002dB,-4.65725388161106e+001°)
1.69824365246174e+002	(1.59668095232307e+002dB,-4.72286771164210e+001°)
1.73780082874937e+002	(1.59558889898478e+002dB,-4.78835504670482e+001°)
1.77827941003892e+002	(1.59447406843869e+002dB,-4.85368155941174e+001°)
1.81970085860998e+002	(1.59333658080142e+002dB,-4.91881332875947e+001°)
1.86208713666286e+002	(1.59217657905352e+002dB,-4.98371692506876e+001°)
1.90546071796324e+002	(1.59099422845268e+002dB,-5.04835949221781e+001°)
1.94984459975804e+002	(1.58978971585855e+002dB,-5.11270882600433e+001°)
1.99526231496887e+002	(1.58856324898342e+002dB,-5.17673344889133e+001°)
2.04173794466952e+002	(1.58731505556806e+002dB,-5.24040268017381e+001°)
2.08929613085403e+002	(1.58604538248633e+002dB,-5.30368670095328e+001°)
2.13796208950222e+002	(1.58475449480254e+002dB,-5.36655661503888e+001°)
2.18776162394954e+002	(1.58344267476453e+002dB,-5.42898450345858e+001°)
2.23872113856833e+002	(1.58211022076538e+002dB,-5.49094347458250e+001°)
2.29086765276776e+002	(1.58075744626170e+002dB,-5.55240770799510e+001°)
2.34422881531991e+002	(1.57938467866147e+002dB,-5.61335249245016e+001°)
2.39883291901948e+002	(1.57799225820419e+002dB,-5.67375425933818e+001°)
2.45470891568502e+002	(1.57658053681130e+002dB,-5.73359060887252e+001°)
2.51188643150957e+002	(1.57514987694523e+002dB,-5.79284033203850e+001°)
2.57039578276885e+002	(1.57370065046125e+002dB,-5.85148342620999e+001°)
2.63026799189537e+002	(1.57223323747082e+002dB,-5.90950110576758e+001°)
2.69153480392690e+002	(1.57074802521797e+002dB,-5.96687580742735e+001°)
2.75422870333816e+002	(1.56924540697675e+002dB,-6.02359119075943e+001°)
2.81838293126444e+002	(1.56772578097111e+002dB,-6.07963213368801e+001°)
2.88403150312659e+002	(1.56618954932982e+002dB,-6.13498472414667e+001°)
2.95120922666637e+002	(1.56463711706869e+002dB,-6.18963624677913e+001°)
3.01995172040200e+002	(1.56306889111689e+002dB,-6.24357516653029e+001°)
3.09029543251358e+002	(1.56148527937983e+002dB,-6.29679110815643e+001°)
3.16227766016837e+002	(1.55988668984849e+002dB,-6.34927483285417e+001°)
3.23593656929627e+002	(1.55827352975344e+002dB,-6.40101821184228e+001°)
3.31131121482590e+002	(1.55664620476433e+002dB,-6.45201419709487e+001°)
3.38844156139201e+002	(1.55500511824269e+002dB,-6.50225679041135e+001°)
3.46736850452530e+002	(1.55335067053907e+002dB,-6.55174100985064e+001°)
3.54813389233574e+002	(1.55168325834193e+002dB,-6.60046285475821e+001°)
3.63078054770100e+002	(1.55000327407757e+002dB,-6.64841926960935e+001°)
3.71535229097171e+002	(1.54831110535594e+002dB,-6.69560810625916e+001°)
3.80189396320559e+002	(1.54660713446887e+002dB,-6.74202808589979e+001°)
3.89045144994279e+002	(1.54489173793196e+002dB,-6.78767875982624e+001°)
3.98107170553495e+002	(1.54316528607481e+002dB,-6.83256047010252e+001°)
4.07380277804111e+002	(1.54142814267792e+002dB,-6.87667431035598e+001°)
4.16869383470333e+002	(1.53968066464846e+002dB,-6.92002208587089e+001°)
4.26579518801591e+002	(1.53792320174205e+002dB,-6.96260627460653e+001°)
4.36515832240164e+002	(1.53615609632134e+002dB,-7.00442998807952e+001°)
4.46683592150961e+002	(1.53437968315398e+002dB,-7.04549693304900e+001°)
4.57088189614873e+002	(1.53259428924616e+002dB,-7.08581137378696e+001°)
4.67735141287196e+002	(1.53080023370862e+002dB,-7.12537809488723e+001°)
4.78630092322636e+002	(1.52899782765627e+002dB,-7.16420236526412e+001°)
4.89778819368444e+002	(1.52718737413620e+002dB,-7.20228990288737e+001°)
5.01187233627270e+002	(1.52536916808366e+002dB,-7.23964684059123e+001°)
5.12861383991362e+002	(1.52354349630307e+002dB,-7.27627969285654e+001°)
5.24807460249770e+002	(1.52171063747413e+002dB,-7.31219532405076e+001°)
5.37031796370250e+002	(1.51987086217684e+002dB,-7.34740091722197e+001°)
5.49540873857622e+002	(1.51802443293914e+002dB,-7.38190394472816e+001°)
5.62341325190346e+002	(1.51617160430120e+002dB,-7.41571213977384e+001°)
5.75439937337154e+002	(1.51431262289549e+002dB,-7.44883346905941e+001°)
5.88843655355586e+002	(1.51244772754166e+002dB,-7.48127610671526e+001°)
6.02559586074355e+002	(1.51057714935581e+002dB,-7.51304840974560e+001°)
6.16595001861479e+002	(1.50870111186915e+002dB,-7.54415889422118e+001°)
6.30957344480190e+002	(1.50681983115856e+002dB,-7.57461621303966e+001°)
6.45654229034652e+002	(1.50493351598440e+002dB,-7.60442913452843e+001°)
6.60693448007592e+002	(1.50304236793731e+002dB,-7.63360652249720e+001°)
6.76082975391978e+002	(1.50114658159065e+002dB,-7.66215731727490e+001°)
6.91830970918933e+002	(1.49924634465792e+002dB,-7.69009051768150e+001°)
7.07945784384134e+002	(1.49734183815608e+002dB,-7.71741516452677e+001°)
7.24435960074986e+002	(1.49543323657006e+002dB,-7.74414032449179e+001°)
7.41310241300914e+002	(1.49352070802196e+002dB,-7.77027507559047e+001°)
7.58577575029180e+002	(1.49160441444075e+002dB,-7.79582849320760e+001°)
7.76247116628688e+002	(1.48968451173353e+002dB,-7.82080963719348e+001°)
7.94328234724277e+002	(1.48776114995749e+002dB,-7.84522753988449e+001°)
8.12830516164095e+002	(1.48583447349133e+002dB,-7.86909119484642e+001°)
8.31763771102666e+002	(1.48390462120632e+002dB,-7.89240954650389e+001°)
8.51138038202372e+002	(1.48197172663621e+002dB,-7.91519148049797e+001°)
8.70963589956076e+002	(1.48003591814598e+002dB,-7.93744581489797e+001°)
8.91250938133741e+002	(1.47809731909772e+002dB,-7.95918129179224e+001°)
9.12010839355905e+002	(1.47615604801568e+002dB,-7.98040656996392e+001°)
9.33254300796986e+002	(1.47421221874781e+002dB,-8.00113021786882e+001°)
9.54992586021431e+002	(1.47226594062480e+002dB,-8.02136070726076e+001°)
9.77237220955805e+002	(1.47031731861667e+002dB,-8.04110640756810e+001°)
9.99999999999994e+002	(1.46836645348543e+002dB,-8.06037558048084e+001°)
1.02329299228075e+003	(1.46641344193525e+002dB,-8.07917637533842e+001°)
1.04712854805089e+003	(1.46445837675855e+002dB,-8.09751682470067e+001°)
1.07151930523760e+003	(1.46250134697935e+002dB,-8.11540484068335e+001°)
1.09647819614318e+003	(1.46054243799217e+002dB,-8.13284821130138e+001°)
1.12201845430196e+003	(1.45858173169816e+002dB,-8.14985459758971e+001°)
1.14815362149688e+003	(1.45661930663689e+002dB,-8.16643153075328e+001°)
1.17489755493952e+003	(1.45465523811497e+002dB,-8.18258640989435e+001°)
1.20226443461741e+003	(1.45268959833066e+002dB,-8.19832649990725e+001°)
1.23026877081237e+003	(1.45072245649502e+002dB,-8.21365892975099e+001°)
1.25892541179416e+003	(1.44875387894910e+002dB,-8.22859069083186e+001°)
1.28824955169313e+003	(1.44678392927786e+002dB,-8.24312863584359e+001°)
1.31825673855640e+003	(1.44481266842044e+002dB,-8.25727947775262e+001°)
1.34896288259165e+003	(1.44284015477657e+002dB,-8.27104978889358e+001°)
1.38038426460288e+003	(1.44086644430987e+002dB,-8.28444600038098e+001°)
1.41253754462275e+003	(1.43889159064760e+002dB,-8.29747440168841e+001°)
1.44543977074592e+003	(1.43691564517705e+002dB,-8.31014114034525e+001°)
1.47910838816820e+003	(1.43493865713862e+002dB,-8.32245222181911e+001°)
1.51356124843620e+003	(1.43296067371574e+002dB,-8.33441350948503e+001°)
1.54881661891247e+003	(1.43098174012170e+002dB,-8.34603072482085e+001°)
1.58489319246110e+003	(1.42900189968333e+002dB,-8.35730944757929e+001°)
1.62181009735892e+003	(1.42702119392173e+002dB,-8.36825511615307e+001°)
1.65958690743755e+003	(1.42503966263031e+002dB,-8.37887302804091e+001°)
1.69824365246173e+003	(1.42305734394971e+002dB,-8.38916834031606e+001°)
1.73780082874936e+003	(1.42107427444033e+002dB,-8.39914607024554e+001°)
1.77827941003891e+003	(1.41909048915199e+002dB,-8.40881109590869e+001°)
1.81970085860997e+003	(1.41710602169122e+002dB,-8.41816815692865e+001°)
1.86208713666286e+003	(1.41512090428603e+002dB,-8.42722185522662e+001°)
1.90546071796323e+003	(1.41313516784830e+002dB,-8.43597665579171e+001°)
1.94984459975803e+003	(1.41114884203393e+002dB,-8.44443688752582e+001°)
1.99526231496887e+003	(1.40916195530077e+002dB,-8.45260674410528e+001°)
2.04173794466952e+003	(1.40717453496443e+002dB,-8.46049028482904e+001°)
2.08929613085403e+003	(1.40518660725206e+002dB,-8.46809143555126e+001°)
2.13796208950222e+003	(1.40319819735425e+002dB,-8.47541398955986e+001°)
2.18776162394954e+003	(1.40120932947491e+002dB,-8.48246160851942e+001°)
2.23872113856832e+003	(1.39922002687954e+002dB,-8.48923782338360e+001°)
2.29086765276776e+003	(1.39723031194153e+002dB,-8.49574603524677e+001°)
2.34422881531991e+003	(1.39524020618715e+002dB,-8.50198951638328e+001°)
2.39883291901947e+003	(1.39324973033865e+002dB,-8.50797141104435e+001°)
2.45470891568501e+003	(1.39125890435609e+002dB,-8.51369473639849e+001°)
2.51188643150956e+003	(1.38926774747755e+002dB,-8.51916238338740e+001°)
2.57039578276885e+003	(1.38727627825824e+002dB,-8.52437711763438e+001°)
2.63026799189536e+003	(1.38528451460800e+002dB,-8.52934158023090e+001°)
2.69153480392690e+003	(1.38329247382785e+002dB,-8.53405828859582e+001°)
2.75422870333815e+003	(1.38130017264521e+002dB,-8.53852963726044e+001°)
2.81838293126443e+003	(1.37930762724810e+002dB,-8.54275789863984e+001°)
2.88403150312659e+003	(1.37731485331830e+002dB,-8.54674522378582e+001°)
2.95120922666636e+003	(1.37532186606346e+002dB,-8.55049364308258e+001°)
3.01995172040199e+003	(1.37332868024842e+002dB,-8.55400506695742e+001°)
3.09029543251357e+003	(1.37133531022556e+002dB,-8.55728128651509e+001°)
3.16227766016836e+003	(1.36934176996439e+002dB,-8.56032397414308e+001°)
3.23593656929626e+003	(1.36734807308040e+002dB,-8.56313468411832e+001°)
3.31131121482589e+003	(1.36535423286323e+002dB,-8.56571485314853e+001°)
3.38844156139200e+003	(1.36336026230415e+002dB,-8.56806580087098e+001°)
3.46736850452529e+003	(1.36136617412303e+002dB,-8.57018873033984e+001°)
3.54813389233573e+003	(1.35937198079471e+002dB,-8.57208472844855e+001°)
3.63078054770099e+003	(1.35737769457489e+002dB,-8.57375476631503e+001°)
3.71535229097170e+003	(1.35538332752566e+002dB,-8.57519969966031e+001°)
3.80189396320558e+003	(1.35338889154056e+002dB,-8.57642026909813e+001°)
3.89045144994278e+003	(1.35139439836939e+002dB,-8.57741710043782e+001°)
3.98107170553494e+003	(1.34939985964263e+002dB,-8.57819070486866e+001°)
4.07380277804110e+003	(1.34740528689575e+002dB,-8.57874147920030e+001°)
4.16869383470332e+003	(1.34541069159321e+002dB,-8.57906970595710e+001°)
4.26579518801589e+003	(1.34341608515243e+002dB,-8.57917555355421e+001°)
4.36515832240162e+003	(1.34142147896755e+002dB,-8.57905907627089e+001°)
4.46683592150960e+003	(1.33942688443329e+002dB,-8.57872021435508e+001°)
4.57088189614871e+003	(1.33743231296864e+002dB,-8.57815879394066e+001°)
4.67735141287194e+003	(1.33543777604076e+002dB,-8.57737452701841e+001°)
4.78630092322634e+003	(1.33344328518885e+002dB,-8.57636701131298e+001°)
4.89778819368442e+003	(1.33144885204825e+002dB,-8.57513573013577e+001°)
5.01187233627268e+003	(1.32945448837467e+002dB,-8.57368005219433e+001°)
5.12861383991361e+003	(1.32746020606871e+002dB,-8.57199923135928e+001°)
5.24807460249768e+003	(1.32546601720060e+002dB,-8.57009240639524e+001°)
5.37031796370248e+003	(1.32347193403537e+002dB,-8.56795860063704e+001°)
5.49540873857620e+003	(1.32147796905828e+002dB,-8.56559672162483e+001°)
5.62341325190344e+003	(1.31948413500083e+002dB,-8.56300556074412e+001°)
