Freq.	V(vout)/V(vin)
Step Information: Run=1  (Run: 1/18)
1.00000000000000e+001	(3.88691435603569e+001dB,-5.71399772430085e-003°)
1.02329299228075e+001	(3.88691435661394e+001dB,-5.84709383001277e-003°)
1.04712854805090e+001	(3.88691435721882e+001dB,-5.98329013769763e-003°)
1.07151930523761e+001	(3.88691435785324e+001dB,-6.12265888163653e-003°)
1.09647819614319e+001	(3.88691435851688e+001dB,-6.26527393170743e-003°)
1.12201845430196e+001	(3.88691435921233e+001dB,-6.41121092022749e-003°)
1.14815362149688e+001	(3.88691435994076e+001dB,-6.56054721480786e-003°)
1.17489755493953e+001	(3.88691436070300e+001dB,-6.71336199495988e-003°)
1.20226443461741e+001	(3.88691436150098e+001dB,-6.86973628726474e-003°)
1.23026877081238e+001	(3.88691436233737e+001dB,-7.02975300950641e-003°)
1.25892541179417e+001	(3.88691436321235e+001dB,-7.19349700303401e-003°)
1.28824955169313e+001	(3.88691436412900e+001dB,-7.36105507104930e-003°)
1.31825673855641e+001	(3.88691436508827e+001dB,-7.53251607927499e-003°)
1.34896288259165e+001	(3.88691436609330e+001dB,-7.70797093510546e-003°)
1.38038426460288e+001	(3.88691436714582e+001dB,-7.88751264394323e-003°)
1.41253754462275e+001	(3.88691436824722e+001dB,-8.07123643669636e-003°)
1.44543977074593e+001	(3.88691436940146e+001dB,-8.25923968690731e-003°)
1.47910838816821e+001	(3.88691437060963e+001dB,-8.45162210661264e-003°)
1.51356124843621e+001	(3.88691437187431e+001dB,-8.64848569620651e-003°)
1.54881661891248e+001	(3.88691437319919e+001dB,-8.84993481296665e-003°)
1.58489319246111e+001	(3.88691437458658e+001dB,-9.05607629302547e-003°)
1.62181009735893e+001	(3.88691437603952e+001dB,-9.26701943112005e-003°)
1.65958690743756e+001	(3.88691437756038e+001dB,-9.48287604936763e-003°)
1.69824365246174e+001	(3.88691437915303e+001dB,-9.70376062536213e-003°)
1.73780082874937e+001	(3.88691438082064e+001dB,-9.92979027814169e-003°)
1.77827941003892e+001	(3.88691438256718e+001dB,-1.01610848194079e-002°)
1.81970085860998e+001	(3.88691438439592e+001dB,-1.03977669115565e-002°)
1.86208713666287e+001	(3.88691438631093e+001dB,-1.06399620420200e-002°)
1.90546071796325e+001	(3.88691438831595e+001dB,-1.08877986162779e-002°)
1.94984459975804e+001	(3.88691439041516e+001dB,-1.11414080450146e-002°)
1.99526231496888e+001	(3.88691439261422e+001dB,-1.14009248135875e-002°)
2.04173794466953e+001	(3.88691439491599e+001dB,-1.16664864983143e-002°)
2.08929613085404e+001	(3.88691439732663e+001dB,-1.19382339249917e-002°)
2.13796208950223e+001	(3.88691439985165e+001dB,-1.22163111498208e-002°)
2.18776162394955e+001	(3.88691440249412e+001dB,-1.25008656241641e-002°)
2.23872113856834e+001	(3.88691440526186e+001dB,-1.27920482288900e-002°)
2.29086765276777e+001	(3.88691440816061e+001dB,-1.30900133564324e-002°)
2.34422881531992e+001	(3.88691441119547e+001dB,-1.33949189869305e-002°)
2.39883291901949e+001	(3.88691441437379e+001dB,-1.37069267940990e-002°)
2.45470891568503e+001	(3.88691441770051e+001dB,-1.40262021861256e-002°)
2.51188643150958e+001	(3.88691442118531e+001dB,-1.43529144650636e-002°)
2.57039578276886e+001	(3.88691442483405e+001dB,-1.46872368561845e-002°)
2.63026799189538e+001	(3.88691442865447e+001dB,-1.50293466083716e-002°)
2.69153480392691e+001	(3.88691443265515e+001dB,-1.53794251540205e-002°)
2.75422870333816e+001	(3.88691443684478e+001dB,-1.57376580379019e-002°)
2.81838293126445e+001	(3.88691444123147e+001dB,-1.61042352847901e-002°)
2.88403150312660e+001	(3.88691444582486e+001dB,-1.64793512100085e-002°)
2.95120922666638e+001	(3.88691445063476e+001dB,-1.68632046865885e-002°)
3.01995172040201e+001	(3.88691445567074e+001dB,-1.72559992940105e-002°)
3.09029543251359e+001	(3.88691446094504e+001dB,-1.76579432832876e-002°)
3.16227766016838e+001	(3.88691446646754e+001dB,-1.80692497320252e-002°)
3.23593656929628e+001	(3.88691447225043e+001dB,-1.84901367409501e-002°)
3.31131121482591e+001	(3.88691447830535e+001dB,-1.89208275062685e-002°)
3.38844156139202e+001	(3.88691448464663e+001dB,-1.93615503209400e-002°)
3.46736850452531e+001	(3.88691449128592e+001dB,-1.98125389023028e-002°)
3.54813389233575e+001	(3.88691449823864e+001dB,-2.02740323876937e-002°)
3.63078054770101e+001	(3.88691450551936e+001dB,-2.07462754845886e-002°)
3.71535229097172e+001	(3.88691451314283e+001dB,-2.12295184904039e-002°)
3.80189396320561e+001	(3.88691452112440e+001dB,-2.17240177274126e-002°)
3.89045144994280e+001	(3.88691452948361e+001dB,-2.22300353020516e-002°)
3.98107170553497e+001	(3.88691453823591e+001dB,-2.27478395996964e-002°)
4.07380277804112e+001	(3.88691454740097e+001dB,-2.32777050679617e-002°)
4.16869383470335e+001	(3.88691455699820e+001dB,-2.38199127829191e-002°)
4.26579518801592e+001	(3.88691456704727e+001dB,-2.43747500907350e-002°)
4.36515832240165e+001	(3.88691457757030e+001dB,-2.49425112926943e-002°)
4.46683592150962e+001	(3.88691458858900e+001dB,-2.55234973466283e-002°)
4.57088189614874e+001	(3.88691460012757e+001dB,-2.61180163271178e-002°)
4.67735141287197e+001	(3.88691461220908e+001dB,-2.67263834711835e-002°)
4.78630092322638e+001	(3.88691462486075e+001dB,-2.73489213306574e-002°)
4.89778819368445e+001	(3.88691463810837e+001dB,-2.79859599725154e-002°)
5.01187233627271e+001	(3.88691465198061e+001dB,-2.86378371910274e-002°)
5.12861383991364e+001	(3.88691466650603e+001dB,-2.93048986255333e-002°)
5.24807460249772e+001	(3.88691468171628e+001dB,-2.99874979494136e-002°)
5.37031796370252e+001	(3.88691469764347e+001dB,-3.06859970832127e-002°)
5.49540873857624e+001	(3.88691471432179e+001dB,-3.14007664078956e-002°)
5.62341325190348e+001	(3.88691473178520e+001dB,-3.21321848955256e-002°)
5.75439937337156e+001	(3.88691475007138e+001dB,-3.28806402874288e-002°)
5.88843655355588e+001	(3.88691476922055e+001dB,-3.36465295573287e-002°)
6.02559586074357e+001	(3.88691478927166e+001dB,-3.44302587702829e-002°)
6.16595001861481e+001	(3.88691481026822e+001dB,-3.52322434394750e-002°)
6.30957344480192e+001	(3.88691483225362e+001dB,-3.60529087177239e-002°)
6.45654229034654e+001	(3.88691485527530e+001dB,-3.68926898616398e-002°)
6.60693448007595e+001	(3.88691487938227e+001dB,-3.77520320917589e-002°)
6.76082975391980e+001	(3.88691490462515e+001dB,-3.86313910100879e-002°)
6.91830970918935e+001	(3.88691493105743e+001dB,-3.95312329586586e-002°)
7.07945784384136e+001	(3.88691495873573e+001dB,-4.04520349872596e-002°)
7.24435960074988e+001	(3.88691498771835e+001dB,-4.13942853431997e-002°)
7.41310241300916e+001	(3.88691501806642e+001dB,-4.23584836412476e-002°)
7.58577575029182e+001	(3.88691504984608e+001dB,-4.33451411287207e-002°)
7.76247116628690e+001	(3.88691508312190e+001dB,-4.43547809513592e-002°)
7.94328234724279e+001	(3.88691511796711e+001dB,-4.53879383595272e-002°)
8.12830516164097e+001	(3.88691515445417e+001dB,-4.64451612950843e-002°)
8.31763771102669e+001	(3.88691519266075e+001dB,-4.75270102073731e-002°)
8.51138038202374e+001	(3.88691523266776e+001dB,-4.86340588302285e-002°)
8.70963589956078e+001	(3.88691527456088e+001dB,-4.97668940464255e-002°)
8.91250938133743e+001	(3.88691531842738e+001dB,-5.09261165826359e-002°)
9.12010839355907e+001	(3.88691536436172e+001dB,-5.21123410523469e-002°)
9.33254300796988e+001	(3.88691541246112e+001dB,-5.33261964739569e-002°)
9.54992586021433e+001	(3.88691546282747e+001dB,-5.45683264215024e-002°)
9.77237220955808e+001	(3.88691551556723e+001dB,-5.58393895434538e-002°)
9.99999999999997e+001	(3.88691557079265e+001dB,-5.71400597618466e-002°)
1.02329299228075e+002	(3.88691562862051e+001dB,-5.84710267447050e-002°)
1.04712854805090e+002	(3.88691568917408e+001dB,-5.98329962365274e-002°)
1.07151930523760e+002	(3.88691575258097e+001dB,-6.12266903658279e-002°)
1.09647819614318e+002	(3.88691581897637e+001dB,-6.26528481188324e-002°)
1.12201845430196e+002	(3.88691588850112e+001dB,-6.41122257429219e-002°)
1.14815362149688e+002	(3.88691596130219e+001dB,-6.56055970082129e-002°)
1.17489755493953e+002	(3.88691603753450e+001dB,-6.71337537778328e-002°)
1.20226443461741e+002	(3.88691611735934e+001dB,-6.86975062707882e-002°)
1.23026877081238e+002	(3.88691620094652e+001dB,-7.02976837519269e-002°)
1.25892541179416e+002	(3.88691628847265e+001dB,-7.19351346300482e-002°)
1.28824955169313e+002	(3.88691638012394e+001dB,-7.36107272083125e-002°)
1.31825673855640e+002	(3.88691647609462e+001dB,-7.53253499258462e-002°)
1.34896288259165e+002	(3.88691657658837e+001dB,-7.70799119079971e-002°)
1.38038426460288e+002	(3.88691668181799e+001dB,-7.88753435648009e-002°)
1.41253754462275e+002	(3.88691679200708e+001dB,-8.07125968935919e-002°)
1.44543977074592e+002	(3.88691690738924e+001dB,-8.25926461381452e-002°)
1.47910838816820e+002	(3.88691702820919e+001dB,-8.45164881401519e-002°)
1.51356124843620e+002	(3.88691715472314e+001dB,-8.64851430471069e-002°)
1.54881661891248e+002	(3.88691728719963e+001dB,-8.84996547719460e-002°)
1.58489319246111e+002	(3.88691742591940e+001dB,-9.05610914831698e-002°)
1.62181009735892e+002	(3.88691757117704e+001dB,-9.26705462852303e-002°)
1.65958690743755e+002	(3.88691772328029e+001dB,-9.48291377576809e-002°)
1.69824365246174e+002	(3.88691788255213e+001dB,-9.70380105067137e-002°)
1.73780082874937e+002	(3.88691804933002e+001dB,-9.92983358363374e-002°)
1.77827941003892e+002	(3.88691822396801e+001dB,-1.01611312295638e-001°)
1.81970085860998e+002	(3.88691840683660e+001dB,-1.03978166416794e-001°)
1.86208713666286e+002	(3.88691859832335e+001dB,-1.06400153276073e-001°)
1.90546071796324e+002	(3.88691879883458e+001dB,-1.08878557162301e-001°)
1.94984459975804e+002	(3.88691900879585e+001dB,-1.11414692382681e-001°)
1.99526231496887e+002	(3.88691922865210e+001dB,-1.14009903755474e-001°)
2.04173794466952e+002	(3.88691945886978e+001dB,-1.16665567488635e-001°)
2.08929613085403e+002	(3.88691969993759e+001dB,-1.19383091875863e-001°)
2.13796208950222e+002	(3.88691995236645e+001dB,-1.22163917970019e-001°)
2.18776162394954e+002	(3.88692021669192e+001dB,-1.25009520452856e-001°)
2.23872113856833e+002	(3.88692049347475e+001dB,-1.27921408357825e-001°)
2.29086765276776e+002	(3.88692078330197e+001dB,-1.30901125835367e-001°)
2.34422881531991e+002	(3.88692108678835e+001dB,-1.33950253079263e-001°)
2.39883291901948e+002	(3.88692140457765e+001dB,-1.37070407082218e-001°)
2.45470891568502e+002	(3.88692173734390e+001dB,-1.40263242511101e-001°)
2.51188643150957e+002	(3.88692208579299e+001dB,-1.43530452606997e-001°)
2.57039578276885e+002	(3.88692245066399e+001dB,-1.46873770044968e-001°)
2.63026799189537e+002	(3.88692283273099e+001dB,-1.50294967919385e-001°)
2.69153480392690e+002	(3.88692323280422e+001dB,-1.53795860588344e-001°)
2.75422870333816e+002	(3.88692365173242e+001dB,-1.57378304785821e-001°)
2.81838293126444e+002	(3.88692409040414e+001dB,-1.61044200415200e-001°)
2.88403150312659e+002	(3.88692454974989e+001dB,-1.64795491729200e-001°)
2.95120922666637e+002	(3.88692503074403e+001dB,-1.68634168303699e-001°)
3.01995172040200e+002	(3.88692553440678e+001dB,-1.72562265995070e-001°)
3.09029543251358e+002	(3.88692606180659e+001dB,-1.76581868266311e-001°)
3.16227766016837e+002	(3.88692661406198e+001dB,-1.80695107004871e-001°)
3.23593656929627e+002	(3.88692719234452e+001dB,-1.84904163869223e-001°)
3.31131121482590e+002	(3.88692779788086e+001dB,-1.89211271352483e-001°)
3.38844156139201e+002	(3.88692843195536e+001dB,-1.93618714007436e-001°)
3.46736850452530e+002	(3.88692909591298e+001dB,-1.98128829631452e-001°)
3.54813389233574e+002	(3.88692979116216e+001dB,-2.02744010512189e-001°)
3.63078054770100e+002	(3.88693051917759e+001dB,-2.07466704775572e-001°)
3.71535229097171e+002	(3.88693128150352e+001dB,-2.12299417548505e-001°)
3.80189396320559e+002	(3.88693207975697e+001dB,-2.17244712425434e-001°)
3.89045144994279e+002	(3.88693291563123e+001dB,-2.22305212773442e-001°)
3.98107170553495e+002	(3.88693379089928e+001dB,-2.27483603115995e-001°)
4.07380277804111e+002	(3.88693470741770e+001dB,-2.32782630589343e-001°)
4.16869383470333e+002	(3.88693566713063e+001dB,-2.38205106421281e-001°)
4.26579518801591e+002	(3.88693667207378e+001dB,-2.43753907381921e-001°)
4.36515832240164e+002	(3.88693772437880e+001dB,-2.49431977336824e-001°)
4.46683592150961e+002	(3.88693882627786e+001dB,-2.55242328861041e-001°)
4.57088189614873e+002	(3.88693998010826e+001dB,-2.61188044777792e-001°)
4.67735141287196e+002	(3.88694118831750e+001dB,-2.67272279835102e-001°)
4.78630092322636e+002	(3.88694245346842e+001dB,-2.73498262390042e-001°)
4.89778819368444e+002	(3.88694377824469e+001dB,-2.79869296133198e-001°)
5.01187233627270e+002	(3.88694516545640e+001dB,-2.86388761850380e-001°)
5.12861383991362e+002	(3.88694661804608e+001dB,-2.93060119209740e-001°)
5.24807460249770e+002	(3.88694813909497e+001dB,-2.99886908648339e-001°)
5.37031796370250e+002	(3.88694973182957e+001dB,-3.06872753236717e-001°)
5.49540873857622e+002	(3.88695139962838e+001dB,-3.14021360601483e-001°)
5.62341325190346e+002	(3.88695314602916e+001dB,-3.21336524968078e-001°)
5.75439937337154e+002	(3.88695497473640e+001dB,-3.28822129122208e-001°)
5.88843655355586e+002	(3.88695688962920e+001dB,-3.36482146532982e-001°)
6.02559586074355e+002	(3.88695889476948e+001dB,-3.44320643465812e-001°)
6.16595001861479e+002	(3.88696099441061e+001dB,-3.52341781162075e-001°)
6.30957344480190e+002	(3.88696319300642e+001dB,-3.60549818067791e-001°)
6.45654229034652e+002	(3.88696549522062e+001dB,-3.68949112117153e-001°)
6.60693448007592e+002	(3.88696790593683e+001dB,-3.77544123106415e-001°)
6.76082975391978e+002	(3.88697043026875e+001dB,-3.86339415015944e-001°)
6.91830970918933e+002	(3.88697307357113e+001dB,-3.95339658529160e-001°)
7.07945784384134e+002	(3.88697584145111e+001dB,-4.04549633517268e-001°)
7.24435960074986e+002	(3.88697873978010e+001dB,-4.13974231611165e-001°)
7.41310241300914e+002	(3.88698177470625e+001dB,-4.23618458824859e-001°)
7.58577575029180e+002	(3.88698495266748e+001dB,-4.33487438298531e-001°)
7.76247116628688e+002	(3.88698828040517e+001dB,-4.43586412989157e-001°)
7.94328234724277e+002	(3.88699176497840e+001dB,-4.53920748554664e-001°)
8.12830516164095e+002	(3.88699541377903e+001dB,-4.64495936240225e-001°)
8.31763771102666e+002	(3.88699923454727e+001dB,-4.75317595834825e-001°)
8.51138038202372e+002	(3.88700323538820e+001dB,-4.86391478712666e-001°)
8.70963589956076e+002	(3.88700742478889e+001dB,-4.97723470962279e-001°)
8.91250938133741e+002	(3.88701181163648e+001dB,-5.09319596564563e-001°)
9.12010839355905e+002	(3.88701640523696e+001dB,-5.21186020652215e-001°)
9.33254300796986e+002	(3.88702121533500e+001dB,-5.33329052887276e-001°)
9.54992586021431e+002	(3.88702625213456e+001dB,-5.45755150861821e-001°)
9.77237220955805e+002	(3.88703152632060e+001dB,-5.58470923638496e-001°)
9.99999999999994e+002	(3.88703704908169e+001dB,-5.71483135340256e-001°)
1.02329299228075e+003	(3.88704283213381e+001dB,-5.84798708823068e-001°)
1.04712854805089e+003	(3.88704888774520e+001dB,-5.98424729508248e-001°)
1.07151930523760e+003	(3.88705522876237e+001dB,-6.12368449212600e-001°)
1.09647819614318e+003	(3.88706186863740e+001dB,-6.26637290152171e-001°)
1.12201845430196e+003	(3.88706882145645e+001dB,-6.41238848997817e-001°)
1.14815362149688e+003	(3.88707610196972e+001dB,-6.56180901073769e-001°)
1.17489755493952e+003	(3.88708372562267e+001dB,-6.71471404612945e-001°)
1.20226443461741e+003	(3.88709170858887e+001dB,-6.87118505163058e-001°)
1.23026877081237e+003	(3.88710006780434e+001dB,-7.03130540098576e-001°)
1.25892541179416e+003	(3.88710882100340e+001dB,-7.19516043208236e-001°)
1.28824955169313e+003	(3.88711798675646e+001dB,-7.36283749466884e-001°)
1.31825673855640e+003	(3.88712758450931e+001dB,-7.53442599856232e-001°)
1.34896288259165e+003	(3.88713763462448e+001dB,-7.71001746377202e-001°)
1.38038426460288e+003	(3.88714815842445e+001dB,-7.88970557141950e-001°)
1.41253754462275e+003	(3.88715917823689e+001dB,-8.07358621624506e-001°)
1.44543977074592e+003	(3.88717071744212e+001dB,-8.26175756043828e-001°)
1.47910838816820e+003	(3.88718280052271e+001dB,-8.45432008889892e-001°)
1.51356124843620e+003	(3.88719545311546e+001dB,-8.65137666588678e-001°)
1.54881661891247e+003	(3.88720870206588e+001dB,-8.85303259315764e-001°)
1.58489319246110e+003	(3.88722257548514e+001dB,-9.05939566991162e-001°)
1.62181009735892e+003	(3.88723710280984e+001dB,-9.27057625397542e-001°)
1.65958690743755e+003	(3.88725231486445e+001dB,-9.48668732487537e-001°)
1.69824365246173e+003	(3.88726824392682e+001dB,-9.70784454857594e-001°)
1.73780082874936e+003	(3.88728492379677e+001dB,-9.93416634407101e-001°)
1.77827941003891e+003	(3.88730238986781e+001dB,-1.01657739515187e+000°)
1.81970085860997e+003	(3.88732067920237e+001dB,-1.04027915026586e+000°)
1.86208713666286e+003	(3.88733983061056e+001dB,-1.06453460928812e+000°)
1.90546071796323e+003	(3.88735988473257e+001dB,-1.08935678555432e+000°)
1.94984459975803e+003	(3.88738088412506e+001dB,-1.11475900381841e+000°)
1.99526231496887e+003	(3.88740287335161e+001dB,-1.14075490811073e+000°)
2.04173794466952e+003	(3.88742589907734e+001dB,-1.16735846981021e+000°)
2.08929613085403e+003	(3.88745001016819e+001dB,-1.19458399594925e+000°)
2.13796208950222e+003	(3.88747525779471e+001dB,-1.22244613777187e+000°)
2.18776162394954e+003	(3.88750169554086e+001dB,-1.25095989953816e+000°)
2.23872113856832e+003	(3.88752937951794e+001dB,-1.28014064758160e+000°)
2.29086765276776e+003	(3.88755836848384e+001dB,-1.31000411965235e+000°)
2.34422881531991e+003	(3.88758872396804e+001dB,-1.34056643454662e+000°)
2.39883291901947e+003	(3.88762051040242e+001dB,-1.37184410199568e+000°)
2.45470891568501e+003	(3.88765379525831e+001dB,-1.40385403290887e+000°)
2.51188643150956e+003	(3.88768864919002e+001dB,-1.43661354990027e+000°)
2.57039578276885e+003	(3.88772514618512e+001dB,-1.47014039815897e+000°)
2.63026799189536e+003	(3.88776336372188e+001dB,-1.50445275666384e+000°)
2.69153480392690e+003	(3.88780338293416e+001dB,-1.53956924976561e+000°)
2.75422870333815e+003	(3.88784528878405e+001dB,-1.57550895911488e+000°)
2.81838293126443e+003	(3.88788917024276e+001dB,-1.61229143603387e+000°)
2.88403150312659e+003	(3.88793512047999e+001dB,-1.64993671424896e+000°)
2.95120922666636e+003	(3.88798323706239e+001dB,-1.68846532307782e+000°)
3.01995172040199e+003	(3.88803362216127e+001dB,-1.72789830105177e+000°)
3.09029543251357e+003	(3.88808638277030e+001dB,-1.76825721001764e+000°)
3.16227766016836e+003	(3.88814163093341e+001dB,-1.80956414971786e+000°)
3.23593656929626e+003	(3.88819948398358e+001dB,-1.85184177289552e+000°)
3.31131121482589e+003	(3.88826006479293e+001dB,-1.89511330092013e+000°)
3.38844156139200e+003	(3.88832350203462e+001dB,-1.93940254000053e+000°)
3.46736850452529e+003	(3.88838993045728e+001dB,-1.98473389796837e+000°)
3.54813389233573e+003	(3.88845949117236e+001dB,-2.03113240169579e+000°)
3.63078054770099e+003	(3.88853233195520e+001dB,-2.07862371515917e+000°)
3.71535229097170e+003	(3.88860860756037e+001dB,-2.12723415819001e+000°)
3.80189396320558e+003	(3.88868848005197e+001dB,-2.17699072594899e+000°)
3.89045144994278e+003	(3.88877211914969e+001dB,-2.22792110915917e+000°)
3.98107170553494e+003	(3.88885970259125e+001dB,-2.28005371513229e+000°)
4.07380277804110e+003	(3.88895141651213e+001dB,-2.33341768964676e+000°)
4.16869383470332e+003	(3.88904745584335e+001dB,-2.38804293970414e+000°)
4.26579518801589e+003	(3.88914802472819e+001dB,-2.44396015722678e+000°)
4.36515832240162e+003	(3.88925333695872e+001dB,-2.50120084374226e+000°)
4.46683592150960e+003	(3.88936361643319e+001dB,-2.55979733611153e+000°)
4.57088189614871e+003	(3.88947909763519e+001dB,-2.61978283335760e+000°)
4.67735141287194e+003	(3.88960002613559e+001dB,-2.68119142466304e+000°)
4.78630092322634e+003	(3.88972665911856e+001dB,-2.74405811859734e+000°)
4.89778819368442e+003	(3.88985926593258e+001dB,-2.80841887365355e+000°)
5.01187233627268e+003	(3.88999812866782e+001dB,-2.87431063015994e+000°)
5.12861383991361e+003	(3.89014354276108e+001dB,-2.94177134366560e+000°)
5.24807460249768e+003	(3.89029581762967e+001dB,-3.01084001987182e+000°)
5.37031796370248e+003	(3.89045527733556e+001dB,-3.08155675121626e+000°)
5.49540873857620e+003	(3.89062226128139e+001dB,-3.15396275520217e+000°)
5.62341325190344e+003	(3.89079712493974e+001dB,-3.22810041458785e+000°)
