Freq.	V(vo)
1.00000000000000e+001	(-4.40365244995386e+001dB,-9.00000429200468e+001°)
1.02329299228075e+001	(-4.38365244978613e+001dB,-9.00000439197831e+001°)
1.04712854805090e+001	(-4.36365244961050e+001dB,-9.00000449428062e+001°)
1.07151930523761e+001	(-4.34365244942659e+001dB,-9.00000459896585e+001°)
1.09647819614319e+001	(-4.32365244923401e+001dB,-9.00000470608952e+001°)
1.12201845430196e+001	(-4.30365244903236e+001dB,-9.00000481570842e+001°)
1.14815362149688e+001	(-4.28365244882120e+001dB,-9.00000492788067e+001°)
1.17489755493953e+001	(-4.26365244860009e+001dB,-9.00000504266574e+001°)
1.20226443461741e+001	(-4.24365244836856e+001dB,-9.00000516012451e+001°)
1.23026877081238e+001	(-4.22365244812612e+001dB,-9.00000528031924e+001°)
1.25892541179417e+001	(-4.20365244787225e+001dB,-9.00000540331366e+001°)
1.28824955169313e+001	(-4.18365244760642e+001dB,-9.00000552917299e+001°)
1.31825673855641e+001	(-4.16365244732806e+001dB,-9.00000565796396e+001°)
1.34896288259165e+001	(-4.14365244703659e+001dB,-9.00000578975485e+001°)
1.38038426460288e+001	(-4.12365244673137e+001dB,-9.00000592461555e+001°)
1.41253754462275e+001	(-4.10365244641177e+001dB,-9.00000606261756e+001°)
1.44543977074593e+001	(-4.08365244607711e+001dB,-9.00000620383404e+001°)
1.47910838816821e+001	(-4.06365244572667e+001dB,-9.00000634833988e+001°)
1.51356124843621e+001	(-4.04365244535973e+001dB,-9.00000649621169e+001°)
1.54881661891248e+001	(-4.02365244497548e+001dB,-9.00000664752787e+001°)
1.58489319246111e+001	(-4.00365244457313e+001dB,-9.00000680236867e+001°)
1.62181009735893e+001	(-3.98365244415182e+001dB,-9.00000696081616e+001°)
1.65958690743756e+001	(-3.96365244371065e+001dB,-9.00000712295437e+001°)
1.69824365246174e+001	(-3.94365244324868e+001dB,-9.00000728886926e+001°)
1.73780082874937e+001	(-3.92365244276495e+001dB,-9.00000745864880e+001°)
1.77827941003892e+001	(-3.90365244225842e+001dB,-9.00000763238301e+001°)
1.81970085860998e+001	(-3.88365244172802e+001dB,-9.00000781016401e+001°)
1.86208713666287e+001	(-3.86365244117262e+001dB,-9.00000799208606e+001°)
1.90546071796325e+001	(-3.84365244059104e+001dB,-9.00000817824562e+001°)
1.94984459975804e+001	(-3.82365243998206e+001dB,-9.00000836874138e+001°)
1.99526231496888e+001	(-3.80365243934437e+001dB,-9.00000856367436e+001°)
2.04173794466953e+001	(-3.78365243867663e+001dB,-9.00000876314790e+001°)
2.08929613085404e+001	(-3.76365243797743e+001dB,-9.00000896726778e+001°)
2.13796208950223e+001	(-3.74365243724527e+001dB,-9.00000917614222e+001°)
2.18776162394955e+001	(-3.72365243647860e+001dB,-9.00000938988196e+001°)
2.23872113856834e+001	(-3.70365243567581e+001dB,-9.00000960860034e+001°)
2.29086765276777e+001	(-3.68365243483517e+001dB,-9.00000983241332e+001°)
2.34422881531992e+001	(-3.66365243395492e+001dB,-9.00001006143956e+001°)
2.39883291901949e+001	(-3.64365243303319e+001dB,-9.00001029580051e+001°)
2.45470891568503e+001	(-3.62365243206801e+001dB,-9.00001053562042e+001°)
2.51188643150958e+001	(-3.60365243105735e+001dB,-9.00001078102644e+001°)
2.57039578276886e+001	(-3.58365242999906e+001dB,-9.00001103214870e+001°)
2.63026799189538e+001	(-3.56365242889089e+001dB,-9.00001128912034e+001°)
2.69153480392691e+001	(-3.54365242773049e+001dB,-9.00001155207761e+001°)
2.75422870333816e+001	(-3.52365242651541e+001dB,-9.00001182115993e+001°)
2.81838293126445e+001	(-3.50365242524306e+001dB,-9.00001209650997e+001°)
2.88403150312660e+001	(-3.48365242391075e+001dB,-9.00001237827373e+001°)
2.95120922666638e+001	(-3.46365242251565e+001dB,-9.00001266660061e+001°)
3.01995172040201e+001	(-3.44365242105480e+001dB,-9.00001296164346e+001°)
3.09029543251359e+001	(-3.42365241952510e+001dB,-9.00001326355873e+001°)
3.16227766016838e+001	(-3.40365241792330e+001dB,-9.00001357250650e+001°)
3.23593656929628e+001	(-3.38365241624602e+001dB,-9.00001388865058e+001°)
3.31131121482591e+001	(-3.36365241448969e+001dB,-9.00001421215858e+001°)
3.38844156139202e+001	(-3.34365241265059e+001dB,-9.00001454320203e+001°)
3.46736850452531e+001	(-3.32365241072481e+001dB,-9.00001488195646e+001°)
3.54813389233575e+001	(-3.30365240870828e+001dB,-9.00001522860147e+001°)
3.63078054770101e+001	(-3.28365240659670e+001dB,-9.00001558332086e+001°)
3.71535229097172e+001	(-3.26365240438562e+001dB,-9.00001594630271e+001°)
3.80189396320561e+001	(-3.24365240207032e+001dB,-9.00001631773947e+001°)
3.89045144994280e+001	(-3.22365239964591e+001dB,-9.00001669782807e+001°)
3.98107170553497e+001	(-3.20365239710724e+001dB,-9.00001708677005e+001°)
4.07380277804112e+001	(-3.18365239444893e+001dB,-9.00001748477162e+001°)
4.16869383470335e+001	(-3.16365239166534e+001dB,-9.00001789204381e+001°)
4.26579518801592e+001	(-3.14365238875055e+001dB,-9.00001830880256e+001°)
4.36515832240165e+001	(-3.12365238569840e+001dB,-9.00001873526882e+001°)
4.46683592150962e+001	(-3.10365238250241e+001dB,-9.00001917166873e+001°)
4.57088189614874e+001	(-3.08365237915579e+001dB,-9.00001961823365e+001°)
4.67735141287197e+001	(-3.06365237565145e+001dB,-9.00002007520037e+001°)
4.78630092322638e+001	(-3.04365237198196e+001dB,-9.00002054281116e+001°)
4.89778819368445e+001	(-3.02365236813953e+001dB,-9.00002102131395e+001°)
5.01187233627271e+001	(-3.00365236411601e+001dB,-9.00002151096246e+001°)
5.12861383991364e+001	(-2.98365235990287e+001dB,-9.00002201201628e+001°)
5.24807460249772e+001	(-2.96365235549117e+001dB,-9.00002252474109e+001°)
5.37031796370252e+001	(-2.94365235087155e+001dB,-9.00002304940872e+001°)
5.49540873857624e+001	(-2.92365234603422e+001dB,-9.00002358629737e+001°)
5.62341325190348e+001	(-2.90365234096891e+001dB,-9.00002413569168e+001°)
5.75439937337156e+001	(-2.88365233566487e+001dB,-9.00002469788295e+001°)
5.88843655355588e+001	(-2.86365233011087e+001dB,-9.00002527316925e+001°)
6.02559586074357e+001	(-2.84365232429512e+001dB,-9.00002586185559e+001°)
6.16595001861481e+001	(-2.82365231820527e+001dB,-9.00002646425410e+001°)
6.30957344480192e+001	(-2.80365231182843e+001dB,-9.00002708068417e+001°)
6.45654229034654e+001	(-2.78365230515105e+001dB,-9.00002771147263e+001°)
6.60693448007595e+001	(-2.76365229815897e+001dB,-9.00002835695391e+001°)
6.76082975391980e+001	(-2.74365229083737e+001dB,-9.00002901747026e+001°)
6.91830970918935e+001	(-2.72365228317071e+001dB,-9.00002969337186e+001°)
7.07945784384136e+001	(-2.70365227514273e+001dB,-9.00003038501709e+001°)
7.24435960074988e+001	(-2.68365226673641e+001dB,-9.00003109277264e+001°)
7.41310241300916e+001	(-2.66365225793391e+001dB,-9.00003181701376e+001°)
7.58577575029182e+001	(-2.64365224871656e+001dB,-9.00003255812444e+001°)
7.76247116628690e+001	(-2.62365223906481e+001dB,-9.00003331649761e+001°)
7.94328234724279e+001	(-2.60365222895818e+001dB,-9.00003409253534e+001°)
8.12830516164097e+001	(-2.58365221837525e+001dB,-9.00003488664909e+001°)
8.31763771102669e+001	(-2.56365220729355e+001dB,-9.00003569925988e+001°)
8.51138038202374e+001	(-2.54365219568960e+001dB,-9.00003653079854e+001°)
8.70963589956078e+001	(-2.52365218353876e+001dB,-9.00003738170595e+001°)
8.91250938133743e+001	(-2.50365217081527e+001dB,-9.00003825243324e+001°)
9.12010839355907e+001	(-2.48365215749214e+001dB,-9.00003914344205e+001°)
9.33254300796988e+001	(-2.46365214354112e+001dB,-9.00004005520477e+001°)
9.54992586021433e+001	(-2.44365212893260e+001dB,-9.00004098820481e+001°)
9.77237220955808e+001	(-2.42365211363560e+001dB,-9.00004194293681e+001°)
9.99999999999997e+001	(-2.40365209761768e+001dB,-9.00004291990696e+001°)
1.02329299228075e+002	(-2.38365208084486e+001dB,-9.00004391963321e+001°)
1.04712854805090e+002	(-2.36365206328155e+001dB,-9.00004494264558e+001°)
1.07151930523760e+002	(-2.34365204489051e+001dB,-9.00004598948646e+001°)
1.09647819614318e+002	(-2.32365202563273e+001dB,-9.00004706071083e+001°)
1.12201845430196e+002	(-2.30365200546736e+001dB,-9.00004815688662e+001°)
1.14815362149688e+002	(-2.28365198435162e+001dB,-9.00004927859499e+001°)
1.17489755493953e+002	(-2.26365196224073e+001dB,-9.00005042643061e+001°)
1.20226443461741e+002	(-2.24365193908778e+001dB,-9.00005160100201e+001°)
1.23026877081238e+002	(-2.22365191484367e+001dB,-9.00005280293192e+001°)
1.25892541179416e+002	(-2.20365188945697e+001dB,-9.00005403285751e+001°)
1.28824955169313e+002	(-2.18365186287383e+001dB,-9.00005529143085e+001°)
1.31825673855640e+002	(-2.16365183503786e+001dB,-9.00005657931916e+001°)
1.34896288259165e+002	(-2.14365180589002e+001dB,-9.00005789720519e+001°)
1.38038426460288e+002	(-2.12365177536849e+001dB,-9.00005924578762e+001°)
1.41253754462275e+002	(-2.10365174340852e+001dB,-9.00006062578138e+001°)
1.44543977074592e+002	(-2.08365170994232e+001dB,-9.00006203791803e+001°)
1.47910838816820e+002	(-2.06365167489890e+001dB,-9.00006348294620e+001°)
1.51356124843620e+002	(-2.04365163820394e+001dB,-9.00006496163193e+001°)
1.54881661891248e+002	(-2.02365159977960e+001dB,-9.00006647475910e+001°)
1.58489319246111e+002	(-2.00365155954437e+001dB,-9.00006802312983e+001°)
1.62181009735892e+002	(-1.98365151741291e+001dB,-9.00006960756495e+001°)
1.65958690743755e+002	(-1.96365147329586e+001dB,-9.00007122890436e+001°)
1.69824365246174e+002	(-1.94365142709963e+001dB,-9.00007288800753e+001°)
1.73780082874937e+002	(-1.92365137872624e+001dB,-9.00007458575396e+001°)
1.77827941003892e+002	(-1.90365132807307e+001dB,-9.00007632304360e+001°)
1.81970085860998e+002	(-1.88365127503269e+001dB,-9.00007810079735e+001°)
1.86208713666286e+002	(-1.86365121949259e+001dB,-9.00007991995756e+001°)
1.90546071796324e+002	(-1.84365116133497e+001dB,-9.00008178148853e+001°)
1.94984459975804e+002	(-1.82365110043646e+001dB,-9.00008368637697e+001°)
1.99526231496887e+002	(-1.80365103666788e+001dB,-9.00008563563260e+001°)
2.04173794466952e+002	(-1.78365096989397e+001dB,-9.00008763028861e+001°)
2.08929613085403e+002	(-1.76365089997311e+001dB,-9.00008967140225e+001°)
2.13796208950222e+002	(-1.74365082675697e+001dB,-9.00009176005539e+001°)
2.18776162394954e+002	(-1.72365075009025e+001dB,-9.00009389735507e+001°)
2.23872113856833e+002	(-1.70365066981033e+001dB,-9.00009608443410e+001°)
2.29086765276776e+002	(-1.68365058574693e+001dB,-9.00009832245163e+001°)
2.34422881531991e+002	(-1.66365049772173e+001dB,-9.00010061259383e+001°)
2.39883291901948e+002	(-1.64365040554803e+001dB,-9.00010295607443e+001°)
2.45470891568502e+002	(-1.62365030903030e+001dB,-9.00010535413542e+001°)
2.51188643150957e+002	(-1.60365020796382e+001dB,-9.00010780804771e+001°)
2.57039578276885e+002	(-1.58365010213420e+001dB,-9.00011031911175e+001°)
2.63026799189537e+002	(-1.56364999131698e+001dB,-9.00011288865826e+001°)
2.69153480392690e+002	(-1.54364987527709e+001dB,-9.00011551804892e+001°)
2.75422870333816e+002	(-1.52364975376839e+001dB,-9.00011820867710e+001°)
2.81838293126444e+002	(-1.50364962653314e+001dB,-9.00012096196855e+001°)
2.88403150312659e+002	(-1.48364949330146e+001dB,-9.00012377938222e+001°)
2.95120922666637e+002	(-1.46364935379074e+001dB,-9.00012666241097e+001°)
3.01995172040200e+002	(-1.44364920770506e+001dB,-9.00012961258241e+001°)
3.09029543251358e+002	(-1.42364905473455e+001dB,-9.00013263145964e+001°)
3.16227766016837e+002	(-1.40364889455472e+001dB,-9.00013572064212e+001°)
3.23593656929627e+002	(-1.38364872682583e+001dB,-9.00013888176654e+001°)
3.31131121482590e+002	(-1.36364855119207e+001dB,-9.00014211650759e+001°)
3.38844156139201e+002	(-1.34364836728092e+001dB,-9.00014542657893e+001°)
3.46736850452530e+002	(-1.32364817470225e+001dB,-9.00014881373404e+001°)
3.54813389233574e+002	(-1.30364797304759e+001dB,-9.00015227976717e+001°)
3.63078054770100e+002	(-1.28364776188918e+001dB,-9.00015582651427e+001°)
3.71535229097171e+002	(-1.26364754077912e+001dB,-9.00015945585396e+001°)
3.80189396320559e+002	(-1.24364730924841e+001dB,-9.00016316970850e+001°)
3.89045144994279e+002	(-1.22364706680593e+001dB,-9.00016697004484e+001°)
3.98107170553495e+002	(-1.20364681293740e+001dB,-9.00017085887561e+001°)
4.07380277804111e+002	(-1.18364654710434e+001dB,-9.00017483826019e+001°)
4.16869383470333e+002	(-1.16364626874287e+001dB,-9.00017891030579e+001°)
4.26579518801591e+002	(-1.14364597726252e+001dB,-9.00018307716858e+001°)
4.36515832240164e+002	(-1.12364567204502e+001dB,-9.00018734105477e+001°)
4.46683592150961e+002	(-1.10364535244294e+001dB,-9.00019170422180e+001°)
4.57088189614873e+002	(-1.08364501777835e+001dB,-9.00019616897952e+001°)
4.67735141287196e+002	(-1.06364466734137e+001dB,-9.00020073769137e+001°)
4.78630092322636e+002	(-1.04364430038864e+001dB,-9.00020541277566e+001°)
4.89778819368444e+002	(-1.02364391614179e+001dB,-9.00021019670678e+001°)
5.01187233627270e+002	(-1.00364351378575e+001dB,-9.00021509201654e+001°)
5.12861383991362e+002	(-9.83643092467060e+000dB,-9.00022010129547e+001°)
5.24807460249770e+002	(-9.63642651292001e+000dB,-9.00022522719414e+001°)
5.37031796370250e+002	(-9.43642189324755e+000dB,-9.00023047242460e+001°)
5.49540873857622e+002	(-9.23641705585391e+000dB,-9.00023583976173e+001°)
5.62341325190346e+002	(-9.03641199047797e+000dB,-9.00024133204473e+001°)
5.75439937337154e+002	(-8.83640668637495e+000dB,-9.00024695217857e+001°)
5.88843655355586e+002	(-8.63640113229368e+000dB,-9.00025270313549e+001°)
6.02559586074355e+002	(-8.43639531645271e+000dB,-9.00025858795654e+001°)
6.16595001861479e+002	(-8.23638922651530e+000dB,-9.00026460975319e+001°)
6.30957344480190e+002	(-8.03638284956326e+000dB,-9.00027077170890e+001°)
6.45654229034652e+002	(-7.83637617206956e+000dB,-9.00027707708075e+001°)
6.60693448007592e+002	(-7.63636917986962e+000dB,-9.00028352920118e+001°)
6.76082975391978e+002	(-7.43636185813123e+000dB,-9.00029013147964e+001°)
6.91830970918933e+002	(-7.23635419132312e+000dB,-9.00029688740438e+001°)
7.07945784384134e+002	(-7.03634616318201e+000dB,-9.00030380054423e+001°)
7.24435960074986e+002	(-6.83633775667807e+000dB,-9.00031087455042e+001°)
7.41310241300914e+002	(-6.63632895397883e+000dB,-9.00031811315849e+001°)
7.58577575029180e+002	(-6.43631973641130e+000dB,-9.00032552019012e+001°)
7.76247116628688e+002	(-6.23631008442240e+000dB,-9.00033309955516e+001°)
7.94328234724277e+002	(-6.03629997753744e+000dB,-9.00034085525357e+001°)
8.12830516164095e+002	(-5.83628939431667e+000dB,-9.00034879137746e+001°)
8.31763771102666e+002	(-5.63627831230985e+000dB,-9.00035691211319e+001°)
8.51138038202372e+002	(-5.43626670800852e+000dB,-9.00036522174344e+001°)
8.70963589956076e+002	(-5.23625455679620e+000dB,-9.00037372464942e+001°)
8.91250938133741e+002	(-5.03624183289612e+000dB,-9.00038242531304e+001°)
9.12010839355905e+002	(-4.83622850931653e+000dB,-9.00039132831917e+001°)
9.33254300796986e+002	(-4.63621455779341e+000dB,-9.00040043835795e+001°)
9.54992586021431e+002	(-4.43619994873052e+000dB,-9.00040976022711e+001°)
9.77237220955805e+002	(-4.23618465113658e+000dB,-9.00041929883438e+001°)
9.99999999999994e+002	(-4.03616863255951e+000dB,-9.00042905919989e+001°)
1.02329299228075e+003	(-3.83615185901755e+000dB,-9.00043904645870e+001°)
1.04712854805089e+003	(-3.63613429492714e+000dB,-9.00044926586331e+001°)
1.07151930523760e+003	(-3.43611590302745e+000dB,-9.00045972278622e+001°)
1.09647819614318e+003	(-3.23609664430122e+000dB,-9.00047042272261e+001°)
1.12201845430196e+003	(-3.03607647789205e+000dB,-9.00048137129294e+001°)
1.14815362149688e+003	(-2.83605536101761e+000dB,-9.00049257424578e+001°)
1.17489755493952e+003	(-2.63603324887886e+000dB,-9.00050403746048e+001°)
1.20226443461741e+003	(-2.43601009456496e+000dB,-9.00051576695010e+001°)
1.23026877081237e+003	(-2.23598584895373e+000dB,-9.00052776886420e+001°)
1.25892541179416e+003	(-2.03596046060731e+000dB,-9.00054004949182e+001°)
1.28824955169313e+003	(-1.83593387566307e+000dB,-9.00055261526446e+001°)
1.31825673855640e+003	(-1.63590603771917e+000dB,-9.00056547275908e+001°)
1.34896288259165e+003	(-1.43587688771490e+000dB,-9.00057862870120e+001°)
1.38038426460288e+003	(-1.23584636380524e+000dB,-9.00059208996801e+001°)
1.41253754462275e+003	(-1.03581440122961e+000dB,-9.00060586359157e+001°)
1.44543977074592e+003	(-8.35780932174352e-001dB,-9.00061995676202e+001°)
1.47910838816820e+003	(-6.35745885628730e-001dB,-9.00063437683086e+001°)
1.51356124843620e+003	(-4.35709187234178e-001dB,-9.00064913131426e+001°)
1.54881661891247e+003	(-2.35670759126396e-001dB,-9.00066422789644e+001°)
1.58489319246110e+003	(-3.56305197699857e-002dB,-9.00067967443308e+001°)
1.62181009735892e+003	(1.64411616214681e-001dB,-9.00069547895475e+001°)
1.65958690743755e+003	(3.64455738232787e-001dB,-9.00071164967045e+001°)
1.69824365246173e+003	(5.64501939904993e-001dB,-9.00072819497111e+001°)
1.73780082874936e+003	(7.64550319266247e-001dB,-9.00074512343317e+001°)
1.77827941003891e+003	(9.64600978974049e-001dB,-9.00076244382222e+001°)
1.81970085860997e+003	(1.16465402652653e+000dB,-9.00078016509659e+001°)
1.86208713666286e+003	(1.36470957449083e+000dB,-9.00079829641109e+001°)
1.90546071796323e+003	(1.56476774074222e+000dB,-9.00081684712065e+001°)
1.94984459975803e+003	(1.76482864871463e+000dB,-9.00083582678408e+001°)
1.99526231496887e+003	(1.96489242766287e+000dB,-9.00085524516781e+001°)
2.04173794466952e+003	(2.16495921293738e+000dB,-9.00087511224963e+001°)
2.08929613085403e+003	(2.36502914627184e+000dB,-9.00089543822248e+001°)
2.13796208950222e+003	(2.56510237608444e+000dB,-9.00091623349822e+001°)
2.18776162394954e+003	(2.76517905779340e+000dB,-9.00093750871141e+001°)
2.23872113856832e+003	(2.96525935414737e+000dB,-9.00095927472306e+001°)
2.29086765276776e+003	(3.16534343557143e+000dB,-9.00098154262439e+001°)
2.34422881531991e+003	(3.36543148052952e+000dB,-9.00100432374059e+001°)
2.39883291901947e+003	(3.56552367590397e+000dB,-9.00102762963447e+001°)
2.45470891568501e+003	(3.76562021739294e+000dB,-9.00105147211016e+001°)
2.51188643150956e+003	(3.96572130992678e+000dB,-9.00107586321672e+001°)
2.57039578276885e+003	(4.16582716810395e+000dB,-9.00110081525168e+001°)
2.63026799189536e+003	(4.36593801664764e+000dB,-9.00112634076453e+001°)
2.69153480392690e+003	(4.56605409088406e+000dB,-9.00115245256012e+001°)
2.75422870333815e+003	(4.76617563724323e+000dB,-9.00117916370197e+001°)
2.81838293126443e+003	(4.96630291378364e+000dB,-9.00120648751544e+001°)
2.88403150312659e+003	(5.16643619074161e+000dB,-9.00123443759078e+001°)
2.95120922666636e+003	(5.36657575110686e+000dB,-9.00126302778608e+001°)
3.01995172040199e+003	(5.56672189122514e+000dB,-9.00129227222998e+001°)
3.09029543251357e+003	(5.76687492142959e+000dB,-9.00132218532423e+001°)
3.16227766016836e+003	(5.96703516670199e+000dB,-9.00135278174607e+001°)
3.23593656929626e+003	(6.16720296736529e+000dB,-9.00138407645030e+001°)
3.31131121482589e+003	(6.36737867980915e+000dB,-9.00141608467118e+001°)
3.38844156139200e+003	(6.56756267724972e+000dB,-9.00144882192397e+001°)
3.46736850452529e+003	(6.76775535052569e+000dB,-9.00148230400618e+001°)
3.54813389233573e+003	(6.96795710893194e+000dB,-9.00151654699849e+001°)
3.63078054770099e+003	(7.16816838109295e+000dB,-9.00155156726525e+001°)
3.71535229097170e+003	(7.36838961587763e+000dB,-9.00158738145455e+001°)
3.80189396320558e+003	(7.56862128335765e+000dB,-9.00162400649786e+001°)
3.89045144994278e+003	(7.76886387581136e+000dB,-9.00166145960913e+001°)
3.98107170553494e+003	(7.96911790877548e+000dB,-9.00169975828334e+001°)
4.07380277804110e+003	(8.16938392214682e+000dB,-9.00173892029444e+001°)
4.16869383470332e+003	(8.36966248133647e+000dB,-9.00177896369260e+001°)
4.26579518801589e+003	(8.56995417847906e+000dB,-9.00181990680077e+001°)
4.36515832240162e+003	(8.77025963369948e+000dB,-9.00186176821041e+001°)
4.46683592150960e+003	(8.97057949644021e+000dB,-9.00190456677640e+001°)
4.57088189614871e+003	(9.17091444685190e+000dB,-9.00194832161095e+001°)
4.67735141287194e+003	(9.37126519725032e+000dB,-9.00199305207654e+001°)
4.78630092322634e+003	(9.57163249364294e+000dB,-9.00203877777775e+001°)
4.89778819368442e+003	(9.77201711732856e+000dB,-9.00208551855185e+001°)
5.01187233627268e+003	(9.97241988657336e+000dB,-9.00213329445814e+001°)
5.12861383991361e+003	(1.01728416583672e+001dB,-9.00218212576581e+001°)
5.24807460249768e+003	(1.03732833302642e+001dB,-9.00223203294037e+001°)
5.37031796370248e+003	(1.05737458423112e+001dB,-9.00228303662831e+001°)
