Freq.	V(vout)/V(v1)
1.00000000000000e+000	(-2.00001090715470e+001dB,1.79999929674821e+002°)
1.25892541179417e+000	(-2.00001090715472e+001dB,1.79999911465845e+002°)
1.58489319246111e+000	(-2.00001090715476e+001dB,1.79999888542102e+002°)
1.99526231496888e+000	(-2.00001090715481e+001dB,1.79999859682820e+002°)
2.51188643150958e+000	(-2.00001090715490e+001dB,1.79999823351137e+002°)
3.16227766016838e+000	(-2.00001090715504e+001dB,1.79999777612257e+002°)
3.98107170553497e+000	(-2.00001090715527e+001dB,1.79999720030419e+002°)
5.01187233627272e+000	(-2.00001090715562e+001dB,1.79999647539180e+002°)
6.30957344480194e+000	(-2.00001090715617e+001dB,1.79999556278117e+002°)
7.94328234724282e+000	(-2.00001090715706e+001dB,1.79999441387246e+002°)
1.00000000000000e+001	(-2.00001090715846e+001dB,1.79999296748208e+002°)
1.25892541179417e+001	(-2.00001090716069e+001dB,1.79999114658448e+002°)
1.58489319246111e+001	(-2.00001090716420e+001dB,1.79998885421022e+002°)
1.99526231496888e+001	(-2.00001090716979e+001dB,1.79998596828202e+002°)
2.51188643150958e+001	(-2.00001090717864e+001dB,1.79998233511366e+002°)
3.16227766016838e+001	(-2.00001090719266e+001dB,1.79997776122568e+002°)
3.98107170553498e+001	(-2.00001090721488e+001dB,1.79997200304188e+002°)
5.01187233627273e+001	(-2.00001090725011e+001dB,1.79996475391797e+002°)
6.30957344480194e+001	(-2.00001090730593e+001dB,1.79995562781165e+002°)
7.94328234724283e+001	(-2.00001090739440e+001dB,1.79994413872449e+002°)
1.00000000000000e+002	(-2.00001090753462e+001dB,1.79992967482068e+002°)
1.25892541179417e+002	(-2.00001090775687e+001dB,1.79991146584457e+002°)
1.58489319246112e+002	(-2.00001090810909e+001dB,1.79988854210172e+002°)
1.99526231496888e+002	(-2.00001090866733e+001dB,1.79985968281914e+002°)
2.51188643150958e+002	(-2.00001090955208e+001dB,1.79982335113455e+002°)
3.16227766016838e+002	(-2.00001091095431e+001dB,1.79977761225282e+002°)
3.98107170553498e+002	(-2.00001091317669e+001dB,1.79972003041082e+002°)
5.01187233627273e+002	(-2.00001091669894e+001dB,1.79964753916368e+002°)
6.30957344480194e+002	(-2.00001092228134e+001dB,1.79955627808459e+002°)
7.94328234724283e+002	(-2.00001093112886e+001dB,1.79944138718117e+002°)
1.00000000000000e+003	(-2.00001094515127e+001dB,1.79929674807963e+002°)
1.25892541179417e+003	(-2.00001096737541e+001dB,1.79911465819199e+002°)
1.58489319246112e+003	(-2.00001100259856e+001dB,1.79888542051110e+002°)
1.99526231496888e+003	(-2.00001105842417e+001dB,1.79859682718150e+002°)
2.51188643150959e+003	(-2.00001114690350e+001dB,1.79823350933053e+002°)
3.16227766016839e+003	(-2.00001128713804e+001dB,1.79777611850781e+002°)
3.98107170553498e+003	(-2.00001150940553e+001dB,1.79720029608640e+002°)
5.01187233627273e+003	(-2.00001186170266e+001dB,1.79647537563135e+002°)
6.30957344480195e+003	(-2.00001242012358e+001dB,1.79556274891107e+002°)
7.94328234724283e+003	(-2.00001330533085e+001dB,1.79441380809411e+002°)
1.00000000000000e+004	(-2.00001470871625e+001dB,1.79296735366555e+002°)
1.25892541179417e+004	(-2.00001693400334e+001dB,1.79114632826891e+002°)
1.58489319246112e+004	(-2.00002046353617e+001dB,1.78885369903662e+002°)
1.99526231496889e+004	(-2.00002606422665e+001dB,1.78596726214591e+002°)
2.51188643150959e+004	(-2.00003495769712e+001dB,1.78233307900992e+002°)
3.16227766016839e+004	(-2.00004909553180e+001dB,1.77775716685095e+002°)
3.98107170553498e+004	(-2.00007160956701e+001dB,1.77199494604185e+002°)
5.01187233627274e+004	(-2.00010756081753e+001dB,1.76473777285075e+002°)
6.30957344480195e+004	(-2.00016521495289e+001dB,1.75559562388830e+002°)
7.94328234724284e+004	(-2.00025828582204e+001dB,1.74407458369885e+002°)
1.00000000000000e+005	(-2.00041004772896e+001dB,1.72954710346834e+002°)
1.25892541179417e+005	(-2.00066124597638e+001dB,1.71121184104933e+002°)
1.58489319246112e+005	(-2.00108611267737e+001dB,1.68803791967728e+002°)
1.99526231496889e+005	(-2.00182639819842e+001dB,1.65868518312081e+002°)
2.51188643150959e+005	(-2.00316663111976e+001dB,1.62138719416557e+002°)
3.16227766016839e+005	(-2.00570510649422e+001dB,1.57377887632006e+002°)
3.98107170553499e+005	(-2.01074584293348e+001dB,1.51265575804429e+002°)
5.01187233627274e+005	(-2.02117964729068e+001dB,1.43370707905596e+002°)
6.30957344480196e+005	(-2.04332015864099e+001dB,1.33149906223957e+002°)
7.94328234724285e+005	(-2.08998760021253e+001dB,1.20065972725033e+002°)
1.00000000000000e+006	(-2.18283908315412e+001dB,1.04012854489266e+002°)
1.25892541179417e+006	(-2.34627775240855e+001dB,8.60127532219431e+001°)
1.58489319246112e+006	(-2.58882077589531e+001dB,6.82382668010724e+001°)
1.99526231496889e+006	(-2.89318464405152e+001dB,5.26526971074411e+001°)
2.51188643150959e+006	(-3.23093318147931e+001dB,3.99372831944505e+001°)
3.16227766016839e+006	(-3.57833518994528e+001dB,2.98229791285589e+001°)
3.98107170553499e+006	(-3.91898981833769e+001dB,2.17724276526323e+001°)
5.01187233627275e+006	(-4.24074927092443e+001dB,1.53171196168698e+001°)
6.30957344480196e+006	(-4.53341107341942e+001dB,1.01314649534443e+001°)
7.94328234724285e+006	(-4.78846361921156e+001dB,6.00409149436645e+000°)
1.00000000000000e+007	(-5.00025871349811e+001dB,2.77597864828226e+000°)
1.25892541179417e+007	(-5.16736821352952e+001dB,2.80984640572346e-001°)
1.58489319246112e+007	(-5.29288583099241e+001dB,-1.68093908442734e+000°)
1.99526231496889e+007	(-5.38327654539289e+001dB,-3.33040403019770e+000°)
2.51188643150959e+007	(-5.44645787295750e+001dB,-4.87850498146065e+000°)
3.16227766016839e+007	(-5.49012909512221e+001dB,-6.50732461867800e+000°)
3.98107170553499e+007	(-5.52088363976479e+001dB,-8.36866087912707e+000°)
5.01187233627275e+007	(-5.54405374475879e+001dB,-1.05930615840712e+001°)
6.30957344480196e+007	(-5.56399158374058e+001dB,-1.32991096809863e+001°)
7.94328234724286e+007	(-5.58452158499981e+001dB,-1.65964362349068e+001°)
1.00000000000001e+008	(-5.60939528183699e+001dB,-2.05786361020158e+001°)
1.25892541179417e+008	(-5.64262622319479e+001dB,-2.53037328601367e+001°)
1.58489319246112e+008	(-5.68856614798527e+001dB,-3.07630750166777e+001°)
1.99526231496889e+008	(-5.75157029975850e+001dB,-3.68477565110245e+001°)
2.51188643150959e+008	(-5.83521468577189e+001dB,-4.33331473027987e+001°)
3.16227766016840e+008	(-5.94133794651715e+001dB,-4.99045916628971e+001°)
3.98107170553499e+008	(-6.06946941558481e+001dB,-5.62262957932590e+001°)
5.01187233627275e+008	(-6.21706269655341e+001dB,-6.20214761362161e+001°)
6.30957344480197e+008	(-6.38038821072066e+001dB,-6.71217080473142e+001°)
7.94328234724286e+008	(-6.55553466196663e+001dB,-7.14697293266012e+001°)
1.00000000000001e+009	(-6.73908358728189e+001dB,-7.50911248429511e+001°)
1.25892541179417e+009	(-6.92837168508922e+001dB,-7.80586892067722e+001°)
1.58489319246112e+009	(-7.12147364216112e+001dB,-8.04639507246383e+001°)
1.99526231496889e+009	(-7.31706390512976e+001dB,-8.23994198677306e+001°)
2.51188643150960e+009	(-7.51425820934592e+001dB,-8.39495702658209e+001°)
3.16227766016840e+009	(-7.71247851363651e+001dB,-8.51873783516126e+001°)
3.98107170553500e+009	(-7.91135181772151e+001dB,-8.61738803334432e+001°)
5.01187233627275e+009	(-8.11063940587162e+001dB,-8.69591377319055e+001°)
6.30957344480197e+009	(-8.31018929920626e+001dB,-8.75837202221598e+001°)
7.94328234724287e+009	(-8.50990505963779e+001dB,-8.80802608185450e+001°)
1.00000000000001e+010	(-8.70972562033137e+001dB,-8.84748863656157e+001°)
1.25892541179418e+010	(-8.90961236342602e+001dB,-8.87884535865868e+001°)
1.58489319246112e+010	(-9.10954088787099e+001dB,-8.90375815410106e+001°)
1.99526231496889e+010	(-9.30949578375984e+001dB,-8.92354973097057e+001°)
2.51188643150960e+010	(-9.50946732256672e+001dB,-8.93927206273688e+001°)
3.16227766016840e+010	(-9.70944936380317e+001dB,-8.95176141816305e+001°)
3.98107170553500e+010	(-9.90943803220532e+001dB,-8.96168239832270e+001°)
5.01187233627276e+010	(-1.01094308822975e+002dB,-8.96956307963926e+001°)
6.30957344480198e+010	(-1.03094263709498e+002dB,-8.97582301084847e+001°)
7.94328234724287e+010	(-1.05094235244576e+002dB,-8.98079549282077e+001°)
1.00000000000000e+011	(-1.07094217284327e+002dB,-8.98474529663072e+001°)
